freq,Zreal,Zimag,sigma_im
0.01,1.7925747453148262,0.027743044653107063,5.511866669749566e-07
0.01258925411794166,1.8029838386599346,0.03390516409763222,2.713679227994703e-07
0.01584893192461111,1.8114867825412222,0.03991118811882188,2.4575876134136365e-07
0.019952623149688792,1.8195562965308119,0.04656088343517695,1.8480402319553946e-07
0.02511886431509577,1.8285516438328546,0.053850561628678406,1.7128795759546733e-07
0.031622776601683784,1.8394324182397488,0.061148546325057396,1.6016720882916502e-07
0.039810717055349686,1.8525893459344056,0.06746893466424808,1.546460555168494e-07
0.05011872336272714,1.8678178370560516,0.07177318284993817,1.3965688960837497e-07
0.0630957344480193,1.884423127295978,0.0732294427089073,1.4114072044435488e-07
0.07943282347242805,1.901415093405659,0.07137781239907781,1.3898634865228132e-07
0.1,1.9177339333813412,0.0661786899636354,1.3386039254825732e-07
0.12589254117941662,1.9324484402638151,0.057953921183070634,1.2026217977023634e-07
0.1584893192461111,1.944884885030518,0.047255830866561155,1.101515842982792e-07
0.1995262314968879,1.954670208372896,0.03471153956888884,1.2056425768847134e-07
0.2511886431509577,1.961699431280706,0.020886344213067787,1.0887491708189145e-07
0.31622776601683794,1.966055559950216,0.006194421668624273,9.378770116086343e-08
0.3981071705534969,1.9679157678884747,-0.009136845232205815,1.1245643172230757e-07
0.5011872336272715,1.9674702798495938,-0.025060670825041598,1.08069075910322e-07
0.6309573444801929,1.964864964136172,-0.04168367113743443,9.820003210592176e-08
0.7943282347242805,1.9601627743680576,-0.05923595830427075,1.0573354458642825e-07
1.0,1.953310194322304,-0.07804453050448501,8.306833976234884e-08
1.2589254117941662,1.9440967627192114,-0.09850177257430914,9.93696582796133e-08
1.584893192461111,1.9321076036112828,-0.12101240809352021,8.567181630780851e-08
1.9952623149688788,1.9166849466854807,-0.14590321656760352,8.905699955263913e-08
2.5118864315095766,1.8969267072511222,-0.17329445982431935,9.350253682427478e-08
3.1622776601683795,1.871751062380926,-0.20295221072228742,9.692163382979402e-08
3.981071705534969,1.840042513996588,-0.23416055151392356,1.0127324712172481e-07
5.011872336272715,1.8008699351776372,-0.26566146164623206,1.0563575836286532e-07
6.30957344480193,1.75373859556013,-0.2957025914947735,1.0356603619143812e-07
7.943282347242805,1.6988167241675503,-0.3222100754501298,1.0583204668179746e-07
10.0,1.6370719403132967,-0.343067844354664,1.0922515292222101e-07
12.589254117941664,1.5702679461039564,-0.35645153784935246,1.2112801028862918e-07
15.848931924611108,1.5008043366349475,-0.3611437961808406,1.1150646006541365e-07
19.95262314968879,1.4314230199922309,-0.35675501854348113,1.2093277401703517e-07
25.118864315095767,1.3648410047099557,-0.34379539551446214,1.1842337954703908e-07
31.622776601683796,1.303389664590113,-0.32358023609594966,1.2272221994180654e-07
39.81071705534969,1.248738518091152,-0.29799337062286213,1.3193289261081986e-07
50.11872336272725,1.2017578336733719,-0.26916773947777983,1.3127214515407104e-07
63.09573444801929,1.1625367085449574,-0.23915931289047876,1.3092938289105405e-07
79.43282347242804,1.1305335545587816,-0.2096853123002802,1.4180420659926085e-07
100.0,1.1048060863862692,-0.18197332061572524,1.4274718473927805e-07
125.89254117941664,1.0842559362195354,-0.15673396682541352,1.5168821576594382e-07
158.48931924611125,1.0678305892695152,-0.13423601600516122,1.4608640652724603e-07
199.5262314968879,1.0546477558523886,-0.11444121678141528,1.2550987449344575e-07
251.18864315095797,1.0440356775285633,-0.09714945171162981,1.3849055058301474e-07
316.227766016838,1.0355075374848783,-0.08211467856017407,1.4641207979337878e-07
398.10717055349687,1.028702016412243,-0.06911120623772149,1.364072428344798e-07
501.187233627272,1.023322673838654,-0.057951079159465735,1.356834173904531e-07
630.957344480193,1.019098666715395,-0.048468942978615814,1.4201747644548846e-07
794.3282347242813,1.0157740634935701,-0.040497034764030104,1.3796340336824642e-07
1000.0,1.0131191510640718,-0.03384891092764519,1.4169693907106762e-07
1258.9254117941662,1.0109494364008682,-0.028320958017502562,1.3656454722621447e-07
1584.8931924611124,1.0091381033731028,-0.023709414940867646,1.40147235150323e-07
1995.2623149688789,1.0076138344468983,-0.0198332881288934,1.309379107361508e-07
2511.8864315095802,1.0063444081163793,-0.016551936652604127,1.2135916271915903e-07
3162.2776601683795,1.0053133221436195,-0.01376958833259323,1.0967759100921626e-07
3981.0717055349687,1.0044992201367484,-0.01142604030496841,1.1878544237120536e-07
5011.8723362727205,1.003865685531259,-0.009478873836542334,1.1951325040726601e-07
6309.57344480193,1.0033636471345069,-0.007885545005592576,1.1848922110146987e-07
7943.282347242814,1.0029429406577706,-0.006592931945306191,1.0749910561713705e-07
10000.0,1.0025660235091944,-0.005537621441817464,1.0936734140543081e-07
12589.254117941662,1.002216745250441,-0.004655161042137479,1.1269331690044737e-07
15848.93192461114,1.001900102428898,-0.0038926615179661894,1.1478723083158116e-07
19952.623149688792,1.0016334196312346,-0.003218213154013938,1.086006315986765e-07
25118.864315095827,1.0014332941422823,-0.0026225415676890407,1.0253948756755449e-07
31622.776601683792,1.001304283473173,-0.002112291865159932,1.109063418880396e-07
39810.71705534969,1.0012341811205676,-0.00169804090182879,1.1216493600585409e-07
50118.72336272724,1.0011975257491297,-0.00138249693054604,1.0500648883748909e-07
63095.7344480193,1.001165258369458,-0.001153867377070128,9.982330650970539e-08
79432.82347242821,1.001115831433863,-0.0009869383820841904,1.0886136525556367e-07
100000.0,1.00104264887224,-0.0008509031413268531,1.1061799831679764e-07
125892.5411794166,1.0009545539988438,-0.0007197873396762589,1.203735422450336e-07
158489.3192461114,1.0008693001897881,-0.0005857750124960148,1.1880434236388737e-07
199526.2314968879,1.0008031099048567,-0.0004353176218501176,1.3085747152530303e-07
251188.6431509582,1.000761186514095,-0.0003038706677216396,1.3099952678174986e-07
316227.7660168379,1.000733638254589,-0.0001993880259760772,1.5643097928119687e-07
398107.17055349686,1.000698852441665,-0.00011603090297285235,1.6063475971606067e-07
501187.2336272725,1.0006329123401365,-8.11483168945415e-05,1.638157094419057e-07
630957.344480193,1.0005206636791015,-7.658927165721252e-05,2.2446391767516616e-07
794328.2347242822,1.0003629734856718,-7.421654345307616e-05,2.5340440945598175e-07
1000000.0,1.000176426500614,-0.0001411987191204389,5.312061857054573e-07
