freq,Zreal,Zimag,sigma_re,sigma_im
1000000.0,0.9977662986239093,0.025393764724928703,0.024427899989341823,0.024427888553880887
794328.2347242822,0.9977510963602492,0.020202400204010235,0.024427899788324145,0.02442788835049107
630957.344480193,0.9977308264994481,0.016081264558141944,0.02442789954458656,0.024427888105499566
501187.2336272725,0.997704799121601,0.012808581166647716,0.0244278992458735,0.024427887806296584
398107.17055349686,0.99767268546543,0.010207377222634687,0.02442789888562261,0.024427887446093907
316227.7660168379,0.9976346949390892,0.008136241213884876,0.024427898464260484,0.024427887025166184
251188.6431509582,0.9975917220955894,0.006482078078609914,0.02442789799040534,0.0244278865520184
199526.2314968879,0.9975454315772452,0.0051543927153702065,0.024427897481539042,0.024427886044035833
158489.3192461114,0.9974982536631095,0.004081101971827819,0.024427896963794833,0.024427885527259306
125892.5411794166,0.997453274115012,0.0032048248883899382,0.024427896470647175,0.02442788503506943
100000.0,0.9974140186708819,0.0024794057469398165,0.0244278960404875,0.024427884605762253
79432.82347242821,0.9973841517796573,0.001869372110279499,0.024427895713289374,0.024427884279218284
63095.7344480193,0.9973671259451229,0.0013464250637769263,0.024427895526747356,0.02442788409304722
50118.72336272724,0.9973658270237292,0.0008880829551221743,0.02442789551238498,0.024427884078702847
39810.71705534969,0.9973822591739367,0.00047874490116964826,0.02442789569210293,0.024427884258037692
31622.776601683792,0.9974173022910479,0.00010448668912258938,0.02442789607552092,0.024427884640649867
25118.864315095827,0.9974705597887106,-0.00024690353065521343,0.024427896658309908,0.02442788522221853
19952.623149688792,0.9975403016730423,-0.0005862147919110714,0.024427897421563902,0.024427885983876883
15848.93192461114,0.9976235009668549,-0.0009246585237183037,0.024427898332190796,0.02442788689260209
12589.254117941662,0.9977159605863112,-0.0012749024702250584,0.024427899344291727,0.024427887902591813
10000.0,0.997812529152726,-0.0016522625366328628,0.02442790040151483,0.024427888957613123
7943.282347242814,0.9979074033585985,-0.002075906011030211,0.024427901440360094,0.02442788999430069
6309.57344480193,0.99799450895492,-0.0025701300338811933,0.024427902394351945,0.024427890946321074
5011.8723362727205,0.9980679438635129,-0.003165746675483238,0.024427903198901767,0.024427891749225716
3981.0717055349687,0.9981224609472774,-0.003901635994394786,0.024427903796616537,0.02442789234574968
3162.2776601683795,0.9981539719834912,-0.004826558852306048,0.02442790414285318,0.024427892691356236
2511.8864315095802,0.998160074686191,-0.006001360148374765,0.024427904211541056,0.024427892760050324
1995.2623149688789,0.9981406444657449,-0.007501731171214264,0.024427904001733516,0.0244278925509214
1584.8931924611124,0.9980985924314437,-0.009421731820385412,0.024427903546009593,0.02442789209653563
1258.9254117941662,0.9980409713829119,-0.011878296911981272,0.02442790292273431,0.02442789147518354
1000.0,0.9979807173267977,-0.015016966161131367,0.024427902275359903,0.024427890830161496
794.3282347242813,0.9979394602249266,-0.019019084983247166,0.024427901843579156,0.024427890400892743
630.957344480193,0.9979520531506832,-0.024110716059668472,0.02442790201355928,0.02442789057310818
501.187233627272,0.9980738002782626,-0.030573455071097124,0.024427903398238617,0.024427891959057108
398.10717055349687,0.9983918768605372,-0.03875719820649311,0.02442790696457477,0.024427895524617414
316.227766016838,0.9990432102328589,-0.049094538747637965,0.024427914233817384,0.024427902789348036
251.18864315095797,1.0002422089571947,-0.06211563193878296,0.024427927594766696,0.02442791613939493
199.5262314968879,1.0023232010030192,-0.07846061111523533,0.024427950790041914,0.0244279393131915
158.48931924611125,1.005804042893665,-0.09888317738486753,0.02442798966215892,0.024427978146612732
125.89254117941664,1.0114781859524415,-0.124232582545534,0.024428053276387276,0.024428041694314565
100.0,1.0205400240684501,-0.1553903473325267,0.024428155556227057,0.024428143862694554
79.43282347242804,1.034736876613453,-0.1931221045848587,0.024428317531688434,0.02442830565400263
63.09573444801929,1.056509960843463,-0.23778839130693108,0.02442857010552327,0.02442855792583607
50.11872336272725,1.0890234415712967,-0.28886004918206976,0.02442895667787928,0.024428944005743684
39.81071705534969,1.1358882782614514,-0.3442497764219878,0.024429533734769374,0.024429520267562937
31.622776601683796,1.2003318037005464,-0.3996630834127657,0.024430365539588484,0.02443035081629172
25.118864315095767,1.2837166089548795,-0.448475618517172,0.024431507647849685,0.024431491020569764
19.95262314968879,1.3838419971317188,-0.48279480345763426,0.02443297715139927,0.02443295782305787
15.848931924611108,1.4941418528618051,-0.49587719886599213,0.024434719884174554,0.024434697056629453
12.589254117941664,1.604883887795802,-0.4848981003311906,0.024436600252525354,0.024436573359702528
10.0,1.7061957041752138,-0.452268649711919,0.024438435137076067,0.0244384040408647
7.943282347242805,1.791176908875785,-0.40450319857339534,0.02444005871339153,0.024440023734595414
6.30957344480193,1.8572768541104283,-0.3494992787327368,0.02444137482669712,0.024441336602910375
5.011872336272715,1.9056224807361601,-0.29403781267632356,0.02444236693897454,0.02444232621695692
3.981071705534969,1.9393445820063402,-0.2426065601725227,0.02444307371062503,0.024443031183324422
3.1622776601683795,1.9620547930306267,-0.1974504911220371,0.024443556513684076,0.024443512741215364
2.5118864315095766,1.976962838456268,-0.1592004453443513,0.024443876429985256,0.02444383182685691
1.9952623149688788,1.9865650303983557,-0.12755001489471934,0.024444083732035812,0.024444038587873796
1.584893192461111,1.9926567830992195,-0.10175617181605397,0.02444421574732737,0.024444170257032004
1.2589254117941662,1.9964688397288328,-0.08094215993736077,0.024444298550752957,0.02444425284226008
1.0,1.9988198862230124,-0.0642547507577529,0.02444434968684488,0.02444430384272294
0.7943282347242805,2.0002442306865413,-0.05093281584972758,0.02444438068653269,0.024444334759415466
0.6309573444801929,2.0010862855214278,-0.04032814517221927,0.024444399014752437,0.024444353037851505
0.5011872336272715,2.001566145846622,-0.031903219651332214,0.024444409454560997,0.024444363448627587
0.3981071705534969,2.001823484493889,-0.025219395115070188,0.024444415046138958,0.024444369023996965
0.31622776601683794,2.0019463216924427,-0.019922267109815803,0.0244444177071496,0.024444371676616814
0.2511886431509577,2.0019896611262364,-0.01572733948596122,0.024444418636522802,0.024444372602280783
0.1995262314968879,2.0019874951991015,-0.012407247743424213,0.024444418575334904,0.024444372540119445
0.1584893192461111,2.001960529615182,-0.00978088068457209,0.024444417974970357,0.024444371940324578
0.12589254117941662,2.001921159699418,-0.007704337843087423,0.02444441710557536,0.024444371072321523
0.1,2.0018766776543435,-0.0060635058982938285,0.024444416126004443,0.02444437009453497
0.07943282347242805,2.001831327857567,-0.0047680041592169245,0.02444441512866141,0.024444369099114436
0.0630957344480193,2.001787597870701,-0.003746269348416929,0.024444414167668925,0.02444436814003124
0.05011872336272714,2.0017469931234286,-0.0029415880333868525,0.02444441327576813,0.02444436724993421
0.039810717055349686,2.001710462214156,-0.002308922732699272,0.02444441247358844,0.024444366449394742
0.031622776601683784,2.0016785945658637,-0.0018124063344596478,0.024444411773945317,0.02444436575119222
0.02511886431509577,2.0016516858011717,-0.0014233965339849868,0.024444411183249963,0.024444365161718665
0.019952623149688792,2.001629746632651,-0.0011189893255958813,0.024444410701688842,0.024444364681156586
0.01584893192461111,2.0016125109216283,-0.0008808933247154992,0.024444410323390797,0.024444364303644908
0.01258925411794166,2.001599474938604,-0.0006945685207289652,0.024444410037282382,0.02444436401813201
0.01,2.001589974301254,-0.0005485503695736566,0.02444440982877219,0.024444363810056203
