freq,Zreal,Zimag,sigma_re,sigma_im
1000000.0,0.9936539078310778,-0.0008385460097201057,0.018744080392393364,0.018741084221413223
794328.2347242822,0.99377449897103,-0.0009649106463118669,0.018744139763914716,0.01874114287577902
630957.344480193,0.9939151014243973,-0.0010910446286507927,0.01874420899661138,0.01874121127218914
501187.2336272725,0.9940708252391908,-0.001215175830246126,0.01874428568620415,0.018741287035421373
398107.17055349686,0.9942352319582424,-0.0013385266138441468,0.018744366664583515,0.018741367035677074
316227.7660168379,0.9944014971550615,-0.0014659006081396153,0.01874444857162803,0.018741447953502195
251188.6431509582,0.9945635668521086,-0.0016057255146657953,0.01874452842470634,0.01874152684241839
199526.2314968879,0.9947170092294617,-0.0017696715128407798,0.018744604038749887,0.018741601543932104
158489.3192461114,0.9948593642551423,-0.0019721260987070137,0.018744674199337837,0.018741670858548595
125892.5411794166,0.9949900106078676,-0.0022298742544779593,0.01874473859793469,0.018741734481830596
100000.0,0.9951097670780139,-0.002562206627675695,0.01874479763604525,0.01874179281098681
79432.82347242821,0.995220447724212,-0.002991472477718004,0.01874485220629957,0.018741846728710973
63095.7344480193,0.9953244500663131,-0.0035440292267836363,0.018744903489604024,0.018741897402955343
50118.72336272724,0.9954243957408816,-0.004251628413945899,0.018744952778016796,0.018741946112215295
39810.71705534969,0.9955229205585374,-0.0051533191714177844,0.018745001371227664,0.01874199414368442
31622.776601683792,0.9956227499002698,-0.006297862269114404,0.018745050613773122,0.018742042830691797
25118.864315095827,0.9957270910390896,-0.007746588777141605,0.018745102088682485,0.0187420937450689
19952.623149688792,0.995840260306913,-0.00957674231438022,0.018745157927204416,0.018742149004805655
15848.93192461114,0.9959685022013373,-0.011885527282552393,0.01874522121362626,0.01874221167661409
12589.254117941662,0.9961211310472611,-0.014795186625930958,0.018745296549948193,0.01874228633794021
10000.0,0.9963123093937111,-0.018459418744941756,0.018745390936141783,0.01874237995315745
7943.282347242814,0.996563922205099,-0.02307140034969991,0.018745515194145676,0.01874250329072615
6309.57344480193,0.9969101836474148,-0.02887367309375761,0.018745686253626492,0.018742673197668838
5011.8723362727205,0.9974049282497711,-0.03617014135206327,0.018745930778116877,0.018742916207535605
3981.0717055349687,0.9981330594813201,-0.04534031759679425,0.01874629087982375,0.01874327422620563
3162.2776601683795,0.9992284110772818,-0.056855614270396565,0.01874683308769789,0.018743813453609072
2511.8864315095802,1.000901402586224,-0.07129670620654793,0.018747662362463304,0.018744638324145944
1995.2623149688789,1.0034814003086054,-0.08936933553941681,0.0187489438838469,0.01874591317216531
1584.8931924611124,1.0074804375270006,-0.11191258314496025,0.018750936613813895,0.018747895593064168
1258.9254117941662,1.0136860199870101,-0.1398873327911911,0.018754044131210207,0.018750986936433282
1000.0,1.0232887512899342,-0.1743218582029124,0.01875888935093971,0.0187558064398828
794.3282347242813,1.0380399762030033,-0.2161753082253261,0.018766418712085085,0.01876329440876724
630.957344480193,1.0604050462997212,-0.2660620062089583,0.018778033678605033,0.018774842012897214
501.187233627272,1.093615237041478,-0.32377758894331626,0.018795723193908574,0.018792421061173143
398.10717055349687,1.1414249299536452,-0.38762753602324684,0.01882211469188306,0.018818631520611098
316.227766016838,1.2073100480800254,-0.45374826365027604,0.018860266062929024,0.01885649098922264
251.18864315095797,1.2929763756663417,-0.5159362472075202,0.018912941503222945,0.018908714072136384
199.5262314968879,1.3965926547679113,-0.5667046542126347,0.018981252759914965,0.018976370031306734
158.48931924611125,1.5119405663763104,-0.5998151072612767,0.019063157737485254,0.01905741002649748
125.89254117941664,1.629746216974219,-0.6132251604572079,0.019153100508888982,0.01914632871323658
100.0,1.7410464559353276,-0.6104192663088102,0.01924383932160283,0.019235980071891083
79.43282347242804,1.8406321809844062,-0.5989795858215046,0.019329709499833835,0.019320794492725488
63.09573444801929,1.928535944510378,-0.5873675185824345,0.019409133788042432,0.019399243524945303
50.11872336272725,2.0092325172266197,-0.5818678269840905,0.019485005117439867,0.019474206577085866
39.81071705534969,2.0895805084695755,-0.5848038918187012,0.01956333021738594,0.019551626898435426
31.622776601683796,2.1764513548188735,-0.5940128265142696,0.019651097187558024,0.019638404344674266
25.118864315095767,2.2743716795732,-0.6033833860063721,0.01975381365285794,0.019739963498985838
19.95262314968879,2.3834932097480834,-0.604628918866373,0.019872931255224525,0.019857712764246672
15.848931924611108,2.498807206397852,-0.5902999369514607,0.020004041418933267,0.019987272033093213
12.589254117941664,2.611605241118255,-0.5569501227192069,0.020137393701150214,0.020118997784778696
10.0,2.7128583625457083,-0.506542821320115,0.02026131268229729,0.020241363962326273
7.943282347242805,2.7965183976113233,-0.44514803042185536,0.020366655309258283,0.020345358094100954
6.30957344480193,2.860821400819618,-0.3800556625615333,0.02044941363449529,0.020427040278422216
5.011872336272715,2.9074535189390396,-0.3172996166204423,0.020510390600275097,0.020487215609010255
3.981071705534969,2.9398222422207265,-0.26062826863778943,0.020553187301865464,0.020529445534747573
3.1622776601683795,2.961600278140276,-0.2116749155101164,0.02058219710087125,0.020558069308953493
2.5118864315095766,2.975945427571996,-0.1706223911902524,0.020601400170884125,0.020577016091115657
1.9952623149688788,2.985265869003573,-0.13685844661887367,0.020613916993200893,0.020589365578676164
1.584893192461111,2.991272185665558,-0.10943734399158855,0.02062199982267717,0.020597340271245438
1.2589254117941662,2.9951274814011395,-0.08734798649858523,0.02062719486389644,0.020602465817283144
1.0,2.997601327889505,-0.06964647521254809,0.02063053122883438,0.020605757595679407
0.7943282347242805,2.9991942786422165,-0.055508819155479235,0.020632680746563818,0.020607878449905775
0.6309573444801929,3.000228418675703,-0.04424197081373589,0.020634076705898015,0.0206092558657218
0.5011872336272715,3.0009095688262852,-0.03527558629419671,0.02063499639083954,0.020610163410386913
0.3981071705534969,3.0013686378867055,-0.028146443763266915,0.02063561632446206,0.02061077523952818
0.31622776601683794,3.001688591451001,-0.02248137360993322,0.020636048446131275,0.020611201790485555
0.2511886431509577,3.0019218519142976,-0.017981281693673374,0.020636363511780987,0.020611512869199492
0.1995262314968879,3.0021014470753444,-0.014407202109002027,0.020636606110629115,0.02061175246569636
0.1584893192461111,3.0022481002149135,-0.011568568706489528,0.020636804224570725,0.020611948185293577
0.12589254117941662,3.002374709455256,-0.00931358988618566,0.02063697527129032,0.020612117210589965
0.1,3.002489190919648,-0.007521473362606158,0.020637129941488325,0.020612270087194025
0.07943282347242805,3.0025963218787735,-0.006096176834740957,0.020637274687130662,0.02061241317871812
0.0630957344480193,3.002698956448192,-0.0049613600234283475,0.020637413362957706,0.020612550286503852
0.05011872336272714,3.00279880382152,-0.004056273556732486,0.020637548277430244,0.020612683686650802
0.039810717055349686,3.0028968537490695,-0.0033324051399889936,0.020637680767309412,0.020612814696792967
0.031622776601683784,3.002993491964163,-0.0027507961884441676,0.020637811353417586,0.020612943829223192
0.02511886431509577,3.003088376637354,-0.0022800240685720177,0.020637939573526807,0.020613070625054252
0.019952623149688792,3.003180239852864,-0.0018948627493885393,0.020638063713922464,0.020613193388389003
0.01584893192461111,3.0032668669445624,-0.0015755347424003924,0.020638180781312687,0.020613309158311704
0.01258925411794166,3.0033454699160984,-0.0013072747612836936,0.02063828700735115,0.020613414207685275
0.01,3.0034134381501527,-0.0010797969992335545,0.020638378863166953,0.020613505046366578
