freq,Zreal,Zimag,sigma_re,sigma_im
1000000.0,1.000411926755246,0.0005913809790277821,0.0025693465462811337,0.002563349280819335
794328.2347242822,1.0004617591075087,0.00010825102517546541,0.00256945944735981,0.002563461845847044
630957.344480193,1.000516524732329,-0.00035081869303596876,0.0025695835300826105,0.0025635855621579102
501187.2336272725,1.0005768418592302,-0.0008112850535026789,0.0025697201951841125,0.0025637218261885045
398107.17055349686,1.0006468399809167,-0.0012988256180300282,0.0025698787998185146,0.002563879967834814
316227.7660168379,1.0007347108629354,-0.0018381157024665224,0.002570077906428531,0.0025640784956515797
251188.6431509582,1.000851760155562,-0.0024516194883020767,0.0025703431346942203,0.0025643429552088363
199526.2314968879,1.001010350760957,-0.0031594874360080212,0.0025707025028017605,0.00256470128423771
158489.3192461114,1.001221739159844,-0.003981106572287457,0.0025711815264141307,0.0025651789262938433
125892.5411794166,1.0014949120631271,-0.004938083393257974,0.0025718005842570875,0.002565796204526045
100000.0,1.0018371254680956,-0.0060577976619812755,0.0025725761412832694,0.0025665695419191154
79432.82347242821,1.0022561479708996,-0.007376427079732618,0.002573525834465035,0.002567516533145347
63095.7344480193,1.0027635285737733,-0.0089405851185031,0.0025746758824475736,0.0025686633338786397
50118.72336272724,1.0033778221711687,-0.010807317501474591,0.002576068403446299,0.002570051959155573
39810.71705534969,1.0041267460424854,-0.013042888296620907,0.0025777663164919945,0.0025717451728361844
31622.776601683792,1.0050476659467495,-0.015721337094903646,0.0025798544644434433,0.0025738276107610384
25118.864315095827,1.006186456293619,-0.018924008134269317,0.0025824370606199443,0.002576403239476432
19952.623149688792,1.007595443417492,-0.02274108168222182,0.0025856330670910796,0.0025795907544299444
15848.93192461114,1.0093316478835548,-0.027275700816272182,0.002589572262658051,0.002583519668587501
12589.254117941662,1.0114567743781917,-0.032650629025284504,0.002594395289332034,0.002588330372177472
10000.0,1.014040320701422,-0.03901669254947866,0.002600260799084234,0.0025941812782883885
7943.282347242814,1.0171668435154586,-0.04656169175485478,0.002607362078774292,0.002601265427801477
6309.57344480193,1.0209479453779826,-0.055518074318566216,0.0026159544776349648,0.0026098378768060473
5011.8723362727205,1.0255390605309282,-0.0661674341424173,0.0026263938836876112,0.0026202541141878187
3981.0717055349687,1.0311606718211914,-0.07883970478746409,0.002639185522413185,0.0026330187847753363
3162.2776601683795,1.0381230985245231,-0.09390460440009618,0.0026550412839037416,0.0026488429245017237
2511.8864315095802,1.0468531815749753,-0.11175241216779469,0.0026749420039815716,0.0026687061288053126
1995.2623149688789,1.0579196597331728,-0.13276072849567158,0.002700197707801143,0.002693916652348448
1584.8931924611124,1.0720514789629276,-0.15724416124155738,0.0027324930353611046,0.002726156644206726
1258.9254117941662,1.0901399539720018,-0.18538600555552026,0.002773897339858667,0.0027674919973814127
1000.0,1.1132129359344718,-0.21715605630629362,0.0028268121134726373,0.002820319478067497
794.3282347242813,1.1423694470112642,-0.25222672628134696,0.002893828018116158,0.0028872234791481265
630.957344480193,1.1786692202544204,-0.28990840594918205,0.00297747596910129,0.0029707270028389563
501.187233627272,1.2229838062999216,-0.32913020657920844,0.003079883546117129,0.0030729483907994057
398.10717055349687,1.2758316696279595,-0.3684897041771128,0.0032023846569685754,0.0031952119667046277
316.227766016838,1.3372340914587306,-0.4063831905344909,0.00334516662493257,0.0033376968084337538
251.18864315095797,1.4066363088508758,-0.441206898712242,0.0035070616034290287,0.0034992302170485244
199.5262314968879,1.4829332379936095,-0.4715928795267811,0.0036855820659658285,0.0036773249053119236
158.48931924611125,1.5646158785004884,-0.4966189231340168,0.0038772470858235335,0.003868505804965064
125.89254117941664,1.6500144390261984,-0.5159247887909776,0.004078149021862835,0.004068875688942479
100.0,1.7375729234470412,-0.5296896488950305,0.004284607238941742,0.004274766538183484
79.43282347242804,1.8260717006259397,-0.5384736767653238,0.004493707334000792,0.00448327602608425
63.09573444801929,1.9147325858324984,-0.5429759581498577,0.004703564706646232,0.004692528969704962
50.11872336272725,2.0031844063159197,-0.5437860326654492,0.004913255071752891,0.004901606979715711
39.81071705534969,2.0913120444848223,-0.5412003814239671,0.005122463693442935,0.005110198171843432
31.622776601683796,2.179041401005673,-0.5351487984292518,0.005330977404541275,0.00531809065619786
25.118864315095767,2.26612324450992,-0.5252431902011336,0.005538170070224951,0.005524659903926506
19.95262314968879,2.351974711527945,-0.5109313936332899,0.00574262295673291,0.005728490855028052
15.848931924611108,2.435622123683606,-0.4917139360508761,0.005941985768625154,0.005927240008269849
12.589254117941664,2.5157638704769756,-0.46736472181462196,0.0061331245732151015,0.006117783366702654
10.0,2.590939304813941,-0.43809305772366613,0.006312524093472442,0.006296617666663616
7.943282347242805,2.6597571091228254,-0.40460025031289476,0.006476833578753533,0.00646040440096093
6.30957344480193,2.7211183243060715,-0.3680175829465717,0.006623401126779826,0.0066065020841905115
5.011872336272715,2.7743751250635516,-0.32975039614988694,0.006750654961595341,0.0067333458835897655
3.981071705534969,2.8193928733009805,-0.2912779767853415,0.006858253328793496,0.006840596691840633
3.1622776601683795,2.85651549537501,-0.2539626633220824,0.006947002642378248,0.006929059367519521
2.5118864315095766,2.8864591149095347,-0.21890809550631887,0.007018603361245711,0.007000429430156701
1.9952623149688788,2.9101704913690307,-0.18688547698143837,0.007075311121706112,0.007056955395885005
1.584893192461111,2.9286860274580366,-0.15832619487535732,0.007119598892912826,0.007101102171533764
1.2589254117941662,2.9430174050531166,-0.13336425106891603,0.007153882714804142,0.007135277810544598
1.0,2.954075967865557,-0.11190543898652719,0.007180340165409087,0.007161652657953388
0.7943282347242805,2.962635037935869,-0.09370198395416517,0.007200819692657759,0.00718206902366591
0.6309573444801929,2.9693213433971035,-0.07841838589091225,0.007216819723465416,0.007198020375272978
0.5011872336272715,2.974624484837856,-0.06568217802810426,0.007229511045469821,0.007210673644489007
0.3981071705534969,2.9789150797061104,-0.05511921140523633,0.007239780040495486,0.007220912309422865
0.31622776601683794,2.9824653862117994,-0.046376064116555926,0.007248277914067488,0.007229385451926483
0.2511886431509577,2.985469080981729,-0.03913293585350096,0.007255467943608894,0.007236554842077656
0.1995262314968879,2.9880587991689302,-0.03310999512723667,0.007261667401903424,0.007242736718573304
0.1584893192461111,2.990321098373237,-0.02806940721838148,0.0072670833355789515,0.007248137447505394
0.12589254117941662,2.9923089781022174,-0.02381458000047975,0.007271842507080349,0.007252883366406435
0.1,2.9940522478919425,-0.020187640707677562,0.007276016196980008,0.007257045507357676
0.07943282347242805,2.995566055894857,-0.01706579383372532,0.007279640609663591,0.007260659939012717
0.0630957344480193,2.9968578420312397,-0.014356955074857077,0.0072827335122213335,0.007263744354661339
0.05011872336272714,2.997932895166082,-0.011994886961187558,0.007285307534453238,0.007266311332305635
0.039810717055349686,2.998798589098036,-0.009933980756936972,0.007287380307774254,0.00726837844348461
0.031622776601683784,2.9994672684337598,-0.00814379727463659,0.007288981372838655,0.00726997514045395
0.02511886431509577,2.9999576833145682,-0.006603581981778785,0.007290155613325918,0.0072711461795390096
0.019952623149688792,3.000294872601615,-0.005297103532620022,0.007290962975076467,0.007271951340296146
0.01584893192461111,3.0005085139517345,-0.00420828236112053,0.00729147451446291,0.007272461484092325
0.01258925411794166,3.000630024520567,-0.0033182083689709562,0.007291765455285789,0.007272751629437275
0.01,3.000689070685249,-0.0026040276370047667,0.007291906830679798,0.007272892616214448
