freq,Zreal,Zimag,sigma_re,sigma_im
1000000.0,0.9990938400151006,-0.00018009413635885005,0.0069783383821872495,0.006978331167546521
794328.2347242822,0.9991408898574807,-0.0002290507901524652,0.006978662020062849,0.006978654805077352
630957.344480193,0.9991944037710968,-0.0002696593015895828,0.006979030017848759,0.006979022802470999
501187.2336272725,0.9992518125715754,-0.00030164125622375056,0.006979424657550205,0.006979417441751461
398107.17055349686,0.999310369479131,-0.00032594162704075493,0.006979827050474224,0.006979819834245908
316227.7660168379,0.999367906350745,-0.0003445534840308977,0.006980222331061248,0.006980215114410719
251188.6431509582,0.9994232220146684,-0.0003599297280998576,0.006980602304221827,0.006980595087165328
199526.2314968879,0.9994759364543435,-0.0003743872745859489,0.006980964421492381,0.006980957204049016
158489.3192461114,0.9995260177234623,-0.000389881755324673,0.006981308522975315,0.006981301305164497
125892.5411794166,0.9995733796657356,-0.00040821247786770393,0.006981634081791955,0.006981626863633806
100000.0,0.9996177990531261,-0.0004314001439095167,0.006981939650719722,0.0069819324322361095
79432.82347242821,0.9996590868622078,-0.0004619392345757848,0.006982224055186949,0.006982216836401274
63095.7344480193,0.999697277175961,-0.0005028395521375839,0.006982487708614606,0.006982480489550239
50118.72336272724,0.9997326752539659,-0.0005575797674770742,0.0069827329691550455,0.00698272574983343
39810.71705534969,0.9997657713391129,-0.0006301243817407487,0.0069829635923898065,0.006982956372829261
31622.776601683792,0.9997971007254256,-0.0007250710034366749,0.006983183843370507,0.00698317662358613
25118.864315095827,0.999827116466772,-0.0008479327353564268,0.006983397739097362,0.00698339051910202
19952.623149688792,0.9998561184920565,-0.0010055399724511725,0.006983608747366526,0.006983601527172589
15848.93192461114,0.9998842617699367,-0.0012065304090464772,0.006983820137783133,0.006983812917404501
12589.254117941662,0.9999116287059446,-0.0014618963886813307,0.006984035945531675,0.006984028724985836
10000.0,0.9999383224467004,-0.0017855943618416887,0.006984262348430147,0.006984255127740447
7943.282347242814,0.9999645472886504,-0.0021952666963242283,0.0069845093817142755,0.006984502160913001
6309.57344480193,0.9999906755224256,-0.002713146373256746,0.006984793235546594,0.006984786014679782
5011.8723362727205,1.0000173239116634,-0.0033672107855426793,0.006985139689603274,0.006985132468738483
3981.0717055349687,1.0000454679563606,-0.004192646755378205,0.006985589501427557,0.006985582280666357
3162.2776601683795,1.000076622726694,-0.005233699384543612,0.0069862069301238105,0.006986199709621741
2511.8864315095802,1.000113128355291,-0.0065459977951458454,0.006987093209258746,0.006987085989257059
1995.2623149688789,1.0001585970257991,-0.008199476616187642,0.0069884078050672805,0.006988400585943309
1584.8931924611124,1.0002186122790864,-0.010282047938731952,0.006990401932862144,0.0069903947152090435
1258.9254117941662,1.0003018384812923,-0.012904218527565197,0.006993471455593766,0.006993464240346288
1000.0,1.0004218025800216,-0.016204871475141595,0.00699824036676883,0.006998233155400773
794.3282347242813,1.0005997447851704,-0.020358441827684863,0.007005692029446276,0.0070056848242785325
630.957344480193,1.0008691319309455,-0.025583730325737856,0.00701737405085955,0.007017366855536611
501.187233627272,1.0012827637983397,-0.03215459079596614,0.007035715114824485,0.00703570793504161
398.10717055349687,1.0019239464557972,-0.04041260031610296,0.007064508158363209,0.007064501002951478
316.227766016838,1.002924002159811,-0.05078144075942544,0.007109630446222148,0.007109623328707764
251.18864315095797,1.004489485272027,-0.06378188009166808,0.007180075827554733,0.007180068768258835
199.5262314968879,1.006943917637253,-0.08004454321588532,0.007289338859830752,0.0072893318883737734
158.48931924611125,1.010790487644153,-0.1003143378109735,0.007457054526960008,0.007457047684528657
125.89254117941664,1.01680316413084,-0.12543418521882052,0.007710465166270347,0.007710458506067728
100.0,1.0261516843563678,-0.15628496974236858,0.00808467564954993,0.008084669232696361
79.43282347242804,1.0405553368995673,-0.19364244369029002,0.008619868914328456,0.008619862798194915
63.09573444801929,1.0624307798219927,-0.2378938442528023,0.009353211683293798,0.00935320590159806
50.11872336272725,1.0949361946472684,-0.28855485111227636,0.010304003316746255,0.010303997855837625
39.81071705534969,1.1417166270347485,-0.34358699487680733,0.011453461445804336,0.011453456225377941
31.622776601683796,1.2060830632634383,-0.3987064931078275,0.012725577800687947,0.012725572665329418
25.118864315095767,1.2894900911607907,-0.44720438091899717,0.013981955896191818,0.013981950619412039
19.95262314968879,1.389727772284971,-0.48100497369305517,0.015046522718906576,0.015046517020399785
15.848931924611108,1.5000267211429166,-0.4932121408899347,0.015764132291649843,0.015764125870795464
12.589254117941664,1.6103382028859308,-0.4810732283311762,0.016067134798967774,0.01606712738499547
10.0,1.7106097248015408,-0.4473300021361515,0.01600327671187069,0.01600326812007387
7.943282347242805,1.7940629876974403,-0.3988727289726692,0.01570200158992233,0.015701991762074662
6.30957344480193,1.8584789166225013,-0.34377756365434503,0.015307209450013709,0.01530719845861399
5.011872336272715,1.9053063191522819,-0.2887578513491923,0.014924941228252279,0.014924929242106337
3.981071705534969,1.9378542508183867,-0.2381023144379878,0.014608514797060542,0.014608502027267685
3.1622776601683795,1.95976817083214,-0.1938529589651732,0.014370660816802506,0.014370647468790926
2.5118864315095766,1.9742073324161227,-0.15649599950848683,0.014202658012723104,0.01420264425861475
1.9952623149688788,1.9835892200803638,-0.1256451070392419,0.014088717949321417,0.014088703919886482
1.584893192461111,1.9896336063004665,-0.10052514554190661,0.014013471468353623,0.014013457256700015
1.2589254117941662,1.9935106696633809,-0.08025586048353534,0.013964645353930761,0.013964631023575818
1.0,1.9959950488767935,-0.06399488190589864,0.013933344559253305,0.013933330152335926
0.7943282347242805,1.9975908479185478,-0.05099751554502253,0.013913462931899647,0.013913448475874862
0.6309573444801929,1.998622529627951,-0.04063283457108638,0.013900940897177302,0.013900926409725454
0.5011872336272715,1.9992973140796333,-0.03237928076503639,0.0138931306427292,0.013893116135151422
0.3981071705534969,1.9997466891926574,-0.02581210054538653,0.01388832421452574,0.013888309694013026
0.31622776601683794,2.000053552827356,-0.02058865339713911,0.013885426226442725,0.01388541169756068
0.2511886431509577,2.000269800766147,-0.016434312170188054,0.013883735611143363,0.013883721076790742
0.1995262314968879,2.0004277023388064,-0.013130006824445175,0.013882803717405807,0.013882789179427552
0.1584893192461111,2.0005472978075023,-0.01050163567767974,0.013882343801935804,0.013882329261511754
0.12589254117941662,2.0006412344470856,-0.008411193762656836,0.013882174085129954,0.0138821595430189
0.1,2.0007178875098557,-0.006749370417695434,0.013882181928796552,0.013882167385487799
0.07943282347242805,2.0007832689208938,-0.005429407103788168,0.013882300711133378,0.013882286166940117
0.0630957344480193,2.000842048165919,-0.004382075214256469,0.013882493966607354,0.013882479421724657
0.05011872336272714,2.0008979373615894,-0.003551693934330574,0.013882743610867262,0.01388272906540962
0.039810717055349686,2.0009536955875733,-0.0028931227828561854,0.013883040871984985,0.013883026326012706
0.031622776601683784,2.0010110106060397,-0.0023695954201350534,0.013883379716467789,0.013883365170007218
0.02511886431509577,2.0010704255521636,-0.0019511739360627508,0.013883752676321234,0.013883738129381026
0.019952623149688792,2.001131332087509,-0.0016136294292729623,0.013884148455805377,0.013884133908389952
0.01584893192461111,2.001192023730444,-0.001337688769230709,0.013884550801843172,0.013884536253963945
0.01258925411794166,2.0012499345298917,-0.0011086112930328534,0.01388493919846368,0.013884924650147394
0.01,2.0013022229519164,-0.0009158632079687457,0.013885292283620867,0.013885277734912882
