freq,Zreal,Zimag,sigma_re,sigma_im
1000000.0,1.0004427327873695,-0.0010523087239880534,0.0028534069388044983,0.0028474199432262596
794328.2347242822,1.0005435389871176,-0.0012481384816671714,0.0028535873963720293,0.002847599575125327
630957.344480193,1.0006590266858792,-0.0014678898044294016,0.002853794144306387,0.0028478053776199814
501187.2336272725,1.0007852035065545,-0.0017180787105707928,0.002854020038333642,0.002848030239564717
398107.17055349686,1.0009180007151386,-0.002009883932998457,0.0028542577964468267,0.002848266912928001
316227.7660168379,1.001054979624246,-0.0023595099595432613,0.0028545030539956417,0.0028485110539909477
251188.6431509582,1.001196737145531,-0.002787684105373455,0.0028547568811205497,0.002848763729403029
199526.2314968879,1.0013474439072538,-0.0033188349279282547,0.002855026747799664,0.0028490323770427703
158489.3192461114,1.0015146172205487,-0.003980777190956165,0.0028553261192371627,0.002849330403621034
125892.5411794166,1.001708850811088,-0.004805310679845178,0.0028556739742826008,0.0028496767058558458
100000.0,1.0019442400334932,-0.005829415467374611,0.0028560955704744393,0.0028500964328246016
79432.82347242821,1.002239723324059,-0.007096290476353368,0.0028566248527291858,0.002850623384777999
63095.7344480193,1.002620941840428,-0.008655542732432454,0.002857307795603366,0.0028513033416638083
50118.72336272724,1.0031217830206818,-0.010562236190499594,0.002858205188903084,0.0028521968379933626
39810.71705534969,1.0037845763700213,-0.012875147191229078,0.002859393023165994,0.0028533795490237606
31622.776601683792,1.0046581776390966,-0.015655427969595896,0.002860959109461687,0.002854938929042176
25118.864315095827,1.005794218322254,-0.01896747209741573,0.002862996427631713,0.00285696759400429
19952.623149688792,1.0072431760778249,-0.022883339009519978,0.0028655961626531355,0.002859556395569751
15848.93192461114,1.0090525680630211,-0.027490695541935967,0.0028688445499239754,0.0028627912899341764
12589.254117941662,1.0112690580142558,-0.032902874729205,0.0028728267502034725,0.002866757209359973
10000.0,1.0139451936217305,-0.039269086363463004,0.0028776390779690093,0.002871550256351735
7943.282347242814,1.0171505962605094,-0.04678296320065868,0.0028834093399030883,0.00287729798082007
6309.57344480193,1.020986999202511,-0.055688033665262364,0.0028903243196600936,0.0028841867834780506
5011.8723362727205,1.025606490709765,-0.06627899422936973,0.0028986634319424294,0.002892495475383463
3981.0717055349687,1.031232434224603,-0.0788976023329226,0.0029088378684173125,0.002902634320205241
3162.2776601683795,1.0381825069268373,-0.09392154551419514,0.002921434650703899,0.002915188974080811
2511.8864315095802,1.0468927304421576,-0.11174386131110338,0.0029372642024176085,0.002930967929985676
1995.2623149688789,1.0579398865846592,-0.1327397996972258,0.0029574076403627654,0.00295104965811202
1584.8931924611124,1.0720572228884762,-0.15721818208280838,0.0029832556543569907,0.0029768213023255215
1258.9254117941662,1.090135278674509,-0.1853561995494357,0.0030165250279375827,0.00300999498086971
1000.0,1.1131970631724097,-0.21712093648598554,0.003059232913173244,0.0030525818205440628
794.3282347242813,1.1423364484902039,-0.2521878565072474,0.0031136054961959335,0.003106800424985837
630.957344480193,1.1786127272842681,-0.2898749598140273,0.003181900711869803,0.0031748995812402024
501.187233627272,1.2229046141091025,-0.3291183199620358,0.003266139080416133,0.003258889511057874
398.10717055349687,1.27574315634851,-0.3685154377683296,0.0033677657148724924,0.0033602049602354605
316.227766016838,1.3371608205215182,-0.4064525051347677,0.003487306787783897,0.003479363481280495
251.18864315095797,1.4066053076318064,-0.44130866039925915,0.003624120933359081,0.0036157190551600812
199.5262314968879,1.482962028954813,-0.4716993454526851,0.0037763555500096428,0.003767420241673668
158.48931924611125,1.564703014491717,-0.4966940065379049,0.003941176342679027,0.003931640277138557
125.89254117941664,1.650136767889461,-0.5159368456594513,0.004115245205161167,0.0041050537072865245
100.0,1.7376909851878564,-0.5296240037714821,0.004295314742257178,0.004284428163911555
79.43282347242804,1.8261418528728497,-0.5383401848344621,0.004478748429715719,0.004467141315334497
63.09573444801929,1.9147219523488022,-0.5428082922356302,0.004663801413598393,0.004651459188988587
50.11872336272725,2.0030832159392027,-0.5436321858346784,0.004849590698505033,0.0048365053898181565
39.81071705534969,2.0911384279054888,-0.541107363728335,0.0050357911910703145,0.005021957793697312
31.622776601683796,2.1788364369184077,-0.5351470787913442,0.005222170885615854,0.005207585578299953
25.118864315095767,2.265937909387519,-0.5253367509946525,0.005408110441810189,0.005392771145406055
19.95262314968879,2.351853652534248,-0.5110970543929416,0.005592246205900626,0.005576155243381811
15.848931924611108,2.4355903013802767,-0.4919098081683874,0.005772340441876524,0.005755508418512638
12.589254117941664,2.5158205666900146,-0.46754411061676043,0.005945422870184708,0.005927872493266352
10.0,2.591060715912106,-0.43821854828391416,0.006108170954040593,0.006089939481588244
7.943282347242805,2.6599056232174823,-0.40465349917354215,0.006257422902748126,0.006238562307053605
6.30957344480193,2.72125488082582,-0.36800241229803127,0.006390677238939492,0.006371251878831709
5.011872336272715,2.7744706909227252,-0.3296889681319357,0.006506446255102342,0.006486528593658011
3.981071705534969,2.819435590556444,-0.291201810727402,0.006604389995644159,0.006584055387063838
3.1622776601683795,2.8565115573088926,-0.2539018973156726,0.006685231786206995,0.006664553445656421
2.5118864315095766,2.886427852641119,-0.21888289414919704,0.006750514478444578,0.006729559494053167
1.9952623149688788,2.910136421144884,-0.18690219398449487,0.006802282968750085,0.006781109785213468
1.584893192461111,2.9286713170422174,-0.15837844427624437,0.006842773977137514,0.0068214313568262545
1.2589254117941662,2.9430370786391693,-0.1334370172140539,0.006874168726964912,0.006852695900282697
1.0,2.9541362673644906,-0.11197984563813936,0.006898431608452196,0.006876859201684181
0.7943282347242805,2.9627339990957795,-0.09375912250269892,0.006917230390787165,0.006895581738444899
0.6309573444801929,2.9694502998043975,-0.0784417344143888,0.006931917952941835,0.0069102104991477075
0.5011872336272715,2.974769560399233,-0.06565893405408355,0.006943551955079826,0.0069217985633427
0.3981071705534969,2.979058284981919,-0.05504116735608696,0.006952933036520513,0.006931143121393295
0.31622776601683794,2.982585428636501,-0.0462406094301947,0.006960648931273759,0.006938829386432165
0.2511886431509577,2.9855423465986894,-0.038944497704669775,0.006967117890424722,0.006945273819729534
0.1995262314968879,2.9880610969386305,-0.03288180813050919,0.006972628596762975,0.006950763868220459
0.1584893192461111,2.9902306061606527,-0.02782505302133791,0.006977375459651358,0.006955493106596763
0.12589254117941662,2.9921104058853505,-0.02358844665814317,0.0069814886285463305,0.006959591123854026
0.1,2.9937416776400294,-0.02002346718467869,0.00698505813604652,0.006963147565948398
0.07943282347242805,2.9951554298247958,-0.017012808873965966,0.006988151777162164,0.006966229941330818
0.0630957344480193,2.9963778226779607,-0.014463710801025256,0.006990826754218531,0.00696889521751571
0.05011872336272714,2.9974329089459166,-0.012301575478863703,0.006993135669943434,0.006971195788233652
0.039810717055349686,2.9983433080900896,-0.010464622937978235,0.006995127999989195,0.006973180937680473
0.031622776601683784,2.9991295230914528,-0.00890006820383872,0.006996848595567025,0.0069748953464965294
0.02511886431509577,2.9998087014394548,-0.007561995913110679,0.006998334969994349,0.006976376386663223
0.019952623149688792,3.0003936213594864,-0.006410774243850909,0.006999615078395983,0.006977651908224379
0.01584893192461111,3.0008925462639953,-0.005413526400983522,0.00700070699781978,0.006978739919925159
0.01258925411794166,3.0013103002090196,-0.0045448856590963,0.007001621279962527,0.006979650933118488
0.01,3.001650414402362,-0.003787110031900584,0.0070023656483928585,0.006980392641935934
