freq,Zreal,Zimag,sigma_re,sigma_im
1000000.0,1.0006115616327156,5.053450159852495e-05,0.0035399491997922606,0.00041225457056769967
794328.2347242822,1.000655400035147,-3.558733344351188e-05,0.003540102191995613,0.00041225459159715736
630957.344480193,1.0006983430583176,-0.00010352023298593566,0.0035402520595319985,0.00041225477293383106
501187.2336272725,1.0007361674584785,-0.00015877123456821356,0.0035403840636004076,0.00041225502522209155
398107.17055349686,1.0007661119031959,-0.00020867303866532196,0.0035404885673416047,0.0004122553279473595
316227.7660168379,1.000787910316637,-0.0002613889700404118,0.003540564642148627,0.0004122557198713507
251188.6431509582,1.0008039038036,-0.0003245320776734786,0.003540620458288906,0.00041225628978844905
199526.2314968879,1.0008182324959054,-0.00040406971254041313,0.003540670464517807,0.00041225717262453437
158489.3192461114,1.0008355115532324,-0.0005039997358517442,0.0035407307674259047,0.0004122585502685349
125892.5411794166,1.0008595693434874,-0.0006269079970033118,0.003540814727790326,0.0004122606582738322
100000.0,1.0008927483615282,-0.0007752237243847907,0.0035409305208443814,0.00041226380950243563
79432.82347242821,1.0009360118702284,-0.0009525459517099469,0.003541081508459965,0.0004122684467999598
63095.7344480193,1.000989776660024,-0.0011647762434825902,0.003541269145437263,0.0004122752393742912
50118.72336272724,1.0010551246049333,-0.0014205613125134078,0.0035414972077853313,0.0004122852226386712
39810.71705534969,1.0011349226484876,-0.0017309148647087793,0.0035417757014598564,0.0004122999722773681
31622.776601683792,1.0012344361301488,-0.002108618554649051,0.0035421230029378512,0.0004123218235757197
25118.864315095827,1.00136122385706,-0.002567302238563945,0.0035425654931765154,0.00041235411947157573
19952.623149688792,1.0015243758967174,-0.0031210005618591196,0.003543134897763554,0.00041240152039070195
15848.93192461114,1.0017333998298763,-0.00378443824047078,0.0035438644002720038,0.00041247043274868987
12589.254117941662,1.001997199534709,-0.004574193616023211,0.0035447850786083997,0.00041256967454459396
10000.0,1.0023235884369983,-0.0055106243611917766,0.003545924206712222,0.0004127115607658837
7943.282347242814,1.0027196520888735,-0.0066202472671236514,0.0035473065205454076,0.00041291365151607394
6309.57344480193,1.0031930714829842,-0.007938139803389057,0.00354895883734619,0.00041320144995075144
5011.8723362727205,1.003754295395438,-0.00950994801484235,0.0035509176385616348,0.0004136123757506875
3981.0717055349687,1.0044192563268837,-0.01139319352078371,0.0035532385508720756,0.0004142013747869506
3162.2776601683795,1.005212201337198,-0.013657767416344866,0.0035560062295763623,0.0004150485565834343
2511.8864315095802,1.0061681937032139,-0.01638574632534917,0.0035593430950737084,0.00041626927152819997
1995.2623149688789,1.0073349624137744,-0.01967091472453028,0.003563415795916418,0.0004180270501577015
1584.8931924611124,1.0087740378395744,-0.02361855152665126,0.003568439184188591,0.00042054983326700535
1258.9254117941662,1.0105614777967904,-0.028346084907265846,0.0035746788663361885,0.0004241499212233823
1000.0,1.0127888824055116,-0.03398499619496914,0.003582454768991275,0.00042924788216527665
794.3282347242813,1.0155657181613633,-0.040684054237910744,0.0035921492844064604,0.0004364000939690287
630.957344480193,1.019024123335738,-0.0486133167113363,0.0036042240915109213,0.00044632792271420983
501.187233627272,1.0233272765927008,-0.057967644443936164,0.0036192494367176926,0.00045994327309346796
398.10717055349687,1.0286820444266482,-0.06896802904672014,0.0036379483845861097,0.00047836075198756314
316.227766016838,1.0353559743878533,-0.08185798756996823,0.003661256289746732,0.0005028809270183498
251.18864315095797,1.0436977645552952,-0.09689224685720116,0.003690392478469791,0.0005349270155287904
199.5262314968879,1.054159086547965,-0.11431454094132104,0.003726936757627661,0.0005759205708893247
158.48931924611125,1.0673140239041239,-0.13432122828669807,0.003772897726110447,0.0006270912340252396
125.89254117941664,1.0838703877468707,-0.15700876487654508,0.0038307528627407705,0.0006892296202166912
100.0,1.104664828184616,-0.18230417456107048,0.003903432131388919,0.00076239984770214
79.43282347242804,1.1306311252421954,-0.20988118943334916,0.0039942078934238545,0.0008456323214496668
63.09573444801929,1.1627288592150116,-0.2390703610381602,0.004106446132841469,0.0009366243267715148
50.11872336272725,1.2018196133527514,-0.2687807623027804,0.0042431736473441525,0.0010314992786009743
39.81071705534969,1.2484841304502976,-0.2974643881485187,0.004406437642454126,0.0011247208899493714
31.622776601683796,1.3027925899631028,-0.323167407964856,0.004596499809864975,0.0012093081545520848
25.118864315095767,1.3640746822414358,-0.3437131278217415,0.0048110281804357,0.0012775047194015455
19.95262314968879,1.4307768860168846,-0.3570318502999663,0.00504459343511842,0.0013219558260625995
15.848931924611108,1.500510929055431,-0.3615841921995908,0.005288835227166081,0.0013372067165307706
12.589254117941664,1.5703507493062177,-0.3567428904842159,0.005533500872152434,0.0013210503640637917
10.0,1.6373219309300096,-0.3429695945030875,0.005768160967270807,0.0012751517351106908
7.943282347242805,1.698916136338131,-0.32169822656804953,0.005984014675751921,0.001204638753910463
6.30957344480193,1.753446000132897,-0.29497711983406205,0.00617513667252774,0.0011168434957777146
5.011872336272715,1.8001473847543537,-0.2650238662456234,0.006338838143595282,0.0010197344157955115
3.981071705534969,1.8390577103498718,-0.23384818628334675,0.006475241811530017,0.0009205854800286298
3.1622776601683795,1.8707715962668212,-0.2030270625930466,0.006586425857676169,0.0008251781742730304
2.5118864315095766,1.8961794085617485,-0.1736357722913227,0.006675507245037648,0.0007375485855853178
1.9952623149688788,1.9162567029860402,-0.14628888969689843,0.00674590316047759,0.000660117916674529
1.584893192461111,1.9319271537768574,-0.12123389107523097,0.0068008500254820945,0.0005940071766610955
1.2589254117941662,1.943989955577998,-0.09845351833776927,0.006843148599885634,0.0005393889771377062
1.0,1.9530899902545247,-0.07775411761216863,0.006875059104885843,0.0004958068904164094
0.7943282347242805,1.9597098180000772,-0.05883437730055566,0.006898272940395763,0.00046244953538130654
0.6309573444801929,1.9641691805330022,-0.041338956908196105,0.006913910798726061,0.0004383850808765151
0.5011872336272715,1.9666253944572374,-0.024905861138633436,0.006922523941732163,0.0004227478252717639
0.3981071705534969,1.9670754506249863,-0.009217228889367282,0.006924101494794875,0.00041484037724825215
0.31622776601683794,1.9653683115526992,0.00593917335712366,0.006918113535909428,0.00041409570786562995
0.2511886431509577,1.9612432232923402,0.0205981737181676,0.006903645448315313,0.0004198599452314395
0.1995262314968879,1.954411889535919,0.034550863989964306,0.0068796861275455725,0.0004310371553018072
0.1584893192461111,1.9446899473691257,0.047318310198578246,0.0068455891058457,0.00044577094397237754
0.12589254117941662,1.9321521665880523,0.05820686685240532,0.0068016168587460395,0.0004614219002290089
0.1,1.9172502839193624,0.06646356180028246,0.006749354013249325,0.00047499982415138156
0.07943282347242805,1.9008226059640236,0.07149757603292395,0.006691740912102909,0.00048393607685853437
0.0630957344480193,1.8839622504624833,0.07308226577725936,0.006632611385736013,0.00048683136278545165
0.05011872336272714,1.8677835498564654,0.0714439999833385,0.0065758734266175775,0.00048378937363099283
0.039810717055349686,1.853185197946055,0.06719722100223234,0.006524678551647798,0.0004761791276219986
0.031622776601683784,1.8407070122696498,0.06116623805613991,0.006480919571079699,0.000465993964185917
0.02511886431509577,1.830517482450277,0.054183474832870136,0.006445187046876002,0.00045515951085910335
0.019952623149688792,1.8225009626913964,0.04694309134699323,0.0064170751597742645,0.00044508378369567653
0.01584893192461111,1.816380789362306,0.039940247324841666,0.006395613504760641,0.0004365351955595949
0.01258925411794166,1.8118246760990449,0.03347995176802456,0.006379636694134178,0.0004297533727534639
0.01,1.8085097797614704,0.027719703734892232,0.006368012514773323,0.0004246428991604716
