freq,Zreal,Zimag,sigma_re,sigma_im
1000000.0,1.00239666124849,-0.0024664462275576114,0.0031171229579049077,0.0004415775882053724
794328.2347242822,1.0027650741598282,-0.0029752332362183226,0.0031182456830725126,0.00044160773536005134
630957.344480193,1.0032045848060311,-0.003492293570126031,0.003119585087161952,0.00044164414164358
501187.2336272725,1.0037090489463762,-0.00401796675072024,0.0031211224516884593,0.00044168710719756405
398107.17055349686,1.0042714618012338,-0.004558693385843918,0.0031228364361984926,0.00044173755069289275
316227.7660168379,1.004887253109183,-0.005126622667346984,0.003124713119947229,0.00044179733447794655
251188.6431509582,1.0055564238607264,-0.005737664240261477,0.003126752514140323,0.00044186941984891915
199526.2314968879,1.0062840771244497,-0.00640924048107748,0.0031289701805709046,0.0004419579125715825
158489.3192461114,1.00707967517135,-0.007158492723950613,0.003131394968787239,0.0004420680802745199
125892.5411794166,1.007955764417393,-0.008001733322395012,0.0031340651314778396,0.0004422064879030303
100000.0,1.0089268943572476,-0.008954522007327066,0.003137025031077681,0.00044238123943961423
79432.82347242821,1.0100091456519267,-0.010032440715585966,0.003140323703035937,0.0004426024077437255
63095.7344480193,1.0112202779510895,-0.011251804481997906,0.003144015308170898,0.000442882588899726
50118.72336272724,1.0125801980918723,-0.012629694812711275,0.003148160561886128,0.00044323744369813685
39810.71705534969,1.0141113443176755,-0.014184323326957288,0.0031528279081628205,0.0004436864268437456
31622.776601683792,1.0158386880165187,-0.01593443077948718,0.0031580935282726585,0.00044425335260849934
25118.864315095827,1.0177892907257797,-0.017899331868983657,0.003164039994599814,0.0004449671677768122
19952.623149688792,1.0199916025892266,-0.02009896847642608,0.003170754136752651,0.00044586280897845816
15848.93192461114,1.0224748458925559,-0.02255505401687638,0.0031783251676285253,0.00044698266194345405
12589.254117941662,1.0252688405503783,-0.025292543505688984,0.003186844157372293,0.00044837863297235686
10000.0,1.0284045052796706,-0.02834140168949814,0.0031964055684000382,0.0004501150695082449
7943.282347242814,1.031915069466561,-0.0317382760504699,0.003207110959130607,0.00045227257161808943
6309.57344480193,1.0358378469644163,-0.0355278074595064,0.003219074404087523,0.00045495265906573916
5011.8723362727205,1.0402163366097812,-0.03976345282329336,0.0032324289145562305,0.0004582831891729287
3981.0717055349687,1.0451024559666346,-0.04450784579074708,0.0032473332712141183,0.00046242437791303514
3162.2776601683795,1.050558840131161,-0.049832775236496846,0.003263979062331515,0.0004675751813385617
2511.8864315095802,1.05666124584489,-0.05581878940501969,0.0032825980518984086,0.00047397955118074213
1995.2623149688789,1.0635010967795868,-0.0625542917255627,0.0033034699888269277,0.0004819316393050092
1584.8931924611124,1.0711880636718756,-0.07013389955233304,0.003326930534652011,0.0004917784757727687
1258.9254117941662,1.0798523669246287,-0.07865589783441965,0.0033533783580032934,0.0005039182437998411
1000.0,1.0896463620875625,-0.08821886530732839,0.0033832800547676212,0.0005187924039734003
794.3282347242813,1.1007450609221503,-0.09891790185796936,0.003417171832666187,0.0005368709071693259
630.957344480193,1.1133456228360774,-0.11084118092199088,0.0034556580633313236,0.0005586315767120933
501.187233627272,1.1276664972622132,-0.1240676040740877,0.003499408775825902,0.0005845368434034814
398.10717055349687,1.143947700352055,-0.13866597443381745,0.0035491606190308665,0.0006150121559145495
316.227766016838,1.1624544910789256,-0.1546951693451344,0.003605728214194887,0.000650429008736104
251.18864315095797,1.183487174377187,-0.17220312071113142,0.003670034242504628,0.0006910903539428378
199.5262314968879,1.207399386498595,-0.19121991608646677,0.0037431654862897317,0.0007372068824967157
158.48931924611125,1.2346252013426913,-0.21173715475178478,0.0038264558843351193,0.00078884038965332
125.89254117941664,1.2657106320387563,-0.2336625601573348,0.003921583079030203,0.0008457783313226618
100.0,1.3013363012406738,-0.2567374769598482,0.004030637960503718,0.000907297774326923
79.43282347242804,1.3423043624110678,-0.28040909784251344,0.00415608470912902,0.0009717893561665223
63.09573444801929,1.389446262703275,-0.3036661683860933,0.004300478182756006,0.0010362644839792628
50.11872336272725,1.4433998065514673,-0.3248852993613371,0.004465780393884596,0.0010958888484490115
39.81071705534969,1.5042307937222967,-0.3417935034479731,0.004652199852571685,0.0011438682039923342
31.622776601683796,1.5709673263823576,-0.3516951617982511,0.00485676217639679,0.0011721468787707987
25.118864315095767,1.6412603630891631,-0.35205959516663327,0.005072266986703775,0.0011732208288940727
19.95262314968879,1.7114705368739873,-0.3413625368830149,0.005287552110949983,0.0011427384154522127
15.848931924611108,1.7773496601924677,-0.31981070845660853,0.005489583088909504,0.0010817388743862805
12.589254117941664,1.8351249549866746,-0.28950146152520234,0.005666780016602565,0.0009971299139379705
10.0,1.8824695610950473,-0.25384897157858877,0.005811996995522242,0.0008998627394731145
7.943282347242805,1.918878990627867,-0.21656860989912113,0.0059236792831044065,0.0008016881961366829
6.30957344480193,1.9453660401122996,-0.1807514220747543,0.006004928648899317,0.0007121423415966
5.011872336272715,1.9637799467282315,-0.14839888242425994,0.006061414861717857,0.0006369528018588332
3.981071705534969,1.976146924727371,-0.12043620178752687,0.006099352124356526,0.0005780139118146458
3.1622776601683795,1.9842546254107065,-0.09699352742684819,0.006124223697039352,0.0005343645543973493
2.5118864315095766,1.989491764616084,-0.07773470687189431,0.006140289465506864,0.0005034781515143497
1.9952623149688788,1.992851510138508,-0.062115327522446105,0.006150596072823816,0.0004823713352401846
1.584893192461111,1.995005423768064,-0.04954470975417116,0.006157203629514359,0.0004683067152159853
1.2589254117941662,1.9963904751283659,-0.03947066106321614,0.006161452599635641,0.00045909570597671765
1.0,1.997283934502199,-0.03141454001536548,0.006164193537945529,0.0004531324533313799
0.7943282347242805,1.9978595058100894,-0.024978695479200126,0.006165959290332666,0.0004493013753787879
0.6309573444801929,1.9982260943892183,-0.019840579177587716,0.00616708392564708,0.0004468535011902766
0.5011872336272715,1.9984530723927878,-0.01574176371032427,0.006167780244959335,0.0004452962427012671
0.3981071705534969,1.9985860064487622,-0.012476151516233326,0.006168188029751255,0.0004443094989184844
0.31622776601683794,1.9986560926714412,-0.009879304614772197,0.006168402984511764,0.00044368670339001815
0.2511886431509577,1.998685648712228,-0.007819523647056171,0.006168493582652554,0.0004432951404437598
0.1995262314968879,1.9986912071304328,-0.006190681893259346,0.006168510553696942,0.0004430498357982276
0.1584893192461111,1.9986851541887276,-0.004906609647111742,0.0061684919082319305,0.0004428965772550391
0.12589254117941662,1.998676492700993,-0.0038968172234056108,0.006168465275805411,0.00044280093331418156
0.1,1.9986711347424924,-0.0031033824970172815,0.006168448800870851,0.00044274116502096534
0.07943282347242805,1.9986720598231154,-0.002478822056743057,0.006168451626651469,0.00044270365022747654
0.0630957344480193,1.9986796109654554,-0.0019847022189793334,0.006168474803084125,0.00044267992715281396
0.05011872336272714,1.9986920869008387,-0.0015906744121216318,0.006168513104402433,0.0004426647846101344
0.039810717055349686,1.9987066244442868,-0.0012736040273208975,0.006168557737977827,0.00044265503249580425
0.031622776601683784,1.9987202029547866,-0.0010165419757009906,0.006168599428196989,0.0004426487169963717
0.02511886431509577,1.998730512138504,-0.0008074525149241984,0.0061686310808506005,0.00044264462791345155
0.019952623149688792,1.99873645059313,-0.000637796172678535,0.006168649313792204,0.0004426419979035265
0.01584893192461111,1.9987381565239113,-0.000501193278572372,0.006168654551183206,0.00044264032591892667
0.01258925411794166,1.9987366497188277,-0.00039239738940939395,0.0061686499241421465,0.00044263927731966017
0.01,1.9987332967986626,-0.00030672321429492714,0.006168639628777816,0.0004426386276327871
