freq,Zreal,Zimag,sigma_re,sigma_im
1000000.0,1.001030990775613,-0.0018510958741686863,0.009505416482121352,0.00950540230879284
794328.2347242822,1.001205720174161,-0.002239004131195108,0.009505416492191152,0.009505402313936748
630957.344480193,1.0014275800542325,-0.0026818001778761307,0.009505416505327465,0.009505402320819572
501187.2336272725,1.00170227665749,-0.0031856203426247876,0.009505416522142733,0.009505402329893786
398107.17055349686,1.0020364509873894,-0.0037586031211152646,0.009505416543414592,0.009505402341751023
316227.7660168379,1.0024386868676534,-0.004410657633437558,0.009505416570164682,0.009505402357172421
251188.6431509582,1.0029201748635446,-0.005152752351363102,0.009505416603722002,0.009505402377173145
199526.2314968879,1.003494869177593,-0.005996044336271305,0.009505416645761555,0.009505402403036402
158489.3192461114,1.0041791882197273,-0.006951117104594661,0.00950541669831935,0.009505402436336597
125892.5411794166,1.0049914311871013,-0.008027617951686111,0.009505416763795916,0.00950540247895891
100000.0,1.0059511040872895,-0.00923401337039351,0.009505416844950385,0.00950540253311189
79432.82347242821,1.0070783024613046,-0.010577902341719226,0.00950541694490991,0.009505402601353767
63095.7344480193,1.008393227374782,-0.012066384016624103,0.009505417067191855,0.009505402686627747
50118.72336272724,1.0099158516337587,-0.01370652818906034,0.009505417215747785,0.009505402792314861
39810.71705534969,1.0116657255276713,-0.015506305148754701,0.009505417395062055,0.009505402922337747
31622.776601683792,1.0136619196698622,-0.017475206894184837,0.009505417610281256,0.009505403081291485
25118.864315095827,1.0159231355224367,-0.01962536574116891,0.009505417867437797,0.009505403274664303
19952.623149688792,1.0184680507167359,-0.021972310508643587,0.009505418173736678,0.00950540350911497
15848.93192461114,1.021315982508169,-0.02453622553628635,0.00950541853799501,0.009505403792894444
12589.254117941662,1.0244879308316839,-0.027342985332926527,0.009505418971216375,0.009505404136391704
10000.0,1.0280079979846675,-0.030425006861770864,0.009505419487325145,0.009505404552828752
7943.282347242814,1.0319050870475923,-0.03382170983908997,0.009505420104054965,0.009505405059101265
6309.57344480193,1.036214681669793,-0.03757946990540515,0.009505420843976188,0.00950540567675482
5011.8723362727205,1.040980437898288,-0.041751046215845744,0.009505421735641043,0.009505406433082701
3981.0717055349687,1.0462553039355296,-0.04639461446444412,0.009505422814835409,0.009505407362342105
3162.2776601683795,1.0521019472302686,-0.051572696971599975,0.009505424125959366,0.00950540850711738
2511.8864315095802,1.058592419819394,-0.05735141941068943,0.009505425723624379,0.009505409919920918
1995.2623149688789,1.0658072279378885,-0.06380059612301503,0.009505427674658807,0.009505411665219912
1584.8931924611124,1.0738342683500515,-0.07099510906323697,0.009505430060851059,0.009505413822206762
1258.9254117941662,1.082768408912762,-0.07901786165955157,0.00950543298290857,0.00950541648877046
1000.0,1.092712763314316,-0.08796423710161713,0.009505436566222205,0.009505419787228327
794.3282347242813,1.1037828677289123,-0.09794747477605631,0.009505440969022316,0.009505423872366026
630.957344480193,1.1161149405557098,-0.10910373136394315,0.009505446393285936,0.009505428942101346
501.187233627272,1.1298791420809366,-0.1215948672451843,0.009505453098156117,0.009505435250485918
398.10717055349687,1.1452982120088282,-0.13560624404137042,0.00950546141444272,0.009505443121567508
316.227766016838,1.1626709950306802,-0.1513360603309741,0.009505471756640654,0.00950545296050463
251.18864315095797,1.1823990244296165,-0.16897201062814382,0.00950548462532145,0.009505465254752333
199.5262314968879,1.2050122156146537,-0.18865045970095495,0.009505500587206955,0.009505480552611948
158.48931924611125,1.2311863755640666,-0.21039335335255782,0.00950552021277746,0.009505499399040374
125.89254117941664,1.2617403353365884,-0.23401989668672868,0.00950554394401757,0.009505522201510606
100.0,1.297594572043759,-0.2590356100661133,0.0095055718645384,0.00950554899865437
79.43282347242804,1.3396686989367819,-0.28451308057970204,0.009505603364443232,0.009505579125084058
63.09573444801929,1.3886975838600195,-0.3089974420855539,0.009505636751048084,0.009505610825297902
50.11872336272725,1.4449627280967667,-0.3304916551056947,0.009505668961366339,0.009505640975072371
39.81071705534969,1.5079730931873991,-0.34659092133156866,0.009505695647878353,0.009505665184161257
31.622776601683796,1.5761859672679384,-0.35482302940222965,0.009505711926746298,0.009505678569186991
25.118864315095767,1.6469140183791056,-0.3531896668819108,0.009505713842354026,0.009505677244174612
19.95262314968879,1.7165716228905348,-0.34078543539550343,0.009505700073452647,0.009505660039677804
15.848931924611108,1.7813100776099897,-0.31824362495825154,0.009505672902792119,0.00950562945594301
12.589254117941664,1.8378756296520227,-0.28773922325562185,0.00950563761735267,0.00950559101332812
10.0,1.8843330744941182,-0.25246481164065837,0.009505600512920667,0.009505551193356637
7.943282347242805,1.920324462095481,-0.2157965608226191,0.009505566717060829,0.009505515217651259
6.30957344480193,1.9467992569055612,-0.18053995545650287,0.00950553903977932,0.00950548589448817
5.011872336272715,1.9654420013337641,-0.148542082856092,0.009505518102301717,0.009505463776357217
3.981071705534969,1.9781093943535804,-0.12069684046217215,0.009505503157540306,0.009505448018907858
3.1622776601683795,1.9864651615059494,-0.09718075333463215,0.009505492924540527,0.009505437244825025
2.5118864315095766,1.991831263291084,-0.0777367446159026,0.009505486119500464,0.009505430089690561
1.9952623149688788,1.995182887386489,-0.06190162378797347,0.009505481685375109,0.009505425435255415
1.584893192461111,1.997207832898565,-0.049151724770258816,0.009505478836960672,0.009505422452450299
1.2589254117941662,1.9983794190108028,-0.03898111600578915,0.009505477025367552,0.009505420561956714
1.0,1.9990199770794614,-0.030935949134601348,0.009505475881316089,0.009505419373725312
0.7943282347242805,1.9993486545067034,-0.024624307843396573,0.009505475162671747,0.009505418631528756
0.6309573444801929,1.9995146138967037,-0.01971415575756809,0.009505474713602378,0.009505418169990634
0.5011872336272715,1.9996189566812568,-0.01592658559157694,0.009505474435264397,0.009505417883839552
0.3981071705534969,1.9997287684163108,-0.013028093635943483,0.009505474265665316,0.009505417706840637
0.31622776601683794,1.999886049828926,-0.010823579111696499,0.009505474166188818,0.009505417597722214
0.2511886431509577,2.0001135643282835,-0.009150656015626596,0.009505474112750665,0.009505417530939083
0.1995262314968879,2.000418992598361,-0.007875284722263351,0.009505474090107291,0.009505417490706006
0.1584893192461111,2.000798275097073,-0.006888454913421769,0.009505474088286569,0.009505417467214103
0.12589254117941662,2.0012386339007526,-0.006103554133052039,0.00950547410042923,0.00950541745428585
0.1,2.001721479511155,-0.005454066534356929,0.009505474121546655,0.00950541744795918
0.07943282347242805,2.0022252126519167,-0.004891320636282389,0.009505474147849389,0.009505417445652028
0.0630957344480193,2.002727815290071,-0.004382111432598054,0.00950547417640769,0.00950541744567288
0.05011872336272714,2.003209078040764,-0.0039061354304391355,0.009505474204985586,0.009505417446926458
0.039810717055349686,2.003652318480154,-0.0034532767993412056,0.009505474231951049,0.009505417448724829
0.031622776601683784,2.0040454894890933,-0.0030208555684162293,0.009505474256209206,0.009505417450656391
0.02511886431509577,2.004381641037916,-0.002610989266153574,0.00950547427713485,0.009505417452491085
0.019952623149688792,2.0046587680784422,-0.002228228816144615,0.009505474294497041,0.0095054174541128
0.01584893192461111,2.004879141255768,-0.0018776119166626366,0.009505474308376411,0.009505417455474166
0.01258925411794166,2.005048269493165,-0.0015632399209175496,0.009505474319078604,0.009505417456568651
0.01,2.0051736783810465,-0.0012874303734968693,0.009505474327048619,0.009505417457414235
