freq,Zreal,Zimag,sigma_re,sigma_im
1000000.0,0.99426158895237,-0.00043602166803132343,0.04913592341429992,0.004829632419000798
794328.2347242822,0.9942420212785208,-0.000755284610068853,0.04913496537397203,0.004829724014425296
630957.344480193,0.9942425744062534,-0.0011357614412884098,0.049134992455462795,0.004829904275814229
501187.2336272725,0.9942803629512188,-0.0015909763359513596,0.049136842596776545,0.004830222095197334
398107.17055349686,0.9943753699262315,-0.0021293420607466076,0.04914149417649357,0.0048307412207208794
316227.7660168379,0.9945478157101263,-0.002753218928391315,0.049149937201862136,0.004831535836470589
251188.6431509582,0.9948149487017881,-0.0034592991521295736,0.04916301618349623,0.004832683396512275
199526.2314968879,0.9951878827787035,-0.00424053938322122,0.04918127530030021,0.004834257897251503
158489.3192461114,0.9956691397146826,-0.0050895874295284835,0.04920483807488176,0.004836328783239961
125892.5411794166,0.9962514756203676,-0.006003382431898212,0.04923334990837536,0.004838971242005714
100000.0,0.996918386925315,-0.006988396574234633,0.04926600284006382,0.004842292540862691
79432.82347242821,0.9976464325275491,-0.008065871861542633,0.04930164922537713,0.00484647738282658
63095.7344480193,0.9984092272415062,-0.009276415362484067,0.049338997246329945,0.0048518550259319705
50118.72336272724,0.9991827193468007,-0.010683446935777332,0.049376869303852274,0.004858993907761321
39810.71705534969,0.9999512126337,-0.012375208152754558,0.04941449687660164,0.004868836032427966
31622.776601683792,1.000713555443577,-0.014465287511743839,0.04945182357112891,0.004882891587094643
25118.864315095827,1.0014889906375695,-0.017091841603769958,0.04948979158305036,0.004903520456132246
19952.623149688792,1.002322315272299,-0.02041585374774491,0.04953059437179536,0.004934326544248867
15848.93192461114,1.0032882051571828,-0.0246188540679413,0.049577888464357615,0.004980677314500853
12589.254117941662,1.0044947898530743,-0.029900519680857208,0.04963696859722011,0.005050328046416708
10000.0,1.006086794507584,-0.03647646938491128,0.04971492172710112,0.005154071844831917
7943.282347242814,1.0082487680953058,-0.04457635764875645,0.049820785413308345,0.005306253491287705
6309.57344480193,1.0112090517187289,-0.05444204934322888,0.04996574266963793,0.005524901620577402
5011.8723362727205,1.0152451491943884,-0.06632522694508364,0.050163385840723426,0.005831211578230875
3981.0717055349687,1.020690978883573,-0.08048328041598077,0.05043007313148956,0.006248232329610233
3162.2776601683795,1.0279460401647422,-0.09717181872601673,0.05078537965622548,0.0067988867838583095
2511.8864315095802,1.0374857502584252,-0.11663173075565188,0.0512526068407431,0.0075037309497193875
1995.2623149688789,1.0498710471811827,-0.1390686025229122,0.05185925720991137,0.008378890173557986
1584.8931924611124,1.0657538450514987,-0.16462275454207095,0.05263730753740103,0.009434341609604864
1258.9254117941662,1.0858733073502136,-0.19332957457074632,0.05362303358179782,0.010672388064277208
1000.0,1.1110367552322749,-0.22507249678134744,0.05485608262285461,0.012086088732537806
794.3282347242813,1.142079295777195,-0.25953484636779367,0.056377501995932146,0.013657636407386946
630.957344480193,1.17979895957962,-0.2961610144202829,0.058226563114874286,0.015357029322339984
501.187233627272,1.2248697559058814,-0.33414039589127864,0.06043649523553327,0.0171416641422108
398.10717055349687,1.2777428588447124,-0.37242716228741957,0.06302962675139837,0.01895752672300824
316.227766016838,1.3385539651559675,-0.40980372067120385,0.06601281855351157,0.020742417394134134
251.18864315095797,1.4070595515423736,-0.44498558191307924,0.0693743081440039,0.022431142391507564
199.5262314968879,1.482623128264625,-0.47675237277533783,0.07308300687983096,0.023961951930655444
158.48931924611125,1.5642628480718899,-0.5040781141959705,0.07709081589858305,0.025282924149855366
125.89254117941664,1.6507552826386058,-0.5262291310442715,0.08133771173443309,0.026356753309363042
100.0,1.7407722251920146,-0.5428042298334945,0.08575846664561416,0.02716270416712459
79.43282347242804,1.8330159311368188,-0.5537085024885406,0.09028930211473939,0.02769531274367685
63.09573444801929,1.9263191002883853,-0.5590728263598874,0.09487281527501827,0.02796042865615114
50.11872336272725,2.0196887233552485,-0.5591469444785581,0.09946014760842677,0.02796996888784519
39.81071705534969,2.1122914786784155,-0.5541991672999806,0.10401027878934563,0.027737004413859654
31.622776601683796,2.2033952562390993,-0.5444502295553619,0.10848716049357704,0.027272529415769426
25.118864315095767,2.2922919237393993,-0.5300564922385207,0.11285592448382606,0.02658465641698656
19.95262314968879,2.3782293357641686,-0.5111429878080507,0.117079542138836,0.02568026005096856
15.848931924611108,2.4603764576596534,-0.48787321786398796,0.12111711005152931,0.024568426222955922
12.589254117941664,2.5378356534971775,-0.4605326547008983,0.12492445350567898,0.02326457515245568
10.0,2.60970260327094,-0.42959881859119164,0.1284570715923627,0.02179392536355529
7.943282347242805,2.675160110467119,-0.3957742073500222,0.13167474903260695,0.0201931291452266
6.30957344480193,2.733581560815204,-0.3599690333382032,0.13454664311311826,0.018509427405118694
5.011872336272715,2.784616861282422,-0.32323549247289846,0.13705550966755956,0.016797386730559805
3.981071705534969,2.8282393398361667,-0.2866688850250865,0.13920000973196814,0.015113936430777825
3.1622776601683795,2.864743677780604,-0.25129873246008483,0.1409946084246621,0.013512796660810929
2.5118864315095766,2.894697931161583,-0.21799342449323397,0.1424672161551244,0.01203940765655755
1.9952623149688788,2.918863127603961,-0.1873960812489532,0.14365523523412005,0.010727208367646165
1.584893192461111,2.938099526084483,-0.15989977761161916,0.1446009504623788,0.009595712888276021
1.2589254117941662,2.9532785757250126,-0.13565995884796433,0.14534719978715904,0.008650440773396866
1.0,2.9652144780974203,-0.11463376750625293,0.1459340087929309,0.007884476423088196
0.7943282347242805,2.97462129725457,-0.09663242718580356,0.14639648136499964,0.007281272853697325
0.6309573444801929,2.9820940601187056,-0.081374177451563,0.14676386998996893,0.00681819505258142
0.5011872336272715,2.9881077872293993,-0.06852969704890936,0.14705952774445757,0.006470174770322776
0.3981071705534969,2.993027389433404,-0.057756819919949326,0.14730139462208353,0.006212823760291149
0.31622776601683794,2.997122684440327,-0.048724812437619947,0.14750273566160438,0.0060245478949353766
0.2511886431509577,3.000584864684451,-0.041130112508024966,0.14767295048479673,0.005887560606623617
0.1995262314968879,3.003542543248085,-0.03470570486416979,0.14781836212629398,0.005788007231439629
0.1584893192461111,3.0060766471029,-0.029225902901806603,0.14794294921508913,0.005715543938541184
0.12589254117941662,3.0082339658671207,-0.024507736370845468,0.14804901206933138,0.005662682299133396
0.1,3.010039301436183,-0.02040967537757836,0.14813777001277972,0.005624106260458754
0.07943282347242805,3.0115061024451686,-0.016828146033792776,0.14820988420458656,0.0055960680016600185
0.0630957344480193,3.012645356722365,-0.013692200407356343,0.14826589482778435,0.005575902328163498
0.05011872336272714,3.013472442181612,-0.010956740949179177,0.1483065579076084,0.00556166418259651
0.039810717055349686,3.014011639698227,-0.008594805734100963,0.14833306718346406,0.0055518782385259886
0.031622776601683784,3.014298097187722,-0.006589547014393016,0.14834715067087587,0.0055453824884640875
0.02511886431509577,3.0143771968978195,-0.0049266497242036866,0.14835103955371684,0.00554124346175243
0.019952623149688792,3.0143015149288312,-0.0035880146760215443,0.14834731869959383,0.0055387180816386505
0.01584893192461111,3.014125879753792,-0.002547531949211564,0.14833868371380737,0.005537237556326879
0.01258925411794166,3.013901436376016,-0.0017696329684743104,0.14832764910650942,0.005536393560887475
0.01,3.0136700394921796,-0.0012109125681566267,0.14831627263578404,0.005535915887414734
