freq,Zreal,Zimag,sigma_re,sigma_im
1000000.0,1.001294072119153,-0.0008493100143302866,0.018675908781645212,0.018675908261566693
794328.2347242822,1.0014353312664892,-0.0010423206707592316,0.018678542199162193,0.018678541679010455
630957.344480193,1.0016142507576777,-0.0012349715648346544,0.0186818776982585,0.01868187717801401
501187.2336272725,1.0018318676455888,-0.0014205879189272518,0.01868593461232914,0.018685934091971817
398107.17055349686,1.0020862698176047,-0.0015919880003780955,0.018690677295107327,0.018690676774618064
316227.7660168379,1.0023725120796287,-0.0017426348523430558,0.018696013556229286,0.018696013035591534
251188.6431509582,1.0026829454311716,-0.0018677849234002913,0.01870180079968708,0.018701800278888247
199526.2314968879,1.0030079398568512,-0.0019654871556036816,0.01870785949839722,0.018707858977429687
158489.3192461114,1.0033369327157944,-0.002037283529500002,0.018713992738731082,0.018713992217592734
125892.5411794166,1.0036596752562021,-0.002088525520490289,0.018720009458613008,0.018720008937307044
100000.0,1.0039675000482946,-0.002128215922249492,0.01872574807561884,0.018725747554153006
79432.82347242821,1.0042544136320395,-0.0021684176497862883,0.018731096856671785,0.018731096335056936
63095.7344480193,1.0045178410356526,-0.0022233507162203,0.018736007797762542,0.01873600727601092
50118.72336272724,1.004758908108223,-0.0023083160595303814,0.018740501887380915,0.018740501365504217
39810.71705534969,1.0049822300422933,-0.002438706298962952,0.018744665164094267,0.018744664642101838
31622.776601683792,1.005195261501642,-0.0026292862856604525,0.0187486366013453,0.01874863607924266
25118.864315095827,1.0054073371187742,-0.0028938613256457597,0.01875259021995957,0.01875258969774748
19952.623149688792,1.0056285773682756,-0.0032454917733948326,0.018756714690917935,0.01875671416859199
15848.93192461114,1.0058688486828344,-0.0036972459251792354,0.018761193949345348,0.018761193426896156
12589.254117941662,1.006136951371179,-0.004263473054102459,0.018766192055297743,0.018766191532711553
10000.0,1.0064401733253319,-0.00496151963778566,0.018771844873779513,0.01877184435103907
7943.282347242814,1.006784302084734,-0.005813747555522955,0.01877826029968897,0.01877825977677443
6309.57344480193,1.0071741414528634,-0.006849788237301259,0.01878552788890658,0.018785527365796216
5011.8723362727205,1.0076145383749149,-0.008108902164267653,0.018793738001970636,0.01879373747864111
3981.0717055349687,1.0081118971441754,-0.0096423774841292,0.01880301003285846,0.018803009509284485
3162.2776601683795,1.0086761474678938,-0.011515930975006194,0.018813529098973752,0.018813528575126935
2511.8864315095802,1.0093231471296127,-0.01381211725304125,0.01882559083330125,0.018825590309148103
1995.2623149688789,1.0100775448523482,-0.01663278722955909,0.01883965475616599,0.018839654231664893
1584.8931924611124,1.0109762080992655,-0.020101652151293184,0.01885640817931881,0.018856407654416055
1258.9254117941662,1.0120724342151046,-0.024366987346313165,0.018876844714204113,0.01887684418882881
1000.0,1.013441308334055,-0.029604429086528473,0.018902364160023864,0.018902363634081674
794.3282347242813,1.0151867403408323,-0.03601965093284655,0.01893490369550204,0.018934903168867447
630.957344480193,1.0174508885355338,-0.04385041214000429,0.018977113567966695,0.01897711304047333
501.187233627272,1.0204268173548678,-0.05336699148959331,0.019032593078570335,0.01903259254999857
398.10717055349687,1.0243752436301392,-0.06486928032998424,0.01910620279663809,0.019106202266698503
316.227766016838,1.0296459003010627,-0.07867774411433473,0.019204462868795024,0.019204462337105512
251.18864315095797,1.0367030269771358,-0.09511410351051838,0.019336028284573092,0.01933602775062626
199.5262314968879,1.0461522468585325,-0.1144662558830381,0.01951219001937622,0.019512189482491896
158.48931924611125,1.058762082307663,-0.1369315817816118,0.019747276271212116,0.0197472757304684
125.89254117941664,1.0754677191021198,-0.16253514495681443,0.02005872281395822,0.020058722268093836
100.0,1.0973392621171145,-0.19102655169605381,0.020466481405830742,0.020466480853115095
79.43282347242804,1.1254960073534397,-0.22177193107370785,0.020991421761721567,0.02099142119980006
63.09573444801929,1.160957146679498,-0.25367180836172354,0.02165254829607774,0.02165254772182232
50.11872336272725,1.204438580614834,-0.2851435421101345,0.022463211846182,0.02246321125560681
39.81071705534969,1.2561289479826465,-0.31420168993659187,0.02342693350430387,0.023426932892628902
31.622776601683796,1.3154967418922152,-0.33865095887926705,0.024533807613001796,0.024533806974939593
25.118864315095767,1.3811887494273865,-0.3563780764105532,0.025758607216900615,0.025758606547184943
19.95262314968879,1.4510734412910116,-0.36569455281260466,0.027061592170894475,0.027061591464974975
15.848931924611108,1.5224540247078768,-0.36564953061689986,0.02839248102658514,0.028392480281321186
12.589254117941664,1.5924230985838654,-0.35621947249886443,0.029697063666000452,0.029697062880156392
10.0,1.6582737520523143,-0.33830960689040146,0.030924866810007588,0.030924865984408075
7.943282347242805,1.717856114627266,-0.3135663043703505,0.03203580269292902,0.03203580183025035
6.30957344480193,1.7697929904766054,-0.2840643846373351,0.0330041902907938,0.03300418939508185
5.011872336272715,1.8135248944591056,-0.2519626671601167,0.033819595491350905,0.03381959456741647
3.981071705534969,1.8492080493566447,-0.21920982876805994,0.034484929429142434,0.03448492848198155
3.1622776601683795,1.8775190256460732,-0.18735044284619878,0.03501280593402247,0.035012804968364356
2.5118864315095766,1.8994278310008976,-0.15744616238563988,0.03542131059009587,0.03542130961012238
1.9952623149688788,1.915993402960012,-0.13009693111251308,0.035730187464985,0.035730186474213575
1.584893192461111,1.9282153687278036,-0.10552692854111853,0.03595807497088317,0.03595807397217269
1.2589254117941662,1.9369506538272172,-0.08369511163367849,0.03612095089329723,0.036120949888926605
1.0,1.942883825696798,-0.06439975006761575,0.03623157936813187,0.036231578359908714
0.7943282347242805,1.9465321697341333,-0.04736167078116724,0.03629960549018544,0.036299604479556415
0.6309573444801929,1.9482683355110466,-0.03228341650561559,0.036331977545123954,0.036331976533272116
0.5011872336272715,1.9483492227843744,-0.01888801529947189,0.03633348559698656,0.0363334845849099
0.3981071705534969,1.9469453329474704,-0.006942720180520382,0.036307308760497835,0.03630730774906834
0.31622776601683794,1.944168486159112,0.0037277893824802263,0.03625553200409344,0.036255530994097555
0.2511886431509577,1.940097585575247,0.013235927651011161,0.03617962654197068,0.03617962553413312
0.1995262314968879,1.9348024988623767,0.0216321729168994,0.036080895122543394,0.03608089411753574
0.1584893192461111,1.9283656664482063,0.028912187131567697,0.03596087493038817,0.035960873928824466
0.12589254117941662,1.9209002314993286,0.035030001061479646,0.0358216756326003,0.035821674635022095
0.1,1.912562780848009,0.03991664950778694,0.035666216941123034,0.03566621594797767
0.07943282347242805,1.903558604936351,0.04350255743151895,0.03549832668522443,0.03549832569684106
0.0630957344480193,1.8941380176008409,0.0457407501270594,0.03532267218697184,0.03532267120354051
0.05011872336272714,1.8845837383520694,0.04662716297455329,0.035144524989992196,0.035144524011550486
0.039810717055349686,1.8751912324462805,0.04621450032924289,0.034969394281804844,0.03496939330823561
0.031622776601683784,1.866245466957033,0.044617405609984305,0.03480259349156252,0.03480259252260373
0.02511886431509577,1.8579980297756173,0.042008693167304316,0.0346488136571072,0.03464881269237284
0.019952623149688792,1.8506477829507493,0.03860812379513181,0.034511762694476325,0.03451176173348597
0.01584893192461111,1.844326801810207,0.034665865403155416,0.03439390322609332,0.03439390226830725
0.01258925411794166,1.8390923770596839,0.030442358931970944,0.03429630345805453,0.03429630250291142
0.01,1.8349260400647938,0.026185843625990878,0.034218619009334754,0.034218618056288716
