freq,Zreal,Zimag,sigma_re,sigma_im
1000000.0,0.9973933176070902,0.007647314695150778,0.007192701093064552,0.007182813204599522
794328.2347242822,0.9978062714295657,0.005283751078856496,0.00719562980370669,0.007185737449080165
630957.344480193,0.9983054495530852,0.0033754014633734244,0.007199170072281575,0.0071892725222965845
501187.2336272725,0.9988797164376695,0.0018602873399565557,0.0072032429318097824,0.0071933395152481054
398107.17055349686,0.9995088239879836,0.0006903068379664125,0.007207704786331943,0.007197794999763417
316227.7660168379,1.0001654193829355,-0.00017561593793641783,0.007212361646348877,0.007202445238029465
251188.6431509582,1.0008179808736415,-0.0007765933286052434,0.0072169899469941255,0.007207066967743295
199526.2314968879,1.00143420429595,-0.0011531047828307306,0.0072213605651498935,0.007211431382770393
158489.3192461114,1.0019844688944672,-0.0013487328527654883,0.007225263401787889,0.007215328678709313
125892.5411794166,1.002445052312943,-0.0014104432175312898,0.007228530187607196,0.007218590824505348
100000.0,1.0028007648301427,-0.0013876406635333928,0.007231053170910389,0.007221110222367555
79432.82347242821,1.003046691260758,-0.001330176304021867,0.007232797476377109,0.007222852047896433
63095.7344480193,1.0031888039614412,-0.001285868218838368,0.007233805455628924,0.0072238585938254355
50118.72336272724,1.003243346064498,-0.0012978623511657316,0.007234192313428365,0.007224244902270629
39810.71705534969,1.003235057170133,-0.0014022974820206919,0.00723413352197142,0.007224186197136221
31622.776601683792,1.003194487418208,-0.0016269601565553563,0.007233845768344891,0.007223898859092949
25118.864315095827,1.0031547825094016,-0.001990825332809521,0.00723356414969386,0.007223617653599987
19952.623149688792,1.0031483937966146,-0.0025048952985815974,0.007233518837907165,0.007223572429059383
15848.93192461114,1.0032041630604878,-0.0031741901463475143,0.007233914403092473,0.007223967469812306
12589.254117941662,1.003345159521304,-0.004000710468057167,0.007234914473393485,0.007224966177830075
10000.0,1.0035875299601134,-0.004987069315416574,0.007236633580768443,0.007226682930294816
7943.282347242814,1.0039404888399126,-0.006140456918873005,0.007239137092084135,0.007229183011397513
6309.57344480193,1.0044074465693775,-0.007476597712916052,0.007242449212078124,0.007232490605182559
5011.8723362727205,1.0049881649546761,-0.009023410310403792,0.007246568271482091,0.007236604064108688
3981.0717055349687,1.0056817486492347,-0.010824158947483849,0.00725148794499297,0.007241517100237137
3162.2776601683795,1.006490238609035,-0.012939983353168592,0.00725722274049574,0.0072472442432142455
2511.8864315095802,1.0074225772018037,-0.01545180092888001,0.007263836126903014,0.007253848935329221
1995.2623149688789,1.0084987706470907,-0.01846167152230703,0.007271470065517136,0.007261473031165065
1584.8931924611124,1.009754180891981,-0.022093777772699413,0.007280375465116154,0.007270367223892347
1258.9254117941662,1.0112440240822849,-0.02649518050950539,0.007290944110861784,0.0072809229490086915
1000.0,1.013048317315649,-0.03183644134683308,0.007303743786141706,0.007293707483946328
794.3282347242813,1.0152776769106162,-0.03831205140585467,0.007319559455843596,0.007309505109809834
630.957344480193,1.0180805065392524,-0.046140355960494955,0.007339444343665713,0.007329368163894351
501.187233627272,1.0216521948030317,-0.0555623046460589,0.007364785321298202,0.007354682394743633
398.10717055349687,1.026246925712319,-0.06683786386828555,0.007397386926800184,0.007387250928022056
316.227766016838,1.032192508393978,-0.08023826416349913,0.007439576951305034,0.007429399768854704
251.18864315095797,1.0399080945942247,-0.09603141772545638,0.007494332745321436,0.007484103972208429
199.5262314968879,1.0499235039796309,-0.11445690659836169,0.00756541927690994,0.0075551254867648986
158.48931924611125,1.0628967462454815,-0.13568620032414416,0.007657514870016503,0.0076471385697592835
125.89254117941664,1.0796228915512744,-0.15976400759126458,0.007776276120250507,0.007765794249248103
100.0,1.1010228508338586,-0.18652919384370797,0.007928260740666628,0.007917642610107927
79.43282347242804,1.1280962723790815,-0.21552021253558354,0.008120595774087623,0.008109800470859005
63.09573444801929,1.1618219203702589,-0.245881365436684,0.00836027196060865,0.008349245552145345
50.11872336272725,1.2029961846101136,-0.2763004219173454,0.008652996002740021,0.008641669395336901
39.81071705534969,1.2520189900234815,-0.3050189611724203,0.009001664454398236,0.008989953331261076
31.622776601683796,1.3086644816193436,-0.32995534302719187,0.00940472369683285,0.009392532201747796
25.118864315095767,1.3719029731494028,-0.348958793016779,0.009854890020109941,0.009842119246516342
19.95262314968879,1.4398564730932475,-0.3601694474269196,0.010338819599854013,0.010325380269758008
15.848931924611108,1.5099539689632324,-0.36240141713070895,0.010838205162499424,0.010824031661414773
12.589254117941664,1.5792902813695813,-0.35542111764602746,0.011332330868003178,0.011317392338217951
10.0,1.6450987426666441,-0.3400042318179239,0.01180144669324932,0.011785751443841641
7.943282347242805,1.7051817931955267,-0.3177399821810216,0.012229848051056882,0.012213440120369049
6.30957344480193,1.7581621737067743,-0.2906635773699696,0.012607677010558486,0.012590626751384766
5.011872336272715,1.8035089651469347,-0.2608576186761551,0.012931115333272493,0.012913507578686556
3.981071705534969,1.8413869350457694,-0.23014165789694196,0.013201313639456968,0.013183236801534468
3.1622776601683795,1.8724213988744698,-0.19990279508644138,0.0134227149149067,0.013404253004545615
2.5118864315095766,1.8974629457150094,-0.17105860821504773,0.013601375269873038,0.013582603331370584
1.9952623149688788,1.917402858044652,-0.14411044024161856,0.013743645666803167,0.0137246281108029
1.584893192461111,1.9330550794917767,-0.11923964379413685,0.013855328409717859,0.01383611932226655
1.2589254117941662,1.9450970661626745,-0.09641075875651059,0.01394125401653207,0.013921898552225904
1.0,1.954052222938767,-0.0754618028680635,0.014005155117357558,0.013985691314274205
0.7943282347242805,1.9602969470850256,-0.056175088050529134,0.014049716201539348,0.014030176808593194
0.6309573444801929,1.9640801276963409,-0.03832965334281917,0.014076712441516294,0.01405712654086192
0.5011872336272715,1.9655483721581142,-0.02173928071003909,0.014087189519276793,0.014067583840583316
0.3981071705534969,1.964774425230911,-0.006279871817112538,0.014081666325164782,0.01406206620044548
0.31622776601683794,1.9617886773782165,0.008091816863292937,0.01406035975781577,0.014040789680234
0.2511886431509577,1.9566142592396587,0.021328419642350334,0.014023435143646026,0.01400391889717291
0.1995262314968879,1.949305074880701,0.033293535701247254,0.013971277629765803,0.013951837971914715
0.1584893192461111,1.9399835950645299,0.04377774342343067,0.01390476183963788,0.013885419763297137
0.12589254117941662,1.9288721796626056,0.05253086077377406,0.013825475304734065,0.013806248980857727
0.1,1.9163095842157878,0.05930854459869067,0.013735836113917068,0.013716739708629461
0.07943282347242805,1.9027449302795527,0.06392590096975216,0.013639049706513034,0.013620092337813786
0.0630957344480193,1.8887060837218135,0.06630584553597596,0.013538883051183228,0.013520068156613265
0.05011872336272714,1.8747474021766144,0.06650878800504402,0.013439291676289091,0.013420616976247102
0.039810717055349686,1.861389585050809,0.06473503517572776,0.013343990461741593,0.013325448543699207
0.031622776601683784,1.8490671470503255,0.06130057738830003,0.013256078948869902,0.013237658333602739
0.02511886431509577,1.838094928536699,0.056595571903001775,0.01317780256654135,0.013159489022007208
0.019952623149688792,1.8286568671712693,0.051038230056308684,0.013110472716970058,0.013092250586740158
0.01584893192461111,1.8208129542361027,0.04503428473966446,0.013054516577477944,0.013036369961179529
0.01258925411794166,1.814517167421519,0.038946644082947415,0.013009605156683434,0.012991518866770734
0.01,1.8096403736883606,0.03307495228667523,0.012974816744759393,0.012956777023756118
