freq,Zreal,Zimag,sigma_re,sigma_im
1000000.0,0.9959688660917135,-0.001548123280505418,0.004884808064474685,0.004882805585069639
794328.2347242822,0.9961805907480031,-0.0017374540886249904,0.004884808965816374,0.004882805636389383
630957.344480193,0.9964193314038854,-0.0019371809080504549,0.004884809982398667,0.004882805694335937
501187.2336272725,0.9966841248963328,-0.0021479018512456064,0.004884811110201398,0.004882805758716393
398107.17055349686,0.9969739978904009,-0.0023718492527068325,0.004884812345165634,0.004882805829354795
316227.7660168379,0.9972885953832641,-0.002612722991276329,0.00488481368587145,0.004882805906247252
251188.6431509582,0.9976285096210524,-0.0028753439551877967,0.004884815134943801,0.004882805989644991
199526.2314968879,0.9979953468178165,-0.003165364949519514,0.004884816699344111,0.004882806080076194
158489.3192461114,0.9983916824867548,-0.003489139130138563,0.00488481839018887,0.0048828061783441935
125892.5411794166,0.9988210262622661,-0.0038537125239597046,0.00488482022261022,0.0048828062855316556
100000.0,0.9992878234756888,-0.004266868145238171,0.004884822215775359,0.004882806403017675
79432.82347242821,0.9997974615969099,-0.004737192112754834,0.004884824392929446,0.0048828065325010285
63095.7344480193,1.0003562578111769,-0.0052741840988679125,0.0048848267813612475,0.004882806676025819
50118.72336272724,1.0009714418172868,-0.005888444326115326,0.004884829412352232,0.0048828068360157375
39810.71705534969,1.0016511661245364,-0.006591944803006488,0.004884832321248027,0.004882807015328279
31622.776601683792,1.0024045629280345,-0.007398370963128088,0.004884835547735484,0.004882807217338001
25118.864315095827,1.0032418445251683,-0.008323522417672409,0.0048848391363146846,0.004882807446054215
19952.623149688792,1.0041744355423021,-0.00938577973640778,0.004884843136918514,0.004882807706279025
15848.93192461114,1.0052151321135594,-0.010606660248718931,0.004884847605662372,0.004882808003817063
12589.254117941662,1.0063782951869198,-0.012011492201869518,0.004884852605759095,0.004882808345756351
10000.0,1.0076800939065285,-0.013630236719744566,0.004884858208673411,0.004882808740849083
7943.282347242814,1.009138819224003,-0.015498487754976953,0.0048848644956106255,0.00488280920003223
6309.57344480193,1.0107752920996285,-0.01765868631792889,0.004884871559455871,0.004882809737143654
5011.8723362727205,1.012613401876666,-0.020161595971714356,0.004884879507333623,0.004882810369913393
3981.0717055349687,1.0146808333133486,-0.023068096178442476,0.00488488846406403,0.004882811121345935
3162.2776601683795,1.0170100759317056,-0.02645135164388917,0.004884898576957716,0.0048828120216609545
2511.8864315095802,1.0196398551986599,-0.030399403373949974,0.004884910022611031,0.0048828131110308075
1995.2623149688789,1.0226171793661352,-0.03501819529587477,0.00488492301663531,0.004882814443446431
1584.8931924611124,1.0260002566390876,-0.04043499325772291,0.004884937827576951,0.004882816092161837
1258.9254117941662,1.0298626043211085,-0.04680206109174821,0.004884954796672054,0.004882818157310022
1000.0,1.034298738283892,-0.05430030793725406,0.004884974365523789,0.00488282077643476
794.3282347242813,1.0394318578211494,-0.06314238110406264,0.004884997114151557,0.004882824138795009
630.957344480193,1.045423841510096,-0.07357436350343158,0.004885023811801255,0.00488282850427543
501.187233627272,1.052487585503354,-0.08587496182455859,0.004885055482212107,0.00488283422746248
398.10717055349687,1.060901349078251,-0.10035099431027909,0.004885093484214356,0.004882841786834524
316.227766016838,1.071024584373899,-0.11732806734616764,0.00488513960883989,0.004882851817973905
251.18864315095797,1.0833148465268512,-0.13713517887083032,0.004885196196314045,0.004882865147924228
199.5262314968879,1.0983453869007624,-0.1600810952820976,0.004885266278663938,0.004882882824456193
158.48931924611125,1.1168218997905375,-0.18641873706082934,0.004885353751438294,0.004882906127784745
125.89254117941664,1.13959359977214,-0.21629258672092125,0.0048854635652333805,0.00488293654241262
100.0,1.1676483252363747,-0.24966542655114218,0.004885601900564216,0.004882975655082913
79.43282347242804,1.2020755061327084,-0.28622683773418667,0.004885776249468409,0.00488302493857116
63.09573444801929,1.2439785160998027,-0.32529788785275593,0.004885995283091099,0.004883085394495338
50.11872336272725,1.2943243531583448,-0.36576225751811636,0.004886268355951256,0.004883157078573294
39.81071705534969,1.3537378586492064,-0.40606719218970305,0.00488660451808333,0.004883238623872275
31.622776601683796,1.4222789524718649,-0.44433762746406574,0.004887011021430713,0.004883326981026069
25.118864315095767,1.4992751921546104,-0.4786229214132644,0.004887491553126643,0.004883417630269959
19.95262314968879,1.5832991528860139,-0.5072439188564327,0.004888044770458235,0.004883505393241966
15.848931924611108,1.6723560955827876,-0.5291412468675497,0.004888663954914696,0.004883585664591767
12.589254117941664,1.764268589925908,-0.5440809043179081,0.004889338407260676,0.004883655551590096
10.0,1.857136321755576,-0.5525991793815542,0.004890056391405748,0.004883714340369591
7.943282347242805,1.9496814617103004,-0.5556800086298003,0.004890808387551699,0.004883763047639835
6.30957344480193,2.041326385966113,-0.5542962807732379,0.004891588966642709,0.004883803347079729
5.011872336272715,2.13198014227818,-0.5490186684402454,0.004892396232759141,0.004883836474669825
3.981071705534969,2.2216501478840267,-0.539854415212676,0.004893229093185271,0.0048838626354677965
3.1622776601683795,2.3100628472807068,-0.5263581769453448,0.0048940837095645204,0.004883881100861703
2.5118864315095766,2.396446565729532,-0.5079354688056348,0.004894950759103268,0.004883890840601304
1.9952623149688788,2.4795390135313973,-0.4841974659045399,0.004895814643124373,0.004883891326166044
1.584893192461111,2.557788735897863,-0.4552339351138945,0.004896654942874883,0.004883883115749701
1.2589254117941662,2.629659999967045,-0.4217230155566127,0.0048974496070283815,0.004883867970790139
1.0,2.6939323370649038,-0.38486302122101845,0.0048981787830593695,0.004883848493061698
0.7943282347242805,2.7499051641518886,-0.34617075280863396,0.004898828048437273,0.004883827491781737
0.6309573444801929,2.7974635922213325,-0.30722576666615725,0.004899390129727686,0.004883807375794188
0.5011872336272715,2.8370142254708512,-0.26944120053559056,0.004899864858109392,0.004883789788141064
0.3981071705534969,2.869337915808099,-0.23391396348083426,0.004900257755812895,0.004883775537991813
0.31622776601683794,2.8954173764313667,-0.2013676826957515,0.00490057797623858,0.004883764749727483
0.2511886431509577,2.916283866358756,-0.17217121645118738,0.004900836260793506,0.004883757101104459
0.1995262314968879,2.932904856680987,-0.14640455345064568,0.004901043313076138,0.004883752049464712
0.1584893192461111,2.946118920069084,-0.12394629130180881,0.004901208758698049,0.004883748998436162
0.12589254117941662,2.956615753234502,-0.10456064319539081,0.004901340710373992,0.004883747399213763
0.1,2.964951107362238,-0.08796516410068383,0.0049014458233759975,0.004883746799722138
0.07943282347242805,2.9715781345571948,-0.07386855886252718,0.004901529603621933,0.004883746858116244
0.0630957344480193,2.976874970019525,-0.061981496933449384,0.0049015967012227225,0.0048837473337126815
0.05011872336272714,2.9811570643561316,-0.05201476197665954,0.004901651031638617,0.004883748065238359
0.039810717055349686,2.9846765519376786,-0.04368009305716535,0.004901695744550621,0.004883748945070616
0.031622776601683784,2.9876193206229074,-0.03670005446138463,0.0049017331710130485,0.004883749896858865
0.02511886431509577,2.990108646567204,-0.030823244178505897,0.004901764859276525,0.004883750860782372
0.019952623149688792,2.992217229879864,-0.025837618628855318,0.004901791721415735,0.0048837517868185135
0.01584893192461111,2.9939842669655823,-0.021577085184693354,0.00490181424699578,0.004883752633833933
0.01258925411794166,2.9954329403048927,-0.017920259975077478,0.004901832724072177,0.004883753371600518
0.01,2.996584643200942,-0.014782759594951404,0.004901847419798342,0.004883753983180528
