freq,Zreal,Zimag,sigma_re,sigma_im
1000000.0,1.0037335590434642,-0.0009185776620678175,0.023371482115120648,0.023371481225735746
794328.2347242822,1.0038484328663901,-0.001060100386297026,0.02337148217882564,0.023371481289237397
630957.344480193,1.0039755878199474,-0.0012062820481651053,0.023371482249354564,0.023371481359541237
501187.2336272725,1.0041063636745067,-0.0013601712377815463,0.023371482321913266,0.023371481431868464
398107.17055349686,1.0042310397847298,-0.0015307335895151527,0.02337148239112238,0.023371481500856977
316227.7660168379,1.0043411661378465,-0.0017336227082281608,0.023371482452312395,0.023371481561852307
251188.6431509582,1.0044318311865956,-0.001990835123525301,0.023371482502785968,0.023371481612165956
199526.2314968879,1.004503409384836,-0.0023296327533439245,0.023371482542794583,0.023371481652048925
158489.3192461114,1.0045625511904164,-0.002781066626289482,0.02337148257609847,0.023371481685249957
125892.5411794166,1.0046223711468873,-0.0033784957236857294,0.023371482610086036,0.023371481719134665
100000.0,1.0047019289985437,-0.00415643193147279,0.0233714826555065,0.023371481764419194
79432.82347242821,1.0048251908763053,-0.005149964285487553,0.023371482725921613,0.023371481834623807
63095.7344480193,1.0050197136207015,-0.006394935358719024,0.02337148283701389,0.023371481945383646
50118.72336272724,1.005315322774325,-0.007928953148424522,0.023371483005905927,0.02337148211377047
39810.71705534969,1.0057430579280675,-0.00979324250526642,0.023371483250648906,0.023371482357783253
31622.776601683792,1.0063346418304906,-0.012035269459987258,0.023371483590032445,0.02337148269615923
25118.864315095827,1.0071226981238792,-0.0147120155753509,0.023371484043855258,0.023371483148644536
19952.623149688792,1.0081419065947237,-0.017893741891360754,0.023371484633783756,0.023371483736851426
15848.93192461114,1.0094312577588405,-0.021668061934350658,0.02337148538492134,0.023371484485824424
12589.254117941662,1.011037565516347,-0.026144132264557265,0.023371486328224365,0.023371485426451347
10000.0,1.0130204313722333,-0.03145674912782092,0.023371487503940726,0.023371486598894906
7943.282347242814,1.015458934996369,-0.03777008157880725,0.023371488966320405,0.023371488057293825
6309.57344480193,1.0184604512005677,-0.045280632053982334,0.02337149078995373,0.023371489876088627
5011.8723362727205,1.0221721388404161,-0.05421873659359917,0.02337149307822047,0.02337149215845419
3981.0717055349687,1.0267957492301185,-0.06484742632379248,0.023371495974441464,0.023371495047429334
3162.2776601683795,1.03260632616956,-0.07745669442829678,0.023371499676327515,0.023371498740335915
2511.8864315095802,1.0399748652496517,-0.09235011312096658,0.023371504454045327,0.02337150350680474
1995.2623149688789,1.0493936540385913,-0.10981943723216138,0.023371510671372445,0.023371509709877367
1584.8931924611124,1.0615002870369756,-0.13010180228128604,0.023371518807577058,0.0233715178278179
1258.9254117941662,1.0770918656567467,-0.15331454399232325,0.0233715294744686,0.02337152847108215
1000.0,1.0971152224254963,-0.17936647870330813,0.023371543418704392,0.023371542384537848
794.3282347242813,1.122614764553057,-0.20785357882417752,0.023371561495421446,0.023371560421026318
630.957344480193,1.1546215481246072,-0.23796089594676223,0.023371584598759494,0.023371583471871293
501.187233627272,1.1939798941473503,-0.2684061923349585,0.023371613541288878,0.023371612346410116
398.10717055349687,1.241130592107119,-0.2974654629845275,0.023371648888642845,0.023371647606924336
316.227766016838,1.2958951929477118,-0.32310990025237585,0.023371690774798552,0.023371689384479203
251.18864315095797,1.357324191888618,-0.34325751391213577,0.0233717387422837,0.023371737219940816
199.5262314968879,1.4236743208296285,-0.356104831339475,0.023371791663533793,0.023371789986237634
158.48931924611125,1.4925582160019972,-0.3604634145393856,0.023371847794490704,0.023371845942623985
125.89254117941664,1.5612585933435246,-0.35600063185581887,0.023371904978423303,0.02337190293853576
100.0,1.6271325280376114,-0.3432994667704941,0.02337196096072523,0.023371958727593463
79.43282347242804,1.6879879664128594,-0.32371540595233134,0.023372013724455996,0.023372011301706828
63.09573444801929,1.7423281343317758,-0.2990869410455558,0.02337206174828954,0.023372059147455104
50.11872336272725,1.7894210664863623,-0.27140060027543733,0.02337210412826517,0.02337210136667183
39.81071705534969,1.8292176411930057,-0.24250303312524274,0.023372140561545008,0.023372137659721248
31.622776601683796,1.8621784684058031,-0.21391216275522654,0.02337217123159291,0.02337216821084744
25.118864315095767,1.8890739454750163,-0.18673639956060062,0.023372196648626907,0.02337219352921072
19.95262314968879,1.9108056174115335,-0.1616815340795274,0.023372217492434885,0.023372214292419608
15.848931924611108,1.9282741323940162,-0.13911227135724258,0.023372234487069852,0.023372231221864066
12.589254117941664,1.9422986984844968,-0.11913624879553097,0.023372248317975113,0.02337224500029877
10.0,1.9535798092122947,-0.1016871070172155,0.023372259588099582,0.023372256228226623
7.943282347242805,1.9626918509584232,-0.08659390939908493,0.023372268802792136,0.023372265408910724
6.30957344480193,1.9700928163414304,-0.07363286189994975,0.023372276372391847,0.023372272950984596
5.011872336272715,1.976141616178359,-0.06256245988275022,0.023372282623677312,0.023372279179868758
3.981071705534969,1.9811170709788815,-0.05314536845954534,0.023372287814351505,0.023372284352201216
3.1622776601683795,1.9852354706883604,-0.0451606764843958,0.023372292147285294,0.023372288670022976
2.5118864315095766,1.9886654101386294,-0.03840965343798564,0.023372295782980248,0.023372292293188327
1.9952623149688788,1.9915396300886528,-0.032717394872701436,0.023372298849740385,0.023372295349492863
1.584893192461111,1.9939640937936063,-0.027932050149007254,0.023372301451582603,0.023372297942549507
1.2589254117941662,1.9960247286825643,-0.023922776513680563,0.02337230367416275,0.02337230015768857
1.0,1.9977923059698597,-0.02057715814663047,0.023372305589080156,0.023372302066243168
0.7943282347242805,1.9993258995702432,-0.017798540832334328,0.023372307256926236,0.02337230372858415
0.6309573444801929,2.000675301987828,-0.015503533428065722,0.023372308729404285,0.023372305196230212
0.5011872336272715,2.0018827002142845,-0.013619793461453556,0.02337231005079001,0.023372306513301657
0.3981071705534969,2.002983840317815,-0.01208412952365643,0.023372311258939144,0.023372307717523272
0.31622776601683794,2.0040088419463893,-0.010840905557663065,0.023372312385987498,0.02337230884092103
0.2511886431509577,2.004982767529545,-0.009840711758937283,0.023372313458836138,0.02337230991030491
0.1995262314968879,2.005926007731124,-0.009039265972679237,0.0233723144994734,0.023372310947589302
0.1584893192461111,2.0068545152627006,-0.00839651761372466,0.02337231552515759,0.023372311969974722
0.12589254117941662,2.0077799032918477,-0.007875956723560737,0.023372316548470082,0.023372312990000397
0.1,2.0087094224330073,-0.007444135607589927,0.023372317577248173,0.02337231401547714
0.07943282347242805,2.009645842539183,-0.007070434929182013,0.02337231861442254,0.0233723150493252
0.0630957344480193,2.010587293008395,-0.006727129880486432,0.02337231965781589,0.023372316089373454
0.05011872336272714,2.011527156671379,-0.006389796448843627,0.0233723207000062,0.023372317128223012
0.039810717055349686,2.0124541612928994,-0.00603807345839848,0.02337232172841344,0.023372318153333668
0.031622776601683784,2.01335285588356,-0.005656754577175736,0.023372322725817216,0.023372319147539906
0.02511886431509577,2.0142046738583255,-0.0052369489233909045,0.02337232367152994,0.023372320090220243
0.019952623149688792,2.0149897381927246,-0.004777189847162789,0.02337232454339876,0.023372320959292835
0.01584893192461111,2.0156894121499427,-0.004283902771035394,0.02337232532064064,0.0233723217340414
0.01258925411794166,2.0162893083789704,-0.0037707414951573754,0.02337232598719122,0.02337232239845326
0.01,2.016782074116914,-0.0032564736025975016,0.02337232653480793,0.023372322944312525
