freq,Zreal,Zimag,sigma_re,sigma_im
1000000.0,1.0072512266420748,0.000638038533070859,0.03619024861481884,0.0019792958383201263
794328.2347242822,1.0071188486672489,0.0007070532045260877,0.03618549356313001,0.0019790888058861074
630957.344480193,1.0069626299506294,0.0007570009881498814,0.036179882145926,0.0019788326545536945
501187.2336272725,1.0067877536313135,0.0007799782661684852,0.036173600543009374,0.00197853078334316
398107.17055349686,1.006601646485923,0.0007699316853551683,0.036166915526199904,0.0019781922422973087
316227.7660168379,1.00641278500858,0.0007231831894732948,0.03616013157339483,0.0019778311244994257
251188.6431509582,1.0062294744525937,0.0006382784043357666,0.03615354701142158,0.0019774650473760353
199526.2314968879,1.0060589243130007,0.0005152988339293598,0.03614742080713933,0.0019771132754706684
158489.3192461114,1.0059067975874472,0.00035488537970043064,0.0361419563767914,0.0019767952463710047
125892.5411794166,1.0057772655023125,0.0001572401526867679,0.03613730355180137,0.001976530187474337
100000.0,1.0056734766568198,-7.865593315454457e-05,0.03613357543056485,0.001976338175396675
79432.82347242821,1.0055982576598825,-0.0003554918840397374,0.03613087354551307,0.0019762425323774004
63095.7344480193,1.0055548118123385,-0.0006775962753273728,0.03612931295996219,0.001976273048598858
50118.72336272724,1.0055471868434736,-0.0010506699743229966,0.03612903906933468,0.0019764693390725415
39810.71705534969,1.0055803504461078,-0.001481361751272573,0.03613023031441178,0.001976883791152142
31622.776601683792,1.0056598361774256,-0.0019769322967844605,0.03613308546202299,0.0019775839633756434
25118.864315095827,1.0057910742348513,-0.0025454982839566284,0.036137799566374654,0.00197865545607143
19952.623149688792,1.0059786574887737,-0.003196743770620988,0.03614453760478965,0.0019802069413236032
15848.93192461114,1.0062258670809314,-0.003943277730542236,0.036153417437106226,0.00198238032784485
12589.254117941662,1.0065347646487417,-0.004802483816106605,0.03616451311841876,0.0019853697171058307
10000.0,1.0069070499565038,-0.005798610178734484,0.03617788570543279,0.001989453251149573
7943.282347242814,1.0073457134304025,-0.006964589295422708,0.03619364261599653,0.001995041293481604
6309.57344480193,1.0078573311530727,-0.008343475678851527,0.036212020066012145,0.0020027452478004622
5011.8723362727205,1.0084547045733399,-0.009989130255080908,0.03623347788871888,0.002013469803104432
3981.0717055349687,1.00915947411663,-0.011966155879577473,0.036258793416651613,0.002028530477886252
3162.2776601683795,1.0100043505996128,-0.01434921063919344,0.03628914163526757,0.002049794716456883
2511.8864315095802,1.0110347081328779,-0.017222000670231705,0.036326152401392336,0.0020798384274106556
1995.2623149688789,1.0123094515998403,-0.020676360937294816,0.036371941604723686,0.0021221004775390183
1584.8931924611124,1.0139012877497153,-0.024811864117932146,0.0364291209076519,0.002181007364017679
1258.9254117941662,1.01589676324733,-0.02973633549281285,0.03650079911501107,0.0022620340622367735
1000.0,1.018396653395968,-0.03556748822655001,0.036590596141344724,0.002371672214698081
794.3282347242813,1.0215174575852006,-0.042435627479325624,0.03670269673377681,0.002517298665765625
630.957344480193,1.0253948499024481,-0.050487021287982416,0.03684197442743743,0.002706971152179613
501.187233627272,1.03018991820965,-0.05988709677901376,0.037014215667160726,0.0029492032360644987
398.10717055349687,1.0360988753532583,-0.07082216638396802,0.037226468655096184,0.0032527626337154995
316.227766016838,1.0433666043627179,-0.08349778345226402,0.03748752992535141,0.003626483046308038
251.18864315095797,1.0523038376842115,-0.09813132433007807,0.03780856146779509,0.004079005386068195
199.5262314968879,1.0633068475770286,-0.11493580865723488,0.038203798072856766,0.004618299909584407
158.48931924611125,1.0768770604520357,-0.1340915025104645,0.03869125196967053,0.005250790757672669
125.89254117941664,1.0936358207362016,-0.1557021365753318,0.03929324326278488,0.005979925973108041
100.0,1.114326621156506,-0.17973374068836806,0.04003648018325478,0.006804099956183085
79.43282347242804,1.139794003942484,-0.20593761264434646,0.04095130135326548,0.007713978250795588
63.09573444801929,1.1709264136810538,-0.23376521276111484,0.04206962312990321,0.00868950919965309
50.11872336272725,1.2085518358370773,-0.26229177422156685,0.043421190849225286,0.00969723273134112
39.81071705534969,1.2532825613641208,-0.2901751374621586,0.045028002399051664,0.010688844354053088
31.622776601683796,1.305320230780016,-0.3156829086250376,0.04689730465972608,0.011602206306232876
25.118864315095767,1.3642534864640588,-0.3368192866874881,0.049014324088727794,0.012365931867098097
19.95262314968879,1.4289039204254848,-0.35156717415382077,0.05133673196098964,0.0129081022857099
15.848931924611108,1.4972920761578126,-0.35822676136227705,0.053793422263362894,0.013168440415848897
12.589254117941664,1.5667870177944332,-0.35578087519901147,0.05628988413036104,0.01311144100389254
10.0,1.6344528001000291,-0.34417122050362514,0.05872064804383921,0.012736303552668669
7.943282347242805,1.6975197044083294,-0.3243684602207742,0.0609862145285558,0.012079468987795943
6.30957344480193,1.753836286150412,-0.29818760318487414,0.06300929386031591,0.011208010853930465
5.011872336272715,1.8021565831712087,-0.26790586097535957,0.06474512424081125,0.010205916181343208
3.981071705534969,1.84218828791241,-0.23581509743230694,0.06618320279919339,0.009157988670870663
3.1622776601683795,1.874422816070553,-0.20384822226082155,0.06734118129707616,0.008136391962144983
2.5118864315095766,1.8998387921040387,-0.1733697051350725,0.06825421430085164,0.007193109537198958
1.9952623149688788,1.919593065423213,-0.145145407348763,0.06896385928521362,0.00635890385969072
1.584893192461111,1.934785283233448,-0.11944176662904582,0.06950961911557572,0.005646988573750593
1.2589254117941662,1.9463260380659206,-0.09617902967227819,0.0699242053188506,0.005058676004968942
1.0,1.9548917836000872,-0.07507931980248715,0.07023191841585477,0.004588784016824986
0.7943282347242805,1.9609321995764484,-0.05578271435553653,0.07044891244480933,0.004229663680380881
0.6309573444801929,1.964701123053287,-0.037929440773731754,0.0705843060954043,0.003973505813651679
0.5011872336272715,1.9662952132982094,-0.02121702157921042,0.07064157167769533,0.0038129439575214905
0.3981071705534969,1.965695626937516,-0.005441759326445443,0.07062003223996437,0.0037401806094730507
0.31622776601683794,1.9628144288838612,0.009470374452491586,0.0705165288194735,0.0037451857519542704
0.2511886431509577,1.9575492319387566,0.023444336345788748,0.07032738330137664,0.0038138865372341546
0.1995262314968879,1.949846929661481,0.03625436945051784,0.07005068794224811,0.003927346668337911
0.1584893192461111,1.9397710631834149,0.04754890107184834,0.06968872543545322,0.0040625496392805854
0.12589254117941662,1.9275593610092332,0.05690807621317525,0.06925003594689343,0.004194796373380591
0.1,1.9136520507688521,0.06393092723777544,0.06875043416195088,0.004301218412440932
0.07943282347242805,1.8986728225440492,0.068335113487233,0.06821232539514245,0.004364534059581019
0.0630957344480193,1.883357208299145,0.07003947569679747,0.06766213269304835,0.004375926945702729
0.05011872336272714,1.86844525951763,0.06919907034549537,0.06712644140821653,0.004336025425193585
0.039810717055349686,1.8545734896166572,0.06617990571438015,0.0666281173781447,0.004253607741472548
0.031622776601683784,1.8422004216938488,0.06148691443872781,0.06618363234566729,0.004142578762539052
0.02511886431509577,1.8315812384967685,0.05567523812011281,0.06580215331666181,0.004018355986265829
0.019952623149688792,1.8227852079681879,0.049273068561557894,0.06548616856919033,0.003894765287507821
0.01584893192461111,1.8157377466099183,0.04273096695213127,0.06523299873444473,0.003782088841447148
0.01258925411794166,1.810268799769382,0.036398777054434256,0.06503653479600255,0.003686386587343628
0.01,1.8061556635315974,0.030522975074321557,0.06488877640546431,0.0036098413458640743
