freq,Zreal,Zimag,sigma_re,sigma_im
1000000.0,1.0013557624844034,0.00038510186255368207,0.004710685671912433,0.0047061935759488294
794328.2347242822,1.0014200651276017,-0.00010708605685616306,0.004710687439597503,0.004706194767488968
630957.344480193,1.0015044215326274,-0.0005814801077956723,0.004710689759301798,0.004706196333582434
501187.2336272725,1.0016114540994474,-0.0010549756698631642,0.004710692703258835,0.004706198322872738
398107.17055349686,1.0017430640926033,-0.0015435109633358353,0.004710696324008298,0.004706200771020162
316227.7660168379,1.0019004414562613,-0.0020635255703781406,0.0047107006546715895,0.0047062037009049955
251188.6431509582,1.002084372975072,-0.002633352786914863,0.00471070571744473,0.00470620712844043
199526.2314968879,1.0022958769294663,-0.0032745583384951944,0.004710711541097281,0.004706211074538798
158489.3192461114,1.0025371166080748,-0.004013079481468378,0.004710718186190152,0.0047062155823833505
125892.5411794166,1.0028124779628913,-0.004880100151777604,0.004710725774886683,0.00470622073792924
100000.0,1.0031296651798358,-0.005912673964340082,0.004710734521370091,0.004706226690991541
79432.82347242821,1.0035006793770072,-0.00715414800316929,0.0047107447592035214,0.004706233674513389
63095.7344480193,1.003942590891942,-0.008654568958465406,0.00471075696323188,0.004706242020487435
50118.72336272724,1.0044780815059249,-0.010471246518792105,0.004710771765466995,0.004706252172282246
39810.71705534969,1.005135812634156,-0.012669640709690323,0.004710789966635057,0.004706264694687385
31622.776601683792,1.0059507691768244,-0.015324854945326597,0.004710812547713825,0.00470628028487712
25118.864315095827,1.0069648334649104,-0.018523800434280063,0.004710840688774348,0.004706299789625641
19952.623149688792,1.0082279408773969,-0.02236808323928895,0.004710875805295092,0.004706324236214547
15848.93192461114,1.0098002229352547,-0.026977515865441865,0.0047109196139089255,0.004706354885908418
12589.254117941662,1.0117555209744165,-0.03249393648799019,0.004710974239402937,0.004706393319023882
10000.0,1.0141865479934282,-0.03908485746351244,0.00471104237264164,0.004706441559407176
7943.282347242814,1.0172118248682214,-0.04694636739887361,0.004711127486056852,0.004706502244276924
6309.57344480193,1.0209843874423459,-0.056304687636088986,0.004711234111486736,0.004706578844185901
5011.8723362727205,1.0257022157908164,-0.06741577311314845,0.004711368186475377,0.004706675938529064
3981.0717055349687,1.031620389896701,-0.08056226403558163,0.004711537480492077,0.0047067995548703565
3162.2776601683795,1.0390650537143309,-0.0960467981124051,0.0047117521204734295,0.004706957583907478
2511.8864315095802,1.0484491890009529,-0.11418009671843946,0.004712025241187849,0.004707160282268564
1995.2623149688789,1.0602896634239352,-0.13526135743940298,0.004712373782068315,0.004707420865753013
1584.8931924611124,1.0752236354371283,-0.1595475479884257,0.004712819425969026,0.004707756166214484
1258.9254117941662,1.0940198013185451,-0.18720779863523695,0.00471338961046457,0.004708187264408361
1000.0,1.1175761126891224,-0.2182603369367025,0.004714118422770637,0.00470873991094484
794.3282347242813,1.1468913332700101,-0.25249381559963147,0.0047150470113462755,0.00470944441659035
630.957344480193,1.1829955668343732,-0.2893836494904712,0.004716222941298131,0.004710334575288841
501.187233627272,1.2268287076402256,-0.3280263807178634,0.004717697778072472,0.004711445170447171
398.10717055349687,1.2790696286533927,-0.36712666181838616,0.00471952226853611,0.004712807831677128
316.227766016838,1.3399432137296174,-0.4050737821794147,0.004721739007265085,0.004714445549328283
251.18864315095797,1.4090602285521692,-0.44012862532513547,0.004724373570974115,0.004716366980525158
199.5262314968879,1.4853617460046094,-0.4707038548149868,0.004727426621096711,0.004718562515938953
158.48931924611125,1.5672270154111945,-0.49566888807477744,0.004730870656692798,0.004721004355565
125.89254117941664,1.652750991007517,-0.5145725049179661,0.004734654637432328,0.004723651918626555
100.0,1.7401204164853263,-0.5276832554659149,0.004738716758880931,0.0047264617064245685
79.43282347242804,1.8279599873098316,-0.5358133362923782,0.004743001382097496,0.00472939831291911
63.09573444801929,1.9155244651766241,-0.5399824785341364,0.004747473339578303,0.004732442271740961
50.11872336272725,2.002675775837983,-0.541039910263339,0.004752123522049079,0.00473559152134163
39.81071705534969,2.089663705883946,-0.5393679375328256,0.004756963096627235,0.004738855648610852
31.622776601683796,2.1767873411964085,-0.5347542431699512,0.004762007786270877,0.004742244484175033
25.118864315095767,2.264042276420448,-0.5264673015176909,0.004767256866436159,0.0047457543965524545
19.95262314968879,2.3508610653479014,-0.5135141822848237,0.004772673512667771,0.004749356612872225
15.848931924611108,2.436032992743307,-0.49500697400148963,0.004778173659971629,0.004752991883006678
12.589254117941664,2.5178395311651824,-0.470522715043703,0.004783628864222918,0.004756574336438009
10.0,2.594367679792131,-0.4403339798831628,0.004788884130254354,0.0047600042780672645
7.943282347242805,2.66389318742797,-0.4054319748064452,0.004793785492855279,0.004763185978431841
6.30957344480193,2.7252014835334553,-0.3673480756059709,0.004798207761563952,0.0047660443772218055
5.011872336272715,2.7777527632864993,-0.3278564170895215,0.004802073249594649,0.00476853547520353
3.981071705534969,2.8216714619066563,-0.2886679657723866,0.004805357045647301,0.004770648334922372
3.1622776601683795,2.857604449912727,-0.25120230116016706,0.004808080167586743,0.004772399977072965
2.5118864315095766,2.886520625752146,-0.2164736764911071,0.004810295659349907,0.004773826409692682
1.9952623149688788,2.9095178838979434,-0.1850819148083144,0.004812073314678606,0.004774973174257124
1.584893192461111,2.9276770789054214,-0.15727256366300613,0.004813487046828219,0.004775887703255377
1.2589254117941662,2.9419739139148264,-0.1330264821922789,0.004814606528362775,0.004776614351049887
1.0,2.953240088611525,-0.11214910823129531,0.00481549285502823,0.00477719187550343
0.7943282347242805,2.962157380200587,-0.0943438990005255,0.004816197104169015,0.004777652653615222
0.6309573444801929,2.9692692641261487,-0.07926587264614568,0.004816760572148638,0.004778022886728399
0.5011872336272715,2.9749992970655064,-0.06655758657507005,0.00481721577824082,0.004778323246053571
0.3981071705534969,2.979670316776431,-0.055872132216474094,0.004817587696680928,0.004778569640390164
0.31622776601683794,2.983522069458134,-0.04688753440416841,0.004817894972778172,0.004778773967076938
0.2511886431509577,2.9867269281681206,-0.03931573434252418,0.004818151057878941,0.004778944814615254
0.1995262314968879,2.989404205017439,-0.0329079678836562,0.004818365277877769,0.004779088131539417
0.1584893192461111,2.9916335870633497,-0.027457263533689068,0.004818543861348392,0.004779207879732716
0.12589254117941662,2.9934678169576054,-0.022798161884810167,0.00481869092657543,0.004779306670445141
0.1,2.994944220533495,-0.018803628166289513,0.004818809388737889,0.004779386354923634
0.07943282347242805,2.9960943194449747,-0.015379392968486876,0.004818901721332457,0.0047794485231574275
0.0630957344480193,2.9969507253002603,-0.012456413990585738,0.004818970503844365,0.004779494863045557
0.05011872336272714,2.9975508203804155,-0.009982573109427875,0.004819018713466294,0.004779527350018885
0.039810717055349686,2.9979372735234193,-0.007914891516193769,0.004819049763292164,0.004779548267604622
0.031622776601683784,2.9981560177593503,-0.006213417391640965,0.004819067336731006,0.004779560091690657
0.02511886431509577,2.998252735796769,-0.004837385514526345,0.004819075102212535,0.004779565294725611
0.019952623149688792,2.9982690449193905,-0.0037439548534922065,0.004819076404207539,0.004779566134463924
0.01584893192461111,2.9982394260395773,-0.002888984846076313,0.004819074014734472,0.004779564484051941
0.01258925411794166,2.998189566105056,-0.0022290797603692816,0.004819069999158106,0.004779561739864538
0.01,2.9981362970291427,-0.001724029765726272,0.004819065710858878,0.004779558816991176
