freq,Zreal,Zimag,sigma_re,sigma_im
1000000.0,1.0020928062459686,-0.0024766674347870346,0.0023570049635624553,0.002306154366838927
794328.2347242822,1.002464991921875,-0.0029351200921208546,0.0023570480248276283,0.002306160308575052
630957.344480193,1.0028970148481975,-0.0033947978339209967,0.002357098028589156,0.0023061672101608354
501187.2336272725,1.0033774600573453,-0.003859077126862407,0.0023571536626010524,0.002306174897119528
398107.17055349686,1.003895649174569,-0.004340268608952669,0.002357213699540765,0.0023061832119968904
316227.7660168379,1.0044461990921632,-0.004858264119788885,0.0023572775252289515,0.0023061920873537704
251188.6431509582,1.0050317612121378,-0.005437175132536378,0.0023573454575861593,0.00230620158939835
199526.2314968879,1.0056634058996765,-0.0061015249354436744,0.002357418793757329,0.002306211924332353
158489.3192461114,1.0063591383054145,-0.006873276068954523,0.0023574996410679824,0.002306223415492832
125892.5411794166,1.007141520304258,-0.007770472991951603,0.0023575906444180386,0.0023062364669594643
100000.0,1.0080353381185565,-0.008806988834430804,0.002357694718889771,0.0023062515280445357
79432.82347242821,1.0090659076661304,-0.009993531134469104,0.0023578148564654257,0.0023062690685056782
63095.7344480193,1.0102581754404072,-0.011338804913440062,0.002357954025294206,0.0023062895665347314
50118.72336272724,1.011636422520798,-0.01285048086040024,0.0023581151393701023,0.0023063135064387134
39810.71705534969,1.0132242144753383,-0.014536351925798881,0.0023583010574023157,0.0023063413812914463
31622.776601683792,1.015044284595008,-0.016404803468149376,0.0023585145742325447,0.002306373694538854
25118.864315095827,1.0171182400758165,-0.01846585683114876,0.00235875839210443,0.002306410961057393
19952.623149688792,1.0194662371275143,-0.020732090026892646,0.0023590350883957987,0.002306453709481553
15848.93192461114,1.022106969617014,-0.02322062161523416,0.002359347120831194,0.0023065024950968075
12589.254117941662,1.025058375932738,-0.02595534253984464,0.002359696918467201,0.0023065579303474656
10000.0,1.0283393630271132,-0.028969255319622467,0.002360087095894457,0.002306620739711726
7943.282347242814,1.0319726049448223,-0.03230634370230621,0.002360520800791213,0.002306691840566966
6309.57344480193,1.0359881700118518,-0.0360224431859622,0.0023610021700376303,0.002306772446006014
5011.8723362727205,1.0404274595562095,-0.04018473329559055,0.002361536837556826,0.0023068641802919043
3981.0717055349687,1.045346782731919,-0.04486976036077259,0.0023621324174678865,0.0023069691943727088
3162.2776601683795,1.0508198920993754,-0.05016023675999147,0.0023627988846551626,0.002307090268420216
2511.8864315095802,1.056938966267777,-0.056141173601410826,0.0023635487923186565,0.0023072308910043996
1995.2623149688789,1.0638138201885603,-0.06289612391337296,0.002364397299541492,0.0023073953102993173
1584.8931924611124,1.0715695064009108,-0.07050440101781527,0.002365362026689155,0.002307588561603096
1258.9254117941662,1.0803428956080636,-0.07904006695890242,0.0023664628078462167,0.0023078164871805583
1000.0,1.0902792465865951,-0.08857324047587277,0.0023677214633042384,0.002308085777930039
794.3282347242813,1.1015301388886716,-0.09917383721011383,0.0023691617665728133,0.0023084040790011854
630.957344480193,1.1142543757186607,-0.11091722307350714,0.0023708098227964948,0.0023087802086307063
501.187233627272,1.1286234870556502,-0.12389045768460519,0.002372695100076917,0.002309224534747908
398.10717055349687,1.1448331991063305,-0.13819687699291114,0.002374852352169793,0.002309749529684628
316.227766016838,1.1631216206813024,-0.15395576528298133,0.0023773246289697444,0.002310370470327902
251.18864315095797,1.183793839432238,-0.17129282748886218,0.002380167471588634,0.002311106156270638
199.5262314968879,1.2072509177103712,-0.19031612989754976,0.0023834541924010453,0.0023119793627059304
158.48931924611125,1.2340185046153587,-0.21107127292756034,0.0023872817656049026,0.00231301650414924
125.89254117941664,1.264765753478033,-0.23346944905285377,0.0023917761552885845,0.00231424565341689
100.0,1.3002982876575,-0.25718432878783126,0.002397094685610154,0.0023156917098235753
79.43282347242804,1.341500053088622,-0.2815217341585078,0.0024034211853112704,0.0023173674254466157
63.09573444801929,1.3891920543540666,-0.3052843435436492,0.0024109474539319646,0.0023192598275703384
50.11872336272725,1.4438816968065096,-0.3266843803730607,0.002419833604322596,0.002321314240927893
39.81071705534969,1.5054108823827135,-0.3433917661968432,0.0024301432789952952,0.0023234229009939495
31.622776601683796,1.5725842444136853,-0.3528152827241359,0.002441761672701172,0.0023254297461498406
25.118864315095767,1.6429509746090953,-0.3526565317928659,0.0024543252477270097,0.0023271612736107217
19.95262314968879,1.7129545181341261,-0.3416276052256802,0.002467211399940819,0.0023284794805508045
15.848931924611108,1.778559357415383,-0.32004142587850776,0.0024796299605160804,0.002329331911943931
12.589254117941664,1.8361993294596313,-0.28992773440728903,0.002490808272385791,0.0023297662312168725
10.0,1.8836365557455754,-0.2545303461200749,0.0025001922612502884,0.002329898481937074
7.943282347242805,1.9203226700041733,-0.21740568986518885,0.0025075618171593607,0.002329858624111152
6.30957344480193,1.9471557682837348,-0.18156821451900357,0.0025130131259364754,0.002329748523344666
5.011872336272715,1.9658721407494453,-0.14902769626769674,0.0025168452988586377,0.002329628528318333
3.981071705534969,1.9784261996752428,-0.12076709472546272,0.002519428851587557,0.0023295251369160825
3.1622776601683795,1.9865798399015198,-0.09698713716092579,0.0025211118534372652,0.0023294449410081273
2.5118864315095766,1.9917301851607405,-0.07741317203390721,0.0025221763793337893,0.002329385752784235
1.9952623149688788,1.9948986568299325,-0.06154486435966136,0.0025228312369272826,0.0023293428893939815
1.584893192461111,1.9967938450677198,-0.04881743645681666,0.0025232223630885643,0.0023293118901344403
1.2589254117941662,1.9978912523142056,-0.03868876443444586,0.0025234481373061185,0.002329289338517788
1.0,1.9985037527694003,-0.030677651196564154,0.002523573481300463,0.002329272891147963
0.7943282347242805,1.9988351720261632,-0.024374446820393674,0.0025236407747500963,0.002329261057289532
0.6309573444801929,1.9990176995007056,-0.01943799137480065,0.0025236775452722768,0.0023292529449041063
0.5011872336272715,1.999136517391693,-0.015587041637675488,0.0025237015523387678,0.0023292480389481792
0.3981071705534969,1.9992452886358862,-0.012590550944890356,0.0025237239886886456,0.0023292460232784908
0.31622776601683794,1.999375598898037,-0.010258903970154299,0.0025237514310593417,0.0023292466441864226
0.2511886431509577,1.9995427341205296,-0.008436895620915751,0.002523787032797785,0.0023292496136459975
0.1995262314968879,1.9997495006574497,-0.006998499703363499,0.0025238313138683335,0.002329254551983605
0.1584893192461111,1.9999892098856566,-0.00584307981641956,0.00252388278263612,0.0023292609691335894
0.12589254117941662,2.0002484628292354,-0.0048925308873973535,0.00252393852202921,0.0023292682808695097
0.1,2.0005099853932227,-0.004088832528538972,0.002523994791563035,0.0023292758526443622
0.07943282347242805,2.000755484043579,-0.0033915942563820887,0.002524047637239057,0.002329283060347458
0.0630957344480193,2.000968318667984,-0.00277533562144765,0.0025240934645250346,0.002329289355512496
0.05011872336272714,2.0011357238681358,-0.0022264292381774264,0.002524129515706854,0.002329294322907178
0.039810717055349686,2.001250338124736,-0.0017397972130991975,0.0025241541990630293,0.002329297720890192
0.031622776601683784,2.001310887936941,-0.0013155597461062974,0.0025241672363160213,0.0023292994985642753
0.02511886431509577,2.001321978363589,-0.0009558832631810211,0.0025241696174823722,0.002329299787427487
0.019952623149688792,2.0012930361437293,-0.0006622881747749643,0.002524163372891637,0.002329298868302993
0.01584893192461111,2.0012365438285378,-0.0004336766143752809,0.0025241511922304383,0.002329297117207848
0.01258925411794166,2.0011658235564282,-0.00026532550036900454,0.0025241359464911904,0.0023292949375801615
0.01,2.001092788035441,-0.00014899588086202174,0.002524120202964161,0.00232929269132333
