freq,Zreal,Zimag,sigma_re,sigma_im
1000000.0,0.9996533036944343,0.0010827629904214442,0.010036191191217105,0.010015929946727778
794328.2347242822,0.9997090196148478,0.0006571850329192295,0.010036193914106643,0.010015930399216244
630957.344480193,0.9997780355145885,0.0002880363765202776,0.010036197287479513,0.010015930971581065
501187.2336272725,0.9998610199821624,-3.936917363402538e-05,0.01003620134409104,0.010015931666879809
398107.17055349686,0.999958775894457,-0.00033765113810497246,0.010036206123326322,0.010015932490353633
316227.7660168379,1.000072684992829,-0.0006178479699329555,0.010036211692939032,0.010015933452843843
251188.6431509582,1.0002050104989118,-0.0008895441668988133,0.010036218163869605,0.01001593457313327
199526.2314968879,1.0003589527151118,-0.001160795220811476,0.010036225693005092,0.010015935878276764
158489.3192461114,1.0005384403277398,-0.001437998538424582,0.01003623447302913,0.010015937401746043
125892.5411794166,1.0007477084232639,-0.001725866915648539,0.010036244711845234,0.010015939179804364
100000.0,1.0009907548439068,-0.002027623267791351,0.010036256606039103,0.01001594124688116
79432.82347242821,1.001270785004526,-0.00234535802893687,0.010036270313748112,0.010015943630871889
63095.7344480193,1.00158975846324,-0.002680717644574259,0.01003628593246474,0.010015946349342431
50118.72336272724,1.00194814054827,-0.0030357563877501685,0.010036303486822178,0.010015949407519657
39810.71705534969,1.0023449366197679,-0.003413838858557362,0.010036322930170425,0.01001595279873421
31622.776601683792,1.0027780418622652,-0.0038207362913846993,0.010036344161587723,0.01001595650764393
25118.864315095827,1.0032448780311582,-0.00426541519574267,0.01003636705697856,0.010015960515969747
19952.623149688792,1.0037432221476423,-0.004760677435534178,0.010036391509661664,0.010015964809994705
15848.93192461114,1.0042720810382626,-0.005323521602768706,0.01003641747333249,0.010015969388623397
12589.254117941662,1.0048324511669835,-0.005975290104118854,0.010036444999548564,0.01001597427072082
10000.0,1.0054278375496932,-0.006741729281007214,0.010036474263539949,0.010015979500782047
7943.282347242814,1.0060644843985005,-0.0076531622281380525,0.010036505575998588,0.01001598515271739
6309.57344480193,1.006751372960842,-0.008744983926451805,0.010036539383552165,0.010015991332500775
5011.8723362727205,1.0075001396094998,-0.010058646855168912,0.010036576265452892,0.010015998181393584
3981.0717055349687,1.008325133020947,-0.01164322866420776,0.010036616937304165,0.010016005882219278
3162.2776601683795,1.0092438490591957,-0.013557577239620006,0.010036662273711484,0.010016014671625337
2511.8864315095802,1.0102779587908162,-0.015872944067914393,0.010036713360733944,0.010016024861480389
1995.2623149688789,1.0114550979085897,-0.018675964291041222,0.01003677158687953,0.010016036872709487
1584.8931924611124,1.0128115436343663,-0.022071827078467037,0.010036838779588914,0.010016051285256813
1258.9254117941662,1.0143958980974013,-0.026187490394493043,0.010036917394246735,0.010016068908785635
1000.0,1.0162739477741347,-0.031174799443168495,0.010037010765993767,0.010016090880401337
794.3282347242813,1.0185349840126126,-0.037213323367954694,0.010037123441587944,0.010016118798135512
630.957344480193,1.0213000360383249,-0.04451257619865172,0.010037261619014842,0.010016154901819424
501.187233627272,1.0247326444258704,-0.05331297589880469,0.0100374337351766,0.010016202315338488
398.10717055349687,1.0290529112990159,-0.06388435895870319,0.010037651254055872,0.01001626536402383
316.227766016838,1.0345554634302039,-0.07652004554540912,0.010037929714041266,0.010016349974077422
251.18864315095797,1.0416314132709452,-0.09152334046336025,0.010038290083763337,0.01001646414037962
199.5262314968879,1.0507930119842797,-0.10918207313326937,0.010038760433145921,0.010016618403833895
158.48931924611125,1.062696951728455,-0.12972581122533128,0.010039377822937763,0.010016826196746074
125.89254117941664,1.078157855157894,-0.15326088927796727,0.010040190120803432,0.01001710379016085
100.0,1.098137996193706,-0.17968222010739635,0.010041257156539219,0.010017469438575588
79.43282347242804,1.1236953410167811,-0.2085697572390028,0.010042650290965212,0.01001794125808792
63.09573444801929,1.155874157016345,-0.23909071197407827,0.010044449234856874,0.010018533551364745
50.11872336272725,1.19553434500676,-0.26994115185252177,0.01004673497637038,0.010019251837902234
39.81071705534969,1.2431359686358614,-0.2993651864575481,0.010049578059547227,0.010020087703147327
31.622776601683796,1.2985183034563532,-0.3252823864680873,0.010053022355905678,0.010021015409115616
25.118864315095767,1.360732397453623,-0.34553375136950926,0.010057066252826314,0.010021992471513422
19.95262314968879,1.4279967539408829,-0.3582223260194304,0.010061646018536841,0.010022965558182814
15.848931924611108,1.4978343921658634,-0.3620776561516188,0.010066628833465121,0.01002388092135376
12.589254117941664,1.5673996510512298,-0.35673187384753535,0.010071822625391812,0.010024695923698503
10.0,1.6339209693687204,-0.34279834328546416,0.010077003963341278,0.010025386944467484
7.943282347242805,1.6951209897116093,-0.32171448148304677,0.010081956123127003,0.010025950601692778
6.30957344480193,1.7494833879658984,-0.2954120258310376,0.010086503843099382,0.010026398898171649
5.011872336272715,1.7963130573799608,-0.26593903503041283,0.010090533682675023,0.010026751688074355
3.981071705534969,1.835622403669516,-0.2351468067974422,0.010093996651325526,0.010027029973413386
3.1622776601683795,1.8679220416596474,-0.20450019454007018,0.010096897007271025,0.010027251796081604
2.5118864315095766,1.8939944919370064,-0.17501422205690587,0.010099274396441205,0.010027430700930436
1.9952623149688788,1.9147044478587103,-0.14728547785398816,0.010101185921926627,0.010027575869703605
1.584893192461111,1.9308685755812334,-0.12157585612091731,0.010102692124224096,0.010027692982205936
1.2589254117941662,1.943183826639213,-0.09791211579717707,0.01010384808433182,0.010027785186380204
1.0,1.9522006195620127,-0.07617816943333375,0.010104699033835766,0.010027853898980279
0.7943282347242805,1.9583247154589416,-0.056190134776838464,0.010105279160132558,0.010027899377659822
0.6309573444801929,1.9618348949221245,-0.037752961181187414,0.010105612370388617,0.010027921106580675
0.5011872336272715,1.9629085444223855,-0.0207014336457899,0.010105714168070084,0.0100279180677567
0.3981071705534969,1.9616515399615229,-0.004928866811907546,0.010105594191109088,0.010027888969291633
0.31622776601683794,1.9581313926237205,0.009594620144579197,0.010105259216248923,0.01002783249009002
0.2511886431509577,1.9524132770526612,0.02281443828068324,0.010104716505307742,0.010027747583701738
0.1995262314968879,1.9445974522686593,0.03459634240725701,0.010103977266778892,0.010027633858872327
0.1584893192461111,1.9348542284381567,0.044745910034202044,0.010103059790095533,0.010027492016976133
0.12589254117941662,1.9234500616221206,0.05304311697678745,0.010101991594385299,0.010027324277380133
0.1,1.9107570986652354,0.05928852902802055,0.010100809874856422,0.010027134672642442
0.07943282347242805,1.8972402006787408,0.06335261408879758,0.010099559774484701,0.01002692907352072
0.0630957344480193,1.8834209293129396,0.06521601285242239,0.0100982905901027,0.010026714843280842
0.05011872336272714,1.8698257052169274,0.06498927613942324,0.010097050748266936,0.010026500132497779
0.039810717055349686,1.8569313831172092,0.0629067104562911,0.010095882865082232,0.01002629296520808
0.031622776601683784,1.845121932243328,0.059297888168200495,0.010094820114033728,0.01002610035160959
0.02511886431509577,1.8346644400966956,0.05454707706957728,0.010093884517859081,0.010025927637461097
0.019952623149688792,1.8257048909492222,0.04905207089492514,0.010093087043533469,0.01002577818925296
0.01584893192461111,1.818278438173075,0.0431903007175546,0.0100924289030016,0.010025653391472548
0.01258925411794166,1.812327290447451,0.037294718455173285,0.010091903389163163,0.010025552861531428
0.01,1.8077213454916317,0.031637986840557714,0.010091497814804718,0.010025474787196047
