freq,Zreal,Zimag,sigma_re,sigma_im
1000000.0,1.001465598677455,0.0002820264195797648,0.013967964809453235,0.0010564902338691196
794328.2347242822,1.00146695397028,0.00019927829601345062,0.013967983604571623,0.0010564865918364454
630957.344480193,1.0014691185595792,0.00012691069868306463,0.013968013622982627,0.0010564844371626124
501187.2336272725,1.0014729668252165,6.1001287491904084e-05,0.013968066990543164,0.0010564833145654045
398107.17055349686,1.0014799334731093,-1.608446639012764e-06,0.013968163603688485,0.0010564829944434394
316227.7660168379,1.001491971756539,-6.308246585620165e-05,0.013968330550050633,0.0010564833935776598
251188.6431509582,1.0015112852118842,-0.00012434866093988795,0.013968598388189257,0.0010564845010860046
199526.2314968879,1.0015398337452623,-0.00018492496326903072,0.013968994298033525,0.0010564862993411516
158489.3192461114,1.0015786960795499,-0.00024328579111904285,0.013969533239332504,0.0010564887003627838
125892.5411794166,1.0016274409033679,-0.000295868089223793,0.013970209230768662,0.001056491437699772
100000.0,1.0016836973869332,-0.000342306754678681,0.013970989393859627,0.0010564943146562328
79432.82347242821,1.0017431052389025,-0.0003798965659252084,0.013971813260294856,0.0010564969729891167
63095.7344480193,1.0017997568763672,-0.0004094863691418127,0.013972598903882518,0.0010564992763579192
50118.72336272724,1.0018471250912646,-0.0004379520492757765,0.013973255805378951,0.0010565016227259165
39810.71705534969,1.0018793223448739,-0.0004678834153492557,0.013973702316380898,0.0010565041985919998
31622.776601683792,1.0018924039652002,-0.000512112612969677,0.013973883732121904,0.0010565082046340058
25118.864315095827,1.001885357974503,-0.0005831679923839541,0.013973786018458355,0.0010565153085078992
19952.623149688792,1.0018604606930643,-0.0006950201480325465,0.013973440743409657,0.0010565283235903305
15848.93192461114,1.001822828899529,-0.0008615336272674006,0.013972918866489846,0.0010565519401287012
12589.254117941662,1.0017792290607013,-0.0010958623355599854,0.013972314225055018,0.0010565937991790543
10000.0,1.0017364365800092,-0.0014106132995477365,0.013971720780340924,0.0010566658863538111
7943.282347242814,1.001699590104842,-0.0018190678372785904,0.01397120979504089,0.0010567865163939399
6309.57344480193,1.001671004530627,-0.0023373729065560124,0.01397081337213768,0.0010569835755959462
5011.8723362727205,1.0016497905506743,-0.002987433399668534,0.013970519178913022,0.0010573001971496405
3981.0717055349687,1.0016324246893809,-0.003800121592934136,0.013970278352229151,0.0010578046177239086
3162.2776601683795,1.0016141893235972,-0.004818436069473788,0.013970025468786031,0.0010586066994239468
2511.8864315095802,1.0015912186335048,-0.0061003680650050796,0.013969706918429917,0.0010598846721166164
1995.2623149688789,1.0015627851076965,-0.007721436713072286,0.013969312613529107,0.0010619272218350322
1584.8931924611124,1.001533465286469,-0.009777097134739135,0.013968906023718357,0.0010651982144638714
1258.9254117941662,1.001514945791793,-0.012385468347262575,0.013968649222300553,0.001070434091243311
1000.0,1.0015274780596573,-0.01569102938039175,0.013968823061209437,0.0010787870391882665
794.3282347242813,1.0016013598113513,-0.019870044875324105,0.013969847717575607,0.0010920293425383538
630.957344480193,1.0017792965292325,-0.025138457178527827,0.013972315445809763,0.0011128327347827017
501.187233627272,1.0021210513220815,-0.031762782311875154,0.01397705506828935,0.0011451244489275034
398.10717055349687,1.0027124126246911,-0.04007414584948661,0.013985256352389251,0.0011944895933547095
316.227766016838,1.0036812249492977,-0.050484952656540225,0.013998692352352373,0.001268534127977098
251.18864315095797,1.0052241268475637,-0.06350667746791136,0.014020090271720305,0.0013770672691442013
199.5262314968879,1.0076488288599164,-0.0797655535301468,0.014053717911239064,0.0015319664577617626
158.48931924611125,1.0114381935708334,-0.10000979568738687,0.014106272648216556,0.0017466906926244723
125.89254117941664,1.0173434099183944,-0.12509613622926907,0.014188174308837868,0.002035509380785368
100.0,1.0265120282410685,-0.15593308208538037,0.01431534240695183,0.0024123979149367107
79.43282347242804,1.0406471877625942,-0.1933420732388183,0.014511407859372709,0.0028891446897832108
63.09573444801929,1.0621663442879659,-0.23777836363788665,0.01480992123780547,0.0034717388896898832
50.11872336272725,1.0942658020398388,-0.2888470612661858,0.015255259622098958,0.00415396065801061
39.81071705534969,1.1406957161321254,-0.34460157535900504,0.015899521327629926,0.004907882093472336
31.622776601683796,1.2049609972332203,-0.4007976777466484,0.016791450466839313,0.005673658490570243
25.118864315095767,1.288768113927136,-0.45062494591821706,0.017954870511357336,0.0063558841318875235
19.95262314968879,1.3900905266909467,-0.48570598601381915,0.01936177805197453,0.0068375350434980164
15.848931924611108,1.5021006509394783,-0.49872205338748227,0.02091743508720394,0.007016510094032703
12.589254117941664,1.6143982173053553,-0.4866059617288473,0.02247737543711739,0.006850052691602615
10.0,1.716457391190602,-0.4520867622617584,0.023895297815921392,0.006376242440609817
7.943282347242805,1.80115681974098,-0.40231732457217795,0.025072162411455254,0.005694908680716837
6.30957344480193,1.866177230798169,-0.3457218930008336,0.025975660746658875,0.004923779948992665
5.011872336272715,1.9130507878664464,-0.2892859863193401,0.02662702924891409,0.00416077424231467
3.981071705534969,1.945241367445584,-0.23744759650859107,0.027074373109526016,0.003468533974855248
3.1622776601683795,1.9665458284613457,-0.19230157791724925,0.027370441527879135,0.0028771683652492218
2.5118864315095766,1.9802440234074266,-0.1543312795821595,0.027560807973259775,0.0023942315398733254
1.9952623149688788,1.9888415423656696,-0.12312094240609833,0.02768029026393683,0.0020143085486190137
1.584893192461111,1.9941199611686322,-0.0978553622619114,0.02775364634792867,0.0017255573016378826
1.2589254117941662,1.9972913439086735,-0.07761123310934494,0.027797720287562548,0.0015134331143749262
1.0,1.9991570211957281,-0.061503785460694516,0.02782364834461451,0.0013627399082259566
0.7943282347242805,2.0002358634652584,-0.04874847610107454,0.027838641434661183,0.0012589868763991734
0.6309573444801929,2.000857517078329,-0.0386782275144148,0.027847280785916386,0.001189434902082281
0.5011872336272715,2.001226600574401,-0.030739828933516403,0.027852410071856768,0.0011437504404481723
0.3981071705534969,2.001465724930218,-0.024482021990983774,0.027855733272284428,0.0011141471032337978
0.31622776601683794,2.0016440766171746,-0.019541385692557776,0.027858211901754613,0.0010951043545444495
0.2511886431509577,2.0017965489675222,-0.015628685032016663,0.027860330886259808,0.0010828836946214784
0.1995262314968879,2.0019368176956656,-0.012516585397343514,0.027862280279974113,0.0010750329490271534
0.1584893192461111,2.0020665089117675,-0.010028809546193644,0.027864082677851326,0.00106997578507509
0.12589254117941662,2.002181700147459,-0.008030517894214752,0.027865683563916433,0.0010667094360614527
0.1,2.0022773957145774,-0.006419694029496393,0.027867013507862443,0.0010645974377771511
0.07943282347242805,2.002350292575982,-0.005119457206521371,0.027868026603948968,0.001063233935936163
0.0630957344480193,2.0024000502101926,-0.00407137987491112,0.02786871811899906,0.0010623576280892116
0.05011872336272714,2.0024293220624507,-0.0032299769364889847,0.027869124929369028,0.0010617983595514185
0.039810717055349686,2.0024429086271596,-0.002558516199685762,0.027869313750649796,0.001061444345267838
0.031622776601683784,2.002446472456035,-0.002026185716664835,0.027869363279163874,0.00106122196243757
0.02511886431509577,2.0024452591074757,-0.0016064864095423686,0.027869346416049566,0.0010610829961180232
0.019952623149688792,2.0024431770374513,-0.0012765576453380495,0.027869317479824577,0.0010609962797178
0.01584893192461111,2.0024424222169226,-0.0010170448668520191,0.02786930698941141,0.0010609420159313546
0.01258925411794166,2.002443636782276,-0.0008121195312500762,0.02786932386900588,0.0010609078514302597
0.01,2.002446424844554,-0.0006493536237889983,0.02786936261663842,0.0010608861814795294
