freq,Zreal,Zimag,sigma_re,sigma_im
1000000.0,0.9979542097042348,0.0008415324142733918,0.004683776589307679,0.0046798720746342275
794328.2347242822,0.998044417668591,0.00037178735406242667,0.004683783066056841,0.0046798778483449375
630957.344480193,0.9981653788446938,-4.406681381253152e-05,0.0046837917523594634,0.004679885594300034
501187.2336272725,0.9983199775663698,-0.0004132800581472203,0.004683802856050032,0.004679895497330817
398107.17055349686,0.9985074057481907,-0.0007375678799602017,0.004683816320079506,0.004679907506155802
316227.7660168379,0.9987220134760171,-0.0010178496755272424,0.004683831739691153,0.0046799212594668535
251188.6431509582,0.99895292545646,-0.0012558445419037494,0.004683848334422777,0.004679936060962313
199526.2314968879,0.999184643214891,-0.0014572800667080454,0.004683864990863234,0.004679950917517593
158489.3192461114,0.9993986479107583,-0.0016341765138943786,0.004683880377466383,0.0046799646416278455
125892.5411794166,0.9995758184789204,-0.00180697075368766,0.004683893118350587,0.004679976006459229
100000.0,0.9996993070510138,-0.0020060007142816065,0.004683902000457047,0.004679983930662469
79432.82347242821,0.9997573886746626,-0.0022708003403075563,0.004683906179219576,0.004679987661887318
63095.7344480193,0.9997457538613037,-0.0026489691706478363,0.004683905344212782,0.004679986924721126
50118.72336272724,0.9996687708344216,-0.0031952831805990207,0.004683899810388832,0.004679982002477593
39810.71705534969,0.9995394231664222,-0.003967961486213534,0.004683890513517602,0.004679973733757348
31622.776601683792,0.9993779066524567,-0.005030533722745006,0.004683878908832684,0.004679963423144095
25118.864315095827,0.9992091868946789,-0.006451442166659448,0.00468386679493087,0.004679952685635956
19952.623149688792,0.9990600924428241,-0.008305494476181487,0.00468385610477474,0.004679943262368895
15848.93192461114,0.998956670231517,-0.010679129077352781,0.004683848716449081,0.004679936855071855
12589.254117941662,0.9989225266913816,-0.01367710753436009,0.004683846335810138,0.0046799350263809734
10000.0,0.9989787559717339,-0.017431385320462518,0.004683850494325729,0.004679939205823066
7943.282347242814,0.9991459231407981,-0.0221118058130401,0.004683862696000156,0.004679950833527634
6309.57344480193,0.9994485712560632,-0.027938617785308067,0.004683884747976874,0.004679971675394277
5011.8723362727205,0.9999229936723552,-0.03519696696092911,0.004683919330176034,0.004680004363572172
3981.0717055349687,1.0006296408207884,-0.04425358080909436,0.004683970906658527,0.004680053260797056
3162.2776601683795,1.0016725292706665,-0.05557556106614317,0.004684047157761888,0.0046801258188240566
2511.8864315095802,1.0032293516529154,-0.0697502587913322,0.004684161218099002,0.0046802347005131945
1995.2623149688789,1.0055975598745244,-0.08750323761798078,0.004684335143240178,0.004680401063000356
1584.8931924611124,1.0092632587740387,-0.10970765832453085,0.004684605198986355,0.004680659554053731
1258.9254117941662,1.0150004762463325,-0.13737189105348574,0.004685029756182232,0.004681065732285157
1000.0,1.024005895385892,-0.1715812240037088,0.004685700698173046,0.004681706688802356
794.3282347242813,1.038062808984665,-0.21335340871135777,0.004686759041452447,0.004682715343160079
630.957344480193,1.059697252846902,-0.2633506058154457,0.004688414263711827,0.0046842875517328275
501.187233627272,1.09222573733468,-0.3213907704703702,0.004690963258016625,0.004686697563570676
398.10717055349687,1.1394997280987793,-0.3857653265050156,0.0046947968644373735,0.004690299934195903
316.227766016838,1.2050907238086856,-0.4525603320661397,0.004700368893809189,0.004695495049089688
251.18864315095797,1.2908015532277985,-0.5154866748363114,0.004708092079607833,0.004702629050495842
199.5262314968879,1.3949085961839511,-0.566898388080576,0.004718143389829999,0.004711819661190904
158.48931924611125,1.5112397820341072,-0.6002395282046981,0.0047302400562163295,0.004722769955461345
125.89254117941664,1.6302816863422662,-0.6130116290734877,0.00474355791333499,0.004734719299362995
100.0,1.742364705730692,-0.6084339780078035,0.0047569608765828785,0.004746664037522606
79.43282347242804,1.8413583492506065,-0.5944937875779213,0.004769493849266458,0.0047577909813511015
63.09573444801929,1.9268471760587462,-0.5808033185366052,0.004780844905872764,0.0047678679558503965
50.11872336272725,2.00386629359079,-0.574943064173703,0.0047914960772942675,0.004777359007386953
39.81071705534969,2.0806770214481545,-0.5798226902253318,0.004802521601011859,0.0047872358992075165
31.622776601683796,2.16560461853199,-0.5927332992685456,0.004815172221409012,0.004798605451613977
25.118864315095767,2.2638506249551567,-0.6062190374295356,0.0048303918603039096,0.004812279529799217
19.95262314968879,2.3752012651967003,-0.6106704408342165,0.004848382450633365,0.0048283948392891934
15.848931924611108,2.4936804043743677,-0.5979877938173969,0.00486837390863027,0.004846226286095092
12.589254117941664,2.6096668621511148,-0.5647831785890234,0.004888780239871244,0.004864346807863765
10.0,2.71358697229444,-0.5134113414726181,0.004907756300418358,0.004881129801685295
7.943282347242805,2.7991502606635494,-0.45036481807121526,0.004923865821230844,0.004895330866176236
6.30957344480193,2.8645214728136708,-0.3833097985067276,0.004936465992584816,0.0049064103168545556
5.011872336272715,2.9114382751893,-0.3186047245667978,0.004945663776733408,0.004914482720446542
3.981071705534969,2.943458357266276,-0.26024249362540564,0.004952014688782225,0.004920048497625364
3.1622776601683795,2.964455828467238,-0.20999620972908595,0.00495621138919896,0.004923721935032233
2.5118864315095766,2.977788743932703,-0.16809036029472663,0.004958889110142634,0.004926063076784585
1.9952623149688788,2.986031126310881,-0.13388442021454913,0.004960549282822233,0.00492751272682009
1.584893192461111,2.991013619974249,-0.10636539506536873,0.004961554472095217,0.004928389117425574
1.2589254117941662,2.9939758622792976,-0.08443969373086739,0.00496215255042016,0.004928909618297474
1.0,2.9957283250856,-0.0670807486740642,0.004962506473132692,0.004929217046240168
0.7943282347242805,2.9967858027865812,-0.05338997518365322,0.0049627200682710705,0.0049294023459071174
0.6309573444801929,2.9974660318762307,-0.04261145596945132,0.004962857524753501,0.004929521695898806
0.5011872336272715,2.9979583516281134,-0.03412447391001537,0.0049629571194048875,0.004929608548659598
0.3981071705534969,2.9983697282874173,-0.027427095119227467,0.004963040475611037,0.004929681749095122
0.31622776601683794,2.9987547295823784,-0.022117644377868086,0.004963118612854229,0.0049297508387412155
0.2511886431509577,2.9991346371213883,-0.0178774189997301,0.00496319581019849,0.004929819443061131
0.1995262314968879,2.9995096117661015,-0.014456041010930253,0.004963272067372231,0.0049298874297395
0.1584893192461111,2.999866781587096,-0.011659692350090886,0.0049633447420691056,0.004929952346580415
0.12589254117941662,3.000186213821057,-0.009341772322047335,0.004963409760345815,0.004930010488131519
0.1,3.000445901132047,-0.007395171522700484,0.0049634626290491575,0.004930057791980206
0.07943282347242805,3.0006261688766607,-0.005745284430766597,0.004963499332287583,0.004930090635528469
0.0630957344480193,3.000713381394813,-0.004343327779882876,0.004963517086340016,0.004930106508590547
0.05011872336272714,3.0007025631408295,-0.0031588403611231457,0.004963514873940414,0.004930104489835436
0.039810717055349686,3.0005985557455617,-0.0021738079809935657,0.004963493680084131,0.0049300854566901075
0.031622776601683784,3.0004155314837835,-0.0013773749510161723,0.004963456392396158,0.004930051995039949
0.02511886431509577,3.000174967255182,-0.0007578834603200282,0.004963407387343295,0.004930008027527202
0.019952623149688792,2.9999024521479676,-0.0003011892193114545,0.004963351878738271,0.004929958228937472
0.01584893192461111,2.999623899463006,1.1798764971535428e-05,0.0049632951452909715,0.004929907333102534
0.01258925411794166,2.9993618505415096,0.00020509022642392142,0.0049632417775397255,0.004929859457186854
0.01,2.9991325962210835,0.00030529369903762563,0.004963195091962117,0.004929817575908588
