freq,Zreal,Zimag,sigma_re,sigma_im
31622.776601683792,1.0823188493686235,0.9157528195566105,0.025244793442762998,0.02137830838894874
25118.864315095827,1.0822019218681846,0.7211192814255403,0.02522726472326034,0.016843977003009037
19952.623149688792,1.0827463642330841,0.5647338353241099,0.02523056584393211,0.01320332053332606
15848.93192461114,1.0841553985705246,0.43853202276754255,0.025257437722038204,0.010268881821573851
12589.254117941662,1.0866403188229221,0.3361470382134461,0.02531153693168171,0.007893193419797292
10000.0,1.0904053659108508,0.2525740245716741,0.02539681635483169,0.005961311408377875
7943.282347242814,1.0956301340922976,0.18389823405610314,0.02551694649078938,0.0043853134910951915
6309.57344480193,1.1024527800568042,0.1270709802130017,0.025674817773749765,0.0031012683512700793
5011.872336272725,1.1109581799571377,0.07972352909930648,0.025872197572629436,0.0020716387564809068
3981.0717055349733,1.1211746883893938,0.04001011750848167,0.026109612344309308,0.0013058394773070334
3162.2776601683795,1.133081102873542,0.006481287982771533,0.026386483037538398,0.0009260318729713155
2511.8864315095802,1.1466223736125851,-0.022015533153373228,0.026701473813668407,0.001048188906188988
1995.2623149688789,1.1617296637430494,-0.04640740548048769,0.02705294808368638,0.001416689170784977
1584.8931924611138,1.1783387911497463,-0.0674421191523472,0.027439390626535914,0.0018193985580545876
1258.9254117941662,1.1964015558897507,-0.0857174906176876,0.027859666514018364,0.00219849369312206
1000.0,1.2158867701281275,-0.10169321063968079,0.028313041913080747,0.0025421740627495793
794.3282347242813,1.2367710349011,-0.11570413315535685,0.028798967385523587,0.0028495988566960896
630.957344480193,1.259022313905075,-0.12797184432943484,0.02931669432883509,0.0031220252823268707
501.1872336272725,1.2825812414575222,-0.13862395479711156,0.029864839283100932,0.0033604420152806356
398.10717055349687,1.3073454267505484,-0.14771765307885878,0.030441018354636036,0.003565082925459678
316.227766016838,1.3331608375711548,-0.15527056207729503,0.03104164667310127,0.0037357056871679156
251.18864315095797,1.3598221694616421,-0.16128798037816627,0.0316619470171504,0.003872021888546339
199.5262314968879,1.3870817143822478,-0.1657891397431651,0.03229615625725636,0.003974203080248166
158.48931924611125,1.41466441020787,-0.16882567791835695,0.03293787554305508,0.004043254395977706
125.89254117941664,1.442285937576873,-0.17049323750406836,0.03358049131511633,0.004081251393284319
100.0,1.4696709209144823,-0.17093592463798507,0.03421759865721614,0.004091422676666741
79.43282347242814,1.4965690977607418,-0.17034518585395372,0.034843377324240726,0.0040781084932570745
63.09573444801929,1.5227682598214884,-0.168954830116315,0.03545289264298458,0.004046632548530291
50.1187233627272,1.5481035192614594,-0.1670339280800026,0.03604231093436723,0.0040031261517948355
39.81071705534969,1.5724629433350539,-0.16487902765623025,0.03660903048740036,0.0039543382604519854
31.622776601683796,1.595789920563346,-0.1628069300771361,0.03715173655379394,0.003907461440251699
25.118864315095795,1.618082883061551,-0.16114905904952,0.037670394905118226,0.003869999663026255
19.95262314968879,1.639393258737083,-0.16024822483092788,0.03816620428433179,0.003849698981561026
15.848931924611126,1.6598227522755262,-0.1604583243386154,0.03864153332056316,0.0038545558067352463
12.589254117941664,1.6795212402767938,-0.16214720997985493,0.03909987181542622,0.0038929088931514725
10.0,1.6986867409177973,-0.16570264553696779,0.03954583038663633,0.0039736109548852636
7.943282347242812,1.7175691543023082,-0.17154089484588272,0.03998522794861371,0.004106263416488389
6.30957344480193,1.7364798430980282,-0.18011707748036274,0.04042531520721851,0.004301485102562739
5.011872336272719,1.7558096510998134,-0.19193511248244358,0.04087519462787506,0.004571155053764382
3.981071705534969,1.7760585171635146,-0.2075548536746045,0.04134651035571342,0.004928567675197771
3.1622776601683795,1.7978800437937337,-0.22758928667104855,0.04185448617527688,0.005388336138874096
2.5118864315095766,1.8221433188941036,-0.25268226622856044,0.04241936477303099,0.00596582981972722
1.9952623149688788,1.8500101547383623,-0.2834507016342652,0.043068205035958755,0.006675781919429234
1.5848931924611138,1.883015770271639,-0.32036942409677505,0.04383675769957488,0.007529569291197691
1.2589254117941662,1.9231219408731808,-0.3635778981445925,0.04477069692485762,0.00853068298851236
1.0,1.9726857070547394,-0.4125999149940871,0.045924881795908486,0.009668183064785082
0.7943282347242805,2.0342685432332304,-0.4660166060620181,0.04735890017332335,0.010909074729375086
0.6309573444801929,2.110228706086373,-0.5211911772715638,0.04912756621117058,0.012191898502150899
0.5011872336272715,2.202112836528668,-0.5741966865915551,0.05126675547030185,0.013425061624609684
0.3981071705534969,2.309970009226933,-0.6200840156283504,0.05377745579957436,0.014493107797134756
0.31622776601683794,2.4317968474865483,-0.6535424479658472,0.05661289228567853,0.01527214488637523
