freq,Zreal,Zimag,sigma_re,sigma_im
1000000.0,1.0027102373939376,0.0003539488579539469,0.014498605841786073,0.0009246266979937546
794328.2347242822,1.0026918866597503,0.0002871544095250226,0.014498341357922636,0.0009246183940773356
630957.344480193,1.0026683563775016,0.00022772314751317712,0.014498002222750545,0.0009246104836853255
501187.2336272725,1.0026402503859106,0.0001697117487572115,0.014497597139237246,0.000924602554663707
398107.17055349686,1.00260920769837,0.00010771842557155315,0.014497149730021338,0.0009245947280741379
316227.7660168379,1.002577689332421,3.72605982223899e-05,0.01449669546503912,0.0009245875978019902
251188.6431509582,1.0025484303724979,-4.505204526817937e-05,0.01449627376425905,0.0009245821188430982
199526.2314968879,1.0025237550321744,-0.0001417556000351679,0.01449591812587599,0.0009245794716907869
158489.3192461114,1.0025050532078856,-0.00025522302629147855,0.014495648582041753,0.0009245809960387427
125892.5411794166,1.0024926955662135,-0.00038865294396175595,0.014495470475052312,0.0009245883261473613
100000.0,1.002486525860127,-0.0005470486276746959,0.014495381552961551,0.000924603845429527
79432.82347242821,1.0024868582036812,-0.0007378322570241954,0.014495386343007398,0.0009246315118753471
63095.7344480193,1.0024956930988917,-0.0009708253789449785,0.014495513677848345,0.0009246780147991949
50118.72336272724,1.002517728047664,-0.0012575328811802004,0.014495831261224895,0.0009247541289388087
39810.71705534969,1.0025607410694546,-0.0016099359116196522,0.014496451195522318,0.0009248760512224505
31622.776601683792,1.0026350901428105,-0.002039236243315668,0.01449752276745361,0.0009250664906487443
25118.864315095827,1.002752358944335,-0.002555105061668068,0.014499212929642284,0.0009253554393948766
19952.623149688792,1.0029234950347738,-0.0031659162330301507,0.01450167946704214,0.0009257809735249326
15848.93192461114,1.0031570170191875,-0.0038801992047059457,0.014505045157447114,0.000926391062503226
12589.254117941662,1.0034579268845245,-0.004709208078992842,0.014509382095427669,0.0009272479801243987
10000.0,1.003827830916747,-0.005670182939785637,0.014514713435059865,0.0009284372477680625
7943.282347242814,1.0042664925238998,-0.006789676371785191,0.014521035770282811,0.0009300830301378134
6309.57344480193,1.0047746995101114,-0.00810628534565379,0.014528360460266421,0.0009323717057432237
5011.8723362727205,1.0053580193856144,-0.009672265654393332,0.014536767754295379,0.0009355851431029022
3981.0717055349687,1.0060308116273686,-0.011553771775531553,0.01454646462082048,0.0009401449591620655
3162.2776601683795,1.0068198077852155,-0.013829797175955937,0.014557836349094024,0.0009466682797545431
2511.8864315095802,1.0077666721890592,-0.016590220369873135,0.014571483459952822,0.0009560336858173386
1995.2623149688789,1.0089292060800126,-0.01993362471010974,0.014588239066643803,0.0009694528620122687
1584.8931924611124,1.0103812229624036,-0.02396569686583918,0.014609167087128914,0.0009885394821039367
1258.9254117941662,1.0122115501241264,-0.028798974828077344,0.014635547866019427,0.0010153635260488835
1000.0,1.0145230313340516,-0.034554484693428825,0.014668863818901662,0.0010524786430282582
794.3282347242813,1.0174327389880846,-0.041365376277834244,0.014710802515753478,0.0011029141429764458
630.957344480193,1.0210747716096256,-0.04938207204896731,0.014763297037746871,0.001170131384595973
501.187233627272,1.0256069516273543,-0.05877774202518066,0.014828622565774514,0.0012579524986672949
398.10717055349687,1.0312224128051535,-0.06975218414371658,0.01490956347195018,0.0013704700182728484
316.227766016838,1.0381664634250558,-0.08253149293311458,0.015009656497663228,0.001511933069546357
251.18864315095797,1.046758209881675,-0.09736028509285,0.01513350261851408,0.001686580901055382
199.5262314968879,1.0574151459204102,-0.11448276585235277,0.015287121765578606,0.0018983676841282102
158.48931924611125,1.0706770796397729,-0.134108705895329,0.015478298156759222,0.002150506117641865
125.89254117941664,1.0872231704857869,-0.1563608516157674,0.0157168265087809,0.002444760997884589
100.0,1.1078724762485357,-0.18120220893732994,0.01601452074804053,0.002780455904210266
79.43282347242804,1.1335549236047748,-0.20834616109949927,0.016384796471392286,0.003153227647875641
63.09573444801929,1.1652378418801146,-0.237160465741926,0.016841612636086863,0.0035536847041477905
50.11872336272725,1.203796243743443,-0.2665875151806296,0.017397601576133636,0.003966292250412735
39.81071705534969,1.249826388308311,-0.2951148957351254,0.01806137990563902,0.004368975752553157
31.622776601683796,1.3034234958157442,-0.32083597512411394,0.018834340582340677,0.004734017464795709
25.118864315095767,1.3639726309433566,-0.34163146838841574,0.01970763293005629,0.005030693435070547
19.95262314968879,1.4300261464597748,-0.35547269709928353,0.02066039000740336,0.005229662250173685
15.848931924611108,1.4993439057282716,-0.36079701289278443,0.021660304458668844,0.005308391961917882
12.589254117941664,1.5691363885284295,-0.3568535956493323,0.02266713325440933,0.005256157902618965
10.0,1.6364764657015625,-0.3438977117711065,0.023638638773877098,0.005076853732205933
7.943282347242805,1.698766974876421,-0.3231517139807735,0.024537337547321413,0.004788437308585288
6.30957344480193,1.7541196077344903,-0.2965406188993047,0.02533597063561847,0.0044191240386072085
5.011872336272715,1.8015398166350298,-0.26629707672208747,0.02602017493417464,0.004001695136608246
3.981071705534969,1.840895264090543,-0.23456549447876437,0.026588030128282245,0.0035677942322788923
3.1622776601683795,1.8727216073804795,-0.2031097960465234,0.027047257253593103,0.003143724567375713
2.5118864315095766,1.8979564313553805,-0.17317071887364482,0.027411379517918822,0.002748417590105672
1.9952623149688788,1.9176862369370062,-0.14546030528762752,0.027696071000028973,0.0023934063974482903
1.584893192461111,1.93295795105399,-0.12024598287585087,0.027916436221824163,0.0020841307193053362
1.2589254117941662,1.9446675780259293,-0.09747066949595687,0.028085402905607446,0.0018218138403411235
1.0,1.953511817724619,-0.07687014023482044,0.02821302345505395,0.0016053549041853048
0.7943282347242805,1.959979034942654,-0.058069751110222514,0.028306344391892793,0.001432941127679995
0.6309573444801929,1.9643590503911867,-0.040658971791288655,0.028369547482174032,0.0013032213512236747
0.5011872336272715,1.9667596351885286,-0.02425102708971647,0.028404187660138327,0.0012158371781173802
0.3981071705534969,1.9671269540679501,-0.008537525350805078,0.028409487978288413,0.0011709936575271156
0.31622776601683794,1.965276038950715,0.006654572473638265,0.028382779330025986,0.0011679023480780856
0.2511886431509577,1.9609441468428779,0.02130456144781357,0.02832027041975499,0.0012026274198840563
0.1995262314968879,1.9538798582681762,0.03515342232716629,0.028218333483345417,0.001266604625850376
0.1584893192461111,1.9439670585972233,0.04770305594949984,0.0280752933562366,0.0013468674178603024
0.12589254117941662,1.9313551530670345,0.05829013875622436,0.027893306438849432,0.0014279955615645742
0.1,1.916541017162781,0.06623962314029243,0.027679543115112913,0.001495104614259253
0.07943282347242805,1.9003497546156094,0.07105778951798282,0.027445909896098703,0.0015369696537223749
0.0630957344480193,1.883801095432102,0.07259017780545943,0.027207121371695814,0.001548275168145697
0.05011872336272714,1.8679063780132754,0.07107587154698276,0.02697777062531043,0.001530169940742726
0.039810717055349686,1.853477647705481,0.06707913424552538,0.026769574662799705,0.0014889744531924884
0.031622776601683784,1.841018121231903,0.06133934660836471,0.026589794051353983,0.0014337025172697676
0.02511886431509577,1.830714179212944,0.05460898565361555,0.0264411175830128,0.0013734566408805128
0.019952623149688792,1.8225016847100544,0.0475351310231088,0.02632261935417324,0.001315550832903722
0.01584893192461111,1.8161605852858806,0.04060415310889887,0.026231123865772803,0.0012646852566751553
0.01258925411794166,1.8114003930430895,0.0341388354759467,0.02616243943064424,0.0012230213592906536
0.01,1.807919294640329,0.02832446416311927,0.026112211050039722,0.0011907768459382953
