freq,Zreal,Zimag,sigma_re,sigma_im
1000000.0,0.9968534220807695,-0.002263962422342682,0.004627725283672931,0.004627562338123745
794328.2347242822,0.9975732548221182,-0.004896528647338573,0.004627758182427802,0.004627595005711891
630957.344480193,0.9984711824205436,-0.007516289809456385,0.004627799253776621,0.004627635789944758
501187.2336272725,0.9995602387526071,-0.010191509534921995,0.004627849116574299,0.004627685305466655
398107.17055349686,1.0008496490125562,-0.012991987986610446,0.004627908222326002,0.00462774400101254
316227.7660168379,1.0023479090195109,-0.015995062950029084,0.004627976996511631,0.004627812299785283
251188.6431509582,1.0040668458292168,-0.019290204260339873,0.004628056026010722,0.004627890785652362
199526.2314968879,1.0060262033762777,-0.022982245348322782,0.004628146272816682,0.0046279804154970685
158489.3192461114,1.0082583943409922,-0.02719338149765952,0.0046282492987934016,0.004628082742597166
125892.5411794166,1.0108131046220932,-0.03206416090884649,0.00462836748846912,0.004628200138135712
100000.0,1.0137615501108606,-0.03775385762070294,0.004628504262451003,0.004628336003504458
79432.82347242821,1.0172004688959668,-0.044440757364043126,0.004628664287918236,0.004628494979844625
63095.7344480193,1.0212563855839751,-0.05232286121120017,0.0046288537152175705,0.004628683183686147
50118.72336272724,1.0260912118850651,-0.06161919411471949,0.004629080497045403,0.004628908524821387
39810.71705534969,1.0319107042808835,-0.07257123023207394,0.004629354873394151,0.00462918118905407
31622.776601683792,1.038977518157288,-0.08544288754732052,0.004629690125214223,0.0046295143880694545
25118.864315095827,1.0476303605006008,-0.10051610110810717,0.0046301037046915855,0.004629925483490894
19952.623149688792,1.0583097355944417,-0.11807721768084763,0.0046306188278748385,0.0046304375699550955
15848.93192461114,1.0715885164411842,-0.1383875714393197,0.004631266544116617,0.004631081530831805
12589.254117941662,1.088201338407172,-0.16163024449487762,0.0046320881357672,0.0046318984195833565
10000.0,1.109059960998006,-0.1878258600832463,0.004633137392933061,0.004632941712320974
7943.282347242814,1.1352329410830448,-0.21671640216247257,0.004634481812934646,0.004634278484647184
6309.57344480193,1.167861256366872,-0.24763104991095167,0.004636201158933429,0.004635987955707813
5011.8723362727205,1.2079857000665915,-0.2793720362066892,0.004638381368792751,0.004638155406126954
3981.0717055349687,1.2562870815479985,-0.31018240360663,0.004641102093520061,0.0046408597712085066
3162.2776601683795,1.3127871284622288,-0.3378612691047315,0.004644417775117524,0.004644154839610323
2511.8864315095802,1.3766070491063038,-0.3600570741883068,0.0046483353062816216,0.004648047100532229
1995.2623149688789,1.4458982982449928,-0.3746976488270673,0.00465279510942032,0.004652477036003968
1584.8931924611124,1.5180208728453843,-0.38043846396543374,0.004657664750394761,0.004657312886744051
1258.9254117941662,1.5899525462575168,-0.3769730913600134,0.004662752028354391,0.004662363735670275
1000.0,1.6588091967387235,-0.3650874849626312,0.004667836804700614,0.004667411132388909
794.3282347242813,1.7223044971177195,-0.346443936096736,0.004672711428930527,0.004672249179182781
630.957344480193,1.7790132615294079,-0.3231912558484236,0.004677215258440343,0.004676718710712705
501.187233627272,1.8283994401128414,-0.29754803041161876,0.004681252665057506,0.004680725083000012
398.10717055349687,1.8706617468227265,-0.27147948320980253,0.004684792583178538,0.004684237671995624
316.227766016838,1.9064925257643952,-0.24652133620802813,0.0046878549929265465,0.00468727644137136
251.18864315095797,1.9368375268656592,-0.2237410994404048,0.004690492380513961,0.0046898935509514595
199.5262314968879,1.9627094909970006,-0.2037924045304516,0.004692772704971644,0.004692156471199991
158.48931924611125,1.9850716313816879,-0.18701235657171233,0.004694767158872511,0.004694135855921216
125.89254117941664,2.004782452154706,-0.17352403054741064,0.004696543178140736,0.004695898619907532
100.0,2.0225833830220297,-0.16332323556360326,0.004698161615552063,0.00469750514354126
79.43282347242804,2.0391109680253603,-0.15634238810881798,0.004699676596631445,0.004699009135343001
63.09573444801929,2.054920059303589,-0.1524923941505927,0.004701136803755992,0.0047004589092357225
50.11872336272725,2.0705097753870123,-0.15168685680072463,0.0047025873535543284,0.0047018992491400565
39.81071705534969,2.0863483509828207,-0.15385351626818378,0.004704071832789289,0.004703373430184486
31.622776601683796,2.1028962210298285,-0.15893679671447505,0.004705634378908248,0.00470492528404928
25.118864315095767,2.1206286960383225,-0.1668931080591034,0.004707321911140864,0.0047066014137260226
19.95262314968879,2.1400598862135864,-0.17767742160256844,0.004709186681187672,0.004708453725336652
15.848931924611108,2.1617673957249113,-0.19121652940819128,0.00471128914267633,0.004710542275566353
12.589254117941664,2.1864126500713374,-0.20736297269310106,0.004713700709607291,0.004712938006831478
10.0,2.214745588577006,-0.2258255424783956,0.004716505353457827,0.004715724325678189
7.943282347242805,2.247576607856388,-0.24607856486622856,0.004719798294307769,0.004718995790484359
6.30957344480193,2.285695367831668,-0.2672637395893931,0.004723679428073215,0.004722851566734776
5.011872336272715,2.3297197082031267,-0.2881156020738681,0.004728238982052024,0.004727381162603269
3.981071705534969,2.379876141223668,-0.3069612275159207,0.004733534084071315,0.004732641147993768
3.1622776601683795,2.4357526232807065,-0.3218529603763721,0.004739558625718492,0.004738625235072862
2.5118864315095766,2.4961161009118946,-0.3308662097589218,0.0047462150865679705,0.004745236339349628
1.9952623149688788,2.5589155336986265,-0.3325184069039984,0.004753302777506659,0.004752274975543861
1.584893192461111,2.621546702918719,-0.3261685567447285,0.004760535908523876,0.004759457271833959
1.2589254117941662,2.6813308539268115,-0.31221624019374644,0.004767592739874105,0.004766463811218924
1.0,2.7360309246681673,-0.291995348607368,0.004774179372431906,0.004773002948095689
0.7943282347242805,2.7842032161074832,-0.2674136695559086,0.004780082362817801,0.004778862983046337
0.6309573444801929,2.8252826696763473,-0.24050699959572752,0.004785191681706796,0.004783934885189471
0.5011872336272715,2.859439883238906,-0.21307719931405883,0.004789492775182822,0.004788204363589201
0.3981071705534969,2.8873276135547057,-0.18649659885122477,0.0047930398279011,0.004791725308447115
0.31622776601683794,2.9098286367695985,-0.16166815819675934,0.00479592490022684,0.0047945891590205625
0.2511886431509577,2.927865248896116,-0.13908430100641397,0.004798252455952989,0.004796899632181974
0.1995262314968879,2.9422823049591402,-0.1189280108936971,0.004800122449576498,0.004798755948078907
0.1584893192461111,2.9537927384949834,-0.10117985493978125,0.004801621504903523,0.004800244084253913
0.12589254117941662,2.9629700629745686,-0.08571037402839284,0.004802820568364243,0.004801434453133328
0.1,2.970271179614749,-0.07234520724657952,0.004803776940167761,0.00480238392230301
0.07943282347242805,2.9760702001225026,-0.06089812044353977,0.00480453809555778,0.00480313960967917
0.0630957344480193,2.9806851391178553,-0.051178030373093916,0.004805144809223522,0.0048037419854069525
0.05011872336272714,2.9843882204301284,-0.0429848752159877,0.004805632268895412,0.004804225976587036
0.039810717055349686,2.9874030721689664,-0.036108939158168936,0.0048060295439650074,0.004804620438543186
0.031622776601683784,2.9898993354436874,-0.030339433562286692,0.004806358762692059,0.0048049473368730455
0.02511886431509577,2.9919932394392212,-0.025478840464771644,0.004806635111651078,0.004805221746169745
0.019952623149688792,2.993756140510906,-0.021356281876678287,0.004806867913635944,0.0048054529198328306
0.01584893192461111,2.9952282121167957,-0.01783528906513186,0.004807062406472612,0.004805646056041127
0.01258925411794166,2.996433228204591,-0.014814690003016762,0.004807221680907051,0.0048058042218147344
0.01,2.9973911002403084,-0.012223561576036556,0.0048073483308142435,0.004805929991496765
