freq,Zreal,Zimag,sigma_re,sigma_im
1000000.0,0.9990178603111236,-7.876082176066509e-05,0.002956310067981422,0.0029563100071014065
794328.2347242822,0.9990313998756093,-9.155584588004766e-05,0.0029563116097067158,0.002956311548825082
630957.344480193,0.9990463778955835,-0.00010334365553807469,0.0029563133152496605,0.002956313254366236
501187.2336272725,0.9990620618761874,-0.00011429810281888072,0.0029563151012064895,0.00295631504032119
398107.17055349686,0.999077759159849,-0.0001249797156660384,0.002956316888705201,0.002956316827818026
316227.7660168379,0.999092968497544,-0.00013626215017527356,0.002956318620665885,0.0029563185597768923
251188.6431509582,0.9991074399967671,-0.0001492105279328255,0.002956320268629153,0.00295632020773843
199526.2314968879,0.9991211431786359,-0.00016497900245931028,0.0029563218291207547,0.002956321768228394
158489.3192461114,0.9991341788667739,-0.00018477507100250455,0.0029563233136192537,0.002956323252725335
125892.5411794166,0.9991466874792398,-0.00020990449390711924,0.002956324738113121,0.002956324677217708
100000.0,0.9991587971525974,-0.00024187280653763542,0.002956326117193212,0.0029563260562963517
79432.82347242821,0.9991706186281418,-0.00028250050511526253,0.002956327463470331,0.002956327402572059
63095.7344480193,0.9991822574356455,-0.0003340285268089485,0.0029563287889627647,0.002956328728063103
50118.72336272724,0.9991938120936013,-0.00039922902557776936,0.0029563301048914727,0.0029563300439904325
39810.71705534969,0.9992053543119712,-0.0004815537858878352,0.0029563314194256994,0.0029563313585232835
31622.776601683792,0.9992169085449617,-0.0005853413430850235,0.00295633273535463,0.0029563326744508397
25118.864315095827,0.9992284490702117,-0.0007160873055553276,0.0029563340497553076,0.002956333988850148
19952.623149688792,0.9992399230047957,-0.0008807746229283462,0.0029563353566150383,0.002956335295708523
15848.93192461114,0.99925129480179,-0.001088261955443114,0.0029563366519012664,0.002956336590993416
12589.254117941662,0.9992625961425793,-0.0013497404522617579,0.0029563379392476045,0.0029563378783384418
10000.0,0.9992739632610057,-0.0016792902750861448,0.002956339234210784,0.0029563391733003234
7943.282347242814,0.9992856556698867,-0.0020945880099457865,0.002956340566412853,0.0029563405055010898
6309.57344480193,0.999298069765386,-0.0026178255548583336,0.0029563419811052265,0.0029563419201921303
5011.8723362727205,0.9993117774533672,-0.003276899493187076,0.002956343543591065,0.002956343482676566
3981.0717055349687,0.9993276258830069,-0.004106924478299658,0.0029563453506213882,0.002956345289705368
3162.2776601683795,0.9993469291376564,-0.005152127909535433,0.002956347552287717,0.002956347491369979
2511.8864315095802,0.9993717794102358,-0.006468206957635064,0.0029563503875617825,0.0029563503266420064
1995.2623149688789,0.9994055217738922,-0.008125268031913421,0.0029563542385329447,0.002956354177610609
1584.8931924611124,0.9994534798800603,-0.010211509518797736,0.0029563597133386837,0.0029563596524129466
1258.9254117941662,0.9995240895667958,-0.012837843493273618,0.0029563677757610514,0.0029563677148305633
1000.0,0.9996306967413122,-0.016143678806203057,0.002956379950876064,0.0029563798899386712
794.3282347242813,0.9997944163582061,-0.020304107128320505,0.002956398652351475,0.00295639859140375
630.957344480193,1.0000486609464907,-0.025538742568232263,0.0029564277015775966,0.0029564276406140936
501.187233627272,1.0004462822512823,-0.03212243816091782,0.0029564731481287834,0.0029564730871408547
398.10717055349687,1.0010707928299791,-0.04039797189145555,0.0029565445633981126,0.0029565445023720205
316.227766016838,1.0020539189867341,-0.05079043606681253,0.0029566570752463175,0.0029566570141602343
251.18864315095797,1.0036028573338711,-0.06382224604059349,0.0029568345552569977,0.0029568344940762046
199.5262314968879,1.0060420894327093,-0.08012597659119365,0.002957114577701278,0.0029571145163704605
158.48931924611125,1.0098762605820797,-0.10044886817936155,0.0029575560490524688,0.0029575559874832776
125.89254117941664,1.0158816257794339,-0.12563658004075684,0.0029582507309428778,0.0029582506689936833
100.0,1.025231542303978,-0.1565729825431971,0.002959340107492019,0.002959340044934703
79.43282347242804,1.0396508881629576,-0.19403654913961815,0.0029610387474189675,0.0029610386838841733
63.09573444801929,1.0615644688375674,-0.23841587538326683,0.0029636633909641244,0.0029636633258516222
50.11872336272725,1.0941412774405455,-0.28922476112598794,0.0029676611552504864,0.002967661087587389
39.81071705534969,1.1410386773112071,-0.3444170763833617,0.0029736169473701217,0.00297361687560639
31.622776601683796,1.2055781175106395,-0.3996932909101222,0.002982197968886593,0.0029821978906584153
25.118864315095767,1.2892170147997062,-0.44832062780013393,0.002993975641174617,0.0029939755531697516
19.95262314968879,1.3897344815469628,-0.4821964170797828,0.0030091002154053214,0.0030091001135939596
15.848931924611108,1.5003346612328654,-0.4944042797554799,0.003026947613791886,0.003026947494248012
12.589254117941664,1.6109335206227238,-0.4821879581929516,0.0030460365005907128,0.0030460363607177974
10.0,1.7114472330758104,-0.448304580158837,0.0030644422667708768,0.003064442106230956
7.943282347242805,1.7950804978874775,-0.39967119133886153,0.003080511074570253,0.0030805108952858644
6.30957344480193,1.8596131716449507,-0.3443907985975916,0.003093371013427462,0.003093370818741347
5.011872336272715,1.9065034138926376,-0.2891961702705457,0.0031029639693054708,0.0031029637629257775
3.981071705534969,1.9390732625305511,-0.2383865650822438,0.003109749275236596,0.003109749060489482
3.1622776601683795,1.960980443976807,-0.1940077132641792,0.0031143691259070093,0.003114368905420057
2.5118864315095766,1.9753941014710514,-0.15654541445708048,0.0031174331311714927,0.003117432906859471
1.9952623149688788,1.9847390420291569,-0.12561075106989034,0.003119429966952616,0.003119429740140207
1.584893192461111,1.990740070213199,-0.100425031101544,0.0031207165448381372,0.0031207163164116637
1.2589254117941662,1.9945704510210955,-0.08010425759355014,0.003121539496435689,0.0031215392669756165
1.0,1.9970063600622134,-0.06380271007962149,0.003122063554953629,0.003122063324834951
0.7943282347242805,1.9985523880044924,-0.05077312505927257,0.003122396450922342,0.0031223962203852096
0.6309573444801929,1.99953298589632,-0.04038292155221256,0.0031226077117921976,0.00312260748098955
0.5011872336272715,2.0001553364070146,-0.03210968099629396,0.003122741838337453,0.003122741607366336
0.3981071705534969,2.0005511578753925,-0.025528305427992747,0.0031228271635911687,0.003122826932513011
0.31622776601683794,2.0008039522406658,-0.020296012182415755,0.0031228816655626828,0.003122881434416301
0.2511886431509577,2.000966557237294,-0.01613795322113354,0.003122916726819659,0.003122916495629548
0.1995262314968879,2.001072376422154,-0.012834535104267016,0.003122939545952109,0.0031229393147337065
0.1584893192461111,2.0011425327041183,-0.010210700420424707,0.003122954676085148,0.0031229544448481603
0.12589254117941662,2.0011904065253674,-0.008127079882454044,0.003122965001862516,0.0031229647706130224
0.1,2.0012245027767626,-0.006472794712200981,0.0031229723570144617,0.003122972125756238
0.07943282347242805,2.001250256219587,-0.005159655524902729,0.0031229779134147794,0.0031229776821501327
0.0630957344480193,2.001271166045343,-0.004117511283153619,0.0031229824256291134,0.0031229821943594095
0.05011872336272714,2.00128950419816,-0.003290528969518557,0.003122986383611169,0.0031229861523371667
0.039810717055349686,2.0013067464009096,-0.0026342217656994496,0.0031229901056249137,0.003122989874346977
0.031622776601683784,2.0013238161411997,-0.002113083199688594,0.0031229937908379642,0.0031229935595562123
0.02511886431509577,2.00134119981981,-0.0016987214717239,0.0031229975441294934,0.0031229973128439103
0.019952623149688792,2.0013589802749694,-0.0013684196238003394,0.0031230013832932836,0.0031230011520038173
0.01584893192461111,2.001376845268055,-0.0011040649495041527,0.003123005240846323,0.003123005009552975
0.01258925411794166,2.001394143817369,-0.0008913774370006707,0.003123008976177307,0.003123008744880213
0.01,2.0014100485234816,-0.0007193221313826392,0.0031230124105887857,0.0031230121792882536
