freq,Zreal,Zimag,sigma_re,sigma_im
1000000.0,1.0083127875420108,-0.0004247294431740729,0.01726296297354111,0.016661910648780545
794328.2347242822,1.0083353659188783,-0.0005238079804586563,0.01726322846539898,0.016662158371045878
630957.344480193,1.0083622570563395,-0.0006412122576894972,0.0172635446720488,0.016662453428837206
501187.2336272725,1.0083925848274125,-0.0007814382400719921,0.017263901292446242,0.01666278622481781
398107.17055349686,1.0084252394149573,-0.0009509898295433313,0.01726428527733954,0.016663144604934906
316227.7660168379,1.0084594201621386,-0.0011587839486874,0.017264687212499647,0.01666351981743485
251188.6431509582,1.0084951135311162,-0.0014162418820304519,0.017265106939304286,0.016663911762459478
199526.2314968879,1.0085332117803436,-0.0017372749826793951,0.01726555495080732,0.016664330303729772
158489.3192461114,1.0085752478952223,-0.002138571259169255,0.017266049275299847,0.01666479237566275
125892.5411794166,1.0086230586935372,-0.002640485877900021,0.017266611515149438,0.016665318311101452
100000.0,1.0086788109729525,-0.0032685040582623144,0.01726726715486423,0.016665932165925
79432.82347242821,1.0087456326434079,-0.004054951348172445,0.017268052984191273,0.01666666870319857
63095.7344480193,1.0088287557563254,-0.005040622919503852,0.017269030542852472,0.01666758602776088
50118.72336272724,1.0089369213888535,-0.006276268782544356,0.017270302648646523,0.01666878114606225
39810.71705534969,1.009083948411318,-0.007824107304483453,0.017272031860898776,0.016670407403976253
31622.776601683792,1.0092906321300223,-0.009759508266169085,0.017274462840068387,0.016672695665888162
25118.864315095827,1.0095872457286834,-0.012172736568037957,0.017277951831542265,0.016675982291983395
19952.623149688792,1.0100167528621253,-0.015170395662475519,0.01728300458452513,0.01668074519223406
15848.93192461114,1.0106384818504837,-0.01887620718063644,0.0172903198387595,0.01668764534525741
12589.254117941662,1.01153177191623,-0.02343115294829276,0.01730083273625501,0.016697568590235204
10000.0,1.0127993854951924,-0.02899356094142471,0.017315755918062597,0.01671166569526814
7943.282347242814,1.0145713307808744,-0.03573983531906752,0.01733662616815499,0.016731398162765136
6309.57344480193,1.017010570112914,-0.04386578004576007,0.017365374425613873,0.016758606541768896
5011.8723362727205,1.0203221634768118,-0.05358713035396894,0.017404438175055232,0.016795619070806206
3981.0717055349687,1.0247665511644728,-0.06513672149644079,0.017456925814647136,0.01684540949027888
3162.2776601683795,1.0306763128187029,-0.07875512433686108,0.017526827287501122,0.016911798138052693
2511.8864315095802,1.0384741697269018,-0.0946715320053207,0.01761924769472274,0.016999673299379823
1995.2623149688789,1.0486881982663938,-0.11307218513722574,0.01774062012757149,0.017115189594141503
1584.8931924611124,1.0619581860701086,-0.1340550456149378,0.01789882957416358,0.01726587624689787
1258.9254117941662,1.0790252859343126,-0.157572336667425,0.018103155745907724,0.017460565060054705
1000.0,1.1006967738139526,-0.183367131158815,0.018363930882353947,0.017709038069129088
794.3282347242813,1.1277801962859306,-0.21091551313089948,0.018691824836179326,0.018021314243579622
630.957344480193,1.1609871215778296,-0.23938993005734813,0.019096724535270733,0.018406553150349843
501.187233627272,1.2008150645668416,-0.26765990800411466,0.019586265115908726,0.01887164577260841
398.10717055349687,1.2474245108292157,-0.2943421541086564,0.020164179045468838,0.01941966802937652
316.227766016838,1.300533740086216,-0.31790377047536916,0.020828733797900165,0.02004846386326107
251.18864315095797,1.3593556322541307,-0.3368115096415458,0.021571599789616848,0.02074967513631892
199.5262314968879,1.4225969836220318,-0.3497086923986724,0.0223774940676196,0.021508519537201454
158.48931924611125,1.4885317596379273,-0.35559183232308894,0.023224849953445804,0.02230451620256379
125.89254117941664,1.5551457414034342,-0.3539540053790785,0.02408756217778893,0.023113173486346117
100.0,1.620333651548997,-0.34486455550876893,0.02493759236601568,0.02390842214302436
79.43282347242804,1.6821158526697757,-0.32896619850016395,0.025747978755266902,0.024665373602570543
63.09573444801929,1.738835577392542,-0.30738866918020413,0.02649567358087628,0.025362887094810067
50.11872336272725,1.7893022557002474,-0.2815968517508371,0.027163681588285707,0.02598548150572277
39.81071705534969,1.8328600172507192,-0.25320443194005793,0.027742166035550193,0.026524302532763597
31.622776601683796,1.8693776336482077,-0.2237881666168833,0.02822844278067902,0.02697708172315174
25.118864315095767,1.8991717563671466,-0.19473348715525982,0.028626015971892675,0.02734723002564104
19.95262314968879,1.922886155094592,-0.16713208884150801,0.028942970964807847,0.027642352228335103
15.848931924611108,1.9413545582039755,-0.14173931418549196,0.0291901131925857,0.027872534283836996
12.589254117941664,1.9554732979428169,-0.11898614604944631,0.029379222829845925,0.028048739357017727
10.0,1.9661027320677396,-0.09903039625694465,0.029521693526583175,0.028181557247486968
7.943282347242805,1.9740055774404262,-0.08182701431210396,0.029627672175261428,0.028280414406729015
6.30957344480193,1.9798197973274603,-0.06719926555122928,0.029705670801390107,0.028353218286666586
5.011872336272715,1.98405709617903,-0.05489879349696848,0.02976253007396994,0.02840632543788983
3.981071705534969,1.9871164000086645,-0.04464969220546105,0.02980359008058947,0.028444700545325954
3.1622776601683795,1.9893034630168174,-0.036176980038423255,0.02983294750664537,0.028472155008095287
2.5118864315095766,1.9908507519327876,-0.029222563186510737,0.029853719150403298,0.028491591157054068
1.9952623149688788,1.9919345418792247,-0.023552516321705064,0.02986826954053898,0.028505213076361946
1.584893192461111,1.992688201137348,-0.018959168101190676,0.029878388259331184,0.02851469072789454
1.2589254117941662,1.9932119529858368,-0.015260641402202218,0.029885420449730703,0.0285212806606386
1.0,1.9935800564040709,-0.012299471250149704,0.0298903629313955,0.02852591491170783
0.7943282347242805,1.9938464067309787,-0.009940976953181895,0.0298939392457256,0.02852927052498839
0.6309573444801929,1.9940492106896484,-0.008071459197386704,0.029896662349731148,0.028531827789204364
0.5011872336272715,1.994214955039993,-0.0065961204542483035,0.029898887865847275,0.028533919839737725
0.3981071705534969,1.99436163515097,-0.0054367298964986205,0.029900857414935925,0.028535773103532225
0.31622776601683794,1.9945012127578823,-0.00452921975218616,0.029902731609166795,0.02853753813106621
0.2511886431509577,1.994641405973698,-0.003821426765665452,0.029904614083387036,0.02853931207310024
0.1995262314968879,1.9947869979079944,-0.0032710812766148616,0.029906569064699365,0.02854115512874343
0.1584893192461111,1.9949408112319258,-0.0028440257859282444,0.029908634457495167,0.02854310280763827
0.12589254117941662,1.9951044015100023,-0.002512613495834745,0.029910831152684395,0.02854517465946291
0.1,1.9952784670367667,-0.002254282374295462,0.029913168530473353,0.02854737943153672
0.07943282347242805,1.995462982974673,-0.0020503527545172053,0.02991564626116746,0.02854971674630937
0.0630957344480193,1.995657111237723,-0.0018851158626762025,0.029918253094601378,0.028552175945842435
0.05011872336272714,1.9958589848720991,-0.0017452657768070405,0.02992096396408551,0.028554733351326345
0.039810717055349686,1.9960655016707456,-0.00161968254685577,0.029923737214097742,0.0285573496427008
0.031622776601683784,1.9962722674918005,-0.0014995062707194799,0.029926513838116873,0.028559969136858206
0.02511886431509577,1.9964737917126574,-0.0013783768712966639,0.029929220102395203,0.028562522261523345
0.019952623149688792,1.9966639710526337,-0.001252680722530379,0.029931774042625457,0.02856493168353772
0.01584893192461111,1.9968368309392284,-0.0011216416019466987,0.02993409541990968,0.028567121700852943
0.01258925411794166,1.9969874236278216,-0.0009871024673368995,0.0299361177826596,0.02856902962114284
0.01,1.9971126876016339,-0.0008528857977051303,0.02993780000919514,0.0285706166502945
