freq,Zreal,Zimag,sigma_re,sigma_im
1000000.0,0.9976562088073179,-0.0008451296322204994,0.01969971464112181,0.0019167236258131146
794328.2347242822,0.9977041057584767,-0.0010935734597671133,0.019700651802365174,0.0019167756538011687
630957.344480193,0.9977672367179379,-0.0013852427599348612,0.019701887035876473,0.0019168531073762338
501187.2336272725,0.9978499912833477,-0.001731312588506103,0.019703506230052008,0.0019169678103691525
398107.17055349686,0.9979588181333303,-0.002144532568269315,0.019705635562220304,0.001917137097949099
316227.7660168379,0.9981028823916573,-0.0026386462506552298,0.019708454361237627,0.0019173856800030753
251188.6431509582,0.99829418512016,-0.0032273457452948375,0.019712197446311593,0.001917747434420532
199526.2314968879,0.9985467511518663,-0.003923140972478071,0.019717139237135417,0.0019182668236775028
158489.3192461114,0.9988747593457552,-0.0047368107465644215,0.01972355717140752,0.0019190000166536953
125892.5411794166,0.9992899452349465,-0.005678170599339582,0.019731680885541662,0.0019200167132575946
100000.0,0.9997990560394299,-0.00675863664427999,0.01974164241892918,0.0019214049480956465
79432.82347242821,1.0004023567252749,-0.00799554729737799,0.019753446981678725,0.001923282304949177
63095.7344480193,1.001094040927224,-0.009417634870197629,0.019766980992174037,0.0019258175564187301
50118.72336272724,1.0018649466531726,-0.011070669749587063,0.019782065210979524,0.0019292668523602677
39810.71705534969,1.0027074304126538,-0.013022259517750314,0.019798550110035156,0.0019340288694781286
31622.776601683792,1.0036218209191636,-0.015365007045359506,0.01981644215398361,0.001940724245795506
25118.864315095827,1.0046236180694603,-0.018217573687989663,0.019836044671764853,0.001950305547151669
19952.623149688792,1.005750498548037,-0.02172358023661239,0.019858094954337432,0.0019642031087645567
15848.93192461114,1.0070682339148664,-0.026048692141115028,0.01988388008619052,0.001984506831603927
12589.254117941662,1.008674858323794,-0.03137663937905528,0.019915318546941074,0.002014172243775672
10000.0,1.0107028703215686,-0.03790522615892029,0.01995500337677668,0.0020572207765085448
7943.282347242814,1.0133198930453746,-0.04584346163815776,0.02000621522620467,0.0021188834278577534
6309.57344480193,1.0167289337500545,-0.05541065869684887,0.02007292763968452,0.0022056240647720412
5011.8723362727205,1.021169972339843,-0.06683765345188768,0.020159838451638285,0.0023249885168401363
3981.0717055349687,1.0269248670520488,-0.08036927177970024,0.02027246624522086,0.0024852681227242115
3162.2776601683795,1.0343273722833606,-0.09626594837224176,0.020417347069534155,0.0026950275551885115
2511.8864315095802,1.0437793289084982,-0.11480109683847942,0.020602352274586407,0.002962581186100352
1995.2623149688789,1.0557726330987058,-0.1362495505330551,0.020837119912410315,0.0032954641620131634
1584.8931924611124,1.0709141068467223,-0.16086144455309748,0.021133543600043804,0.0036998416822313822
1258.9254117941662,1.0899465955334213,-0.1888160257371112,0.021506188374755725,0.004179705887437363
1000.0,1.1137546906076532,-0.2201523959753682,0.021972406414663262,0.004735709967271539
794.3282347242813,1.1433388603470496,-0.2546808031743203,0.0225518346177913,0.005363627381590505
630.957344480193,1.1797409092327595,-0.29188962884022,0.02326493821488748,0.006052687931765151
501.187233627272,1.2239114826850253,-0.3308773589614879,0.024130416161984976,0.006784355181685095
398.10717055349687,1.276529893899453,-0.37034829308908573,0.025161666681418643,0.007532315067805391
316.227766016838,1.3378141276141664,-0.4087053532716335,0.02636305283084056,0.008264344284348087
251.18864315095797,1.4073818150601416,-0.4442470019865643,0.02772716086818991,0.008946206147882866
199.5262314968879,1.4842248575734582,-0.4754333964553078,0.02923428522356117,0.009546894484656827
158.48931924611125,1.5668314940952663,-0.5011476725390653,0.030854809740359566,0.01004377342423714
125.89254117941664,1.6534364492216913,-0.5208649292956751,0.032554110623830096,0.010425899900085843
100.0,1.7423265872124671,-0.5346677561819764,0.03429855817906482,0.010694332855652387
79.43282347242804,1.8321056975791437,-0.5431036957938205,0.03606072303534103,0.010859343748826774
63.09573444801929,1.9218405897268092,-0.5469372557672011,0.03782225466604087,0.010935564503898862
50.11872336272725,2.0110577905621208,-0.5468789411076355,0.039573825455746815,0.010936691296199206
39.81071705534969,2.0996090589057728,-0.5433694630748044,0.04131249579529448,0.010871273304820794
31.622776601683796,2.1874562411191976,-0.5364711257550607,0.04303749183841508,0.010740599698004795
25.118864315095767,2.2744387711281475,-0.525886116967742,0.044745639598762224,0.0105390663977056
19.95262314968879,2.36008565390281,-0.5110915541510862,0.04642767085120153,0.010256823105788532
15.848931924611108,2.4435224194264134,-0.4915553834383946,0.04806639354354828,0.009884000951427295
12.589254117941664,2.523502490346682,-0.4669765173460773,0.049637306079990395,0.009415416316715514
10.0,2.5985610386841778,-0.43748195649738725,0.051111618476882816,0.008854434763423107
7.943282347242805,2.6672527145649445,-0.40372130392751593,0.05246092221067869,0.008214823672943374
6.30957344480193,2.728405980272065,-0.36682874881745353,0.05366218727040692,0.007519998069317791
5.011872336272715,2.78132110112377,-0.3282656372968225,0.05470165290459955,0.006799903196521922
3.981071705534969,2.8258605752871215,-0.2895945112721613,0.055576605311308376,0.006086514955040441
3.1622776601683795,2.862419415083677,-0.2522516934890148,0.05629479456113804,0.005409257441231839
2.5118864315095766,2.891800540746279,-0.21737613530445504,0.05687198686408722,0.004791460104168837
1.9952623149688788,2.9150434377540657,-0.1857250486313408,0.057328598221739545,0.0042484608784178176
1.584893192461111,2.9332564980135025,-0.15767500925746414,0.057686400201503854,0.003787368147280966
1.2589254117941662,2.9474883759374078,-0.13328355699975103,0.057965992127281464,0.003408070548491624
1.0,2.958651300967343,-0.11237806785197432,0.05818529405463084,0.0031049480380040432
0.7943282347242805,2.9674907660817462,-0.09464437385680706,0.058358950945652154,0.0028688220041419403
0.6309573444801929,2.974587171092727,-0.07969964060030633,0.05849836472622645,0.002688820480012638
0.5011872336272715,2.980374765015962,-0.06714492263397552,0.058612066279665725,0.0025539309902602864
0.3981071705534969,2.9851672385216528,-0.056599281141151786,0.05870621814322233,0.002454093745787479
0.31622776601683794,2.9891838437680294,-0.04771970038255764,0.05878512760156369,0.002380795489561501
0.2511886431509577,2.9925732459465726,-0.04021097782057057,0.05885171523987205,0.002327237396449155
0.1995262314968879,2.995434193800021,-0.03382877495167097,0.05890792101616887,0.002288216929380481
0.1584893192461111,2.9978328929510765,-0.028377955729700807,0.05895504556538738,0.0022598666223244556
0.12589254117941662,2.999817121346374,-0.02370757117890798,0.05899402750412572,0.0022393563494553332
0.1,3.00142700583858,-0.01970346971874039,0.05902565514320243,0.0022246213416361295
0.07943282347242805,3.002702261107185,-0.016279483202622947,0.05905070870112781,0.002214143440212846
0.0630957344480193,3.0036857790663296,-0.013368318064604588,0.059070030820237,0.0022067909557860446
0.05011872336272714,3.0044238384984654,-0.010913438410666106,0.05908453068427787,0.0022017100162269147
0.039810717055349686,3.0049637923361283,-0.008863106123004172,0.059095138582110164,0.0021982543240563887
0.031622776601683784,3.0053506016400418,-0.00716720136707045,0.059102737813726644,0.0021959391744739527
0.02511886431509577,3.005623674993479,-0.005776620381519098,0.05910810259657196,0.0021944082686158268
0.019952623149688792,3.0058150093341007,-0.004644340522616869,0.05911186153997784,0.0021934064848402957
0.01584893192461111,3.00594887455748,-0.003727026766640343,0.05911449144860222,0.0021927560704513775
0.01258925411794166,3.006042681673317,-0.002986334845330563,0.059116334378000325,0.0021923361740039515
0.01,3.006108452065644,-0.0023895332782866547,0.059117626499533026,0.0021920662205730658
