freq,Zreal,Zimag,sigma_re,sigma_im
1000000.0,1.0016216476708053,0.002762381326215806,0.010077747019587725,0.010077746973130209
794328.2347242822,1.0014188686556358,0.00219857520867565,0.01007572200749139,0.01007572196104322
630957.344480193,1.0011868864937474,0.0016590321089146585,0.010073405371162646,0.01007340532472522
501187.2336272725,1.0009404942108255,0.0010997077958804057,0.010070944837907358,0.010070944791481374
398107.17055349686,1.0007007812233566,0.00048353431857296606,0.010068551011665495,0.010068550965250668
316227.7660168379,1.000493151072587,-0.00021870595089463872,0.010066477577109122,0.010066477530703988
251188.6431509582,1.0003447511294488,-0.0010284711788736411,0.010064995632230858,0.010064995585832705
199526.2314968879,1.0002818725703704,-0.001960617791776031,0.010064367724847116,0.01006436767845203
158489.3192461114,1.0003277792112362,-0.003025497936445792,0.010064826172403805,0.010064826126006822
125892.5411794166,1.0005012714315928,-0.0042317289967163585,0.010066558722816562,0.010066558676411878
100000.0,1.0008161143771137,-0.005589308822252513,0.01006970284604946,0.01006970279963068
79432.82347242821,1.0012812858384768,-0.007112778879617957,0.010074348210782723,0.010074348164343102
63095.7344480193,1.001901869631523,-0.008824247647069577,0.010080545606820883,0.010080545560353524
50118.72336272724,1.0026803753583144,-0.0107562466166315,0.010088320125306556,0.010088320078804567
39810.71705534969,1.003618322476101,-0.012954546922388562,0.010097686978688866,0.010097686932145451
31622.776601683792,1.0047180676278742,-0.015481158525249488,0.010108669750895256,0.010108669704303762
25118.864315095827,1.0059850328994904,-0.018417731553451434,0.010121322653058906,0.010121322606412785
19952.623149688792,1.0074306550608325,-0.021869478185717987,0.010135759982283459,0.010135759935576173
15848.93192461114,1.009076481316686,-0.02596955849390041,0.010152197034893801,0.010152196988118593
12589.254117941662,1.0109598708676097,-0.030883663748250457,0.010171007064051926,0.010171007017201479
10000.0,1.0131417352799088,-0.036814314121857886,0.010192798610734301,0.0101927985638002
7943.282347242814,1.0157166903945027,-0.04400416770300181,0.010218516937991038,0.01021851689096301
6309.57344480193,1.018825914126215,-0.05273738147400713,0.010249572520222256,0.010249572473087165
5011.8723362727205,1.0226728769765416,-0.06333770672869758,0.01028799827294996,0.010287998225690485
3981.0717055349687,1.0275418157530243,-0.0761614813166516,0.010336634260407566,0.010336634213000542
3162.2776601683795,1.03381812184036,-0.0915830283413342,0.010399331651324093,0.010399331603738383
2511.8864315095802,1.0420084060763335,-0.10996944000839334,0.01048115363516921,0.010481153587362985
1995.2623149688789,1.052755702516068,-0.1316419519973988,0.010588528049802976,0.010588528001720087
1584.8931924611124,1.066842462771191,-0.1568230860292841,0.010729278374101729,0.010729278325666851
1258.9254117941662,1.0851720963574465,-0.1855732436481724,0.010912440702285956,0.010912440653398114
1000.0,1.1087211389905802,-0.21772688814364444,0.011147787368162606,0.011147787318686922
794.3282347242813,1.1384602984435022,-0.2528440324938342,0.011445039225379247,0.01144503917513738
630.957344480193,1.1752523574922529,-0.29019357910152416,0.011812845583600072,0.011812845532360826
501.187233627272,1.2197439081391646,-0.32877935617021176,0.012257700740953243,0.012257700688426016
398.10717055349687,1.2722719274373584,-0.3674096101667086,0.012783006877647603,0.012783006823481907
316.227766016838,1.3328041592335853,-0.4048003579091204,0.013388473412966914,0.013388473356760617
251.18864315095797,1.4009257164169497,-0.43969532083789326,0.014069978145779986,0.014069978087096783
199.5262314968879,1.4758752464603564,-0.47098125374779987,0.014819925000650776,0.014819924939044703
158.48931924611125,1.55662393038171,-0.49777787621680936,0.015628032086041632,0.01562803202108414
125.89254117941664,1.6419813777889782,-0.5194867796708651,0.016482390938496697,0.016482390869801206
100.0,1.7307067399913691,-0.5357931030736764,0.01737057968898248,0.017370579616222386
79.43282347242804,1.8216033049093203,-0.5466250257752057,0.018280611899233037,0.018280611822151394
63.09573444801929,1.9135806651082354,-0.5520856006311231,0.019201561083858024,0.019201561002269486
50.11872336272725,2.005678054809919,-0.5523762239056649,0.020123796253228264,0.020123796167015612
39.81071705534969,2.0970522968412846,-0.547730325025386,0.021038862635214924,0.021038862544323113
31.622776601683796,2.186941291696906,-0.5383709214333087,0.021939116969443985,0.021939116873874346
25.118864315095767,2.274617943187252,-0.5244986213678118,0.022817266596798422,0.022817266496604736
19.95262314968879,2.359349917043071,-0.5063092723760714,0.023665966668947127,0.02366596656423413
15.848931924611108,2.4403782243552756,-0.4840338926455754,0.024477605740464432,0.024477605631388163
12.589254117941664,2.5169228487943167,-0.45798856302738344,0.025244362185121216,0.02524436207188966
10.0,2.588217066113276,-0.42861938570018426,0.025958548030875748,0.02595854791374806
7.943282347242805,2.6535647475127577,-0.39652829122475974,0.026613183072841405,0.026613182952123917
6.30957344480193,2.712408497770858,-0.36246979207832963,0.027202677566171354,0.027202677442209475
5.011872336272715,2.7643929626206267,-0.3273160051712529,0.02772346654534692,0.027723466418512924
3.981071705534969,2.8094083813202637,-0.2919953840576206,0.028174446229244157,0.028174446099922063
3.1622776601683795,2.847604272961749,-0.25741708501251725,0.028557111183816136,0.028557111052385443
2.5118864315095766,2.8793703729898814,-0.22439588642728447,0.028875363335312286,0.02887536320213283
1.9952623149688788,2.905289338158245,-0.19359159526771108,0.0291350380949439,0.029135037960343634
1.584893192461111,2.926071397371989,-0.16547260851157042,0.029343249565996356,0.02934324943026323
1.2589254117941662,2.942483824642493,-0.1403071235309838,0.029507683850776352,0.02950768371415461
1.0,2.9552873805607955,-0.11817912250908363,0.029635962165647352,0.029635962028337813
0.7943282347242805,2.9651881572137015,-0.09902149495973908,0.029735158285869468,0.02973515814803272
0.6309573444801929,2.972808040001547,-0.08265681181257806,0.029811502524316934,0.02981150238607833
0.5011872336272715,2.9786722516696926,-0.06883741422939861,0.029870256871976267,0.0298702567334316
0.3981071705534969,2.9832096239069674,-0.05727946247983893,0.02991571767128085,0.029915717532501985
0.31622776601683794,2.9867606058849843,-0.04768880486593569,0.02995129581925942,0.029951295680299413
0.2511886431509577,2.9895888623105806,-0.03977887416440799,0.029979632944650104,0.02997963280554756
0.1995262314968879,2.9918936941078718,-0.03328201844332588,0.03000272583486308,0.030002725695645778
0.1584893192461111,2.9938217780715948,-0.02795596458663154,0.030022044045389572,0.03002204390607739
0.12589254117941662,2.9954776060343504,-0.023586919842221537,0.03003863448360686,0.030038634344214044
0.1,2.9969325084284093,-0.01999045266253236,0.030053211812363992,0.030053211672900974
0.07943282347242805,2.9982323740258083,-0.017010926725743725,0.030066235792432606,0.03006623565290733
0.0630957344480193,2.9994042375935868,-0.0145199820825509,0.03007797728382866,0.030077977144247585
0.05011872336272714,3.000461884468205,-0.012414367611601876,0.030088574398421514,0.030088574258790295
0.039810717055349686,3.0014105713004273,-0.010613318667890686,0.030098079797888606,0.03009807965821255
0.031622776601683784,3.002250918311388,-0.009055624671293422,0.030106499691218213,0.030106499551502547
0.02511886431509577,3.0029820052622096,-0.007696513704512643,0.030113824854206717,0.030113824714456647
0.019952623149688792,3.003603701392782,-0.0065044722951303445,0.030120053973949252,0.030120053834169967
0.01584893192461111,3.0041182668186903,-0.0054581032911443905,0.030125209693842196,0.030125209554038745
0.01258925411794166,3.004531258844172,-0.004543104303029755,0.030129347694257378,0.030129347554434544
0.01,3.0048517494396294,-0.0037494483968741146,0.030132558871446072,0.030132558731608212
