freq,Zreal,Zimag,sigma_re,sigma_im
1000000.0,0.9979285024865794,-0.0004665790012530003,0.003633409042251318,0.0036237117377457104
794328.2347242822,0.9979832874203316,-0.0005422313211264847,0.0036335593224031118,0.0036238613546371134
630957.344480193,0.9980449941552826,-0.0006231550335324187,0.003633728592133658,0.003624029877391183
501187.2336272725,0.9981110294165795,-0.0007111251903011998,0.003633909738443183,0.0036242102244892138
398107.17055349686,0.9981786504995738,-0.000809793297994545,0.0036340952380032976,0.003624394905938849
316227.7660168379,0.9982454318992672,-0.0009247186551043005,0.003634278437169537,0.0036245772976546266
251188.6431509582,0.9983095279854797,-0.0010633216138084209,0.00363445427265084,0.0036247523589768974
199526.2314968879,0.9983697641296917,-0.001234900762352887,0.0036346195216544193,0.003624916881763856
158489.3192461114,0.998425614376002,-0.0014507794878330313,0.0036347727407975007,0.0036250694296566096
125892.5411794166,0.9984771015305136,-0.0017246222971035923,0.0036349139921544723,0.0036252100654693424
100000.0,0.998524654217086,-0.0020729687679628046,0.0036350444511966274,0.0036253399610717057
79432.82347242821,0.9985689711512298,-0.0025160256867631263,0.003635166034487382,0.003625461027062729
63095.7344480193,0.9986109395055478,-0.0030787370914481488,0.003635281175744605,0.003625575690351575
50118.72336272724,0.9986516310781489,-0.0037921504648715915,0.0036353928153445166,0.003625686884545786
39810.71705534969,0.9986923866332669,-0.004695120451910356,0.0036355046317380737,0.003625798281672081
31622.776601683792,0.998735002521706,-0.005836417215158311,0.003635621553509538,0.003625914804072759
25118.864315095827,0.9987820398418886,-0.007277333269457872,0.00363575060770023,0.003626043472303525
19952.623149688792,0.9988372926638496,-0.009094926242855721,0.003635902204666522,0.0036261946895679363
15848.93192461114,0.9989065026363475,-0.011386086053125416,0.0036360920991876143,0.0036263842024677425
12589.254117941662,0.9989984902590909,-0.014272646746253717,0.0036363444953440406,0.003626636205298002
10000.0,0.9991269686030575,-0.017907779103124587,0.0036366970251651264,0.003626988317447301
7943.282347242814,0.999313430235218,-0.02248392687805841,0.003637208675032066,0.0036274995075040468
6309.57344480193,0.9995917092547977,-0.02824258156111852,0.003637972315850767,0.0036282626195395414
5011.8723362727205,1.0000151696172557,-0.03548617732043508,0.0036391344579338536,0.0036294241213272
3981.0717055349687,1.000668001272126,-0.04459226108567193,0.00364092632300444,0.0036312151644756767
3162.2776601683795,1.001682886074403,-0.0560297480466596,0.0036437125071403184,0.003634000225311589
2511.8864315095802,1.0032684176678486,-0.07037628991947714,0.0036480666852331013,0.0036383527663438413
1995.2623149688789,1.0057511630533726,-0.08833412591210804,0.0036548881669481305,0.0036451717043595898
1584.8931924611124,1.009638952029905,-0.1107384806262031,0.0036655783219102602,0.0036558576492843682
1258.9254117941662,1.0157130580791953,-0.13854638469230626,0.0036823000743025007,0.0036725719959194384
1000.0,1.0251550598696761,-0.17278311946053532,0.003708341071572135,0.003698599223949517
794.3282347242813,1.0397038849598919,-0.21440739262414973,0.003748577494954453,0.0037388088921301455
630.957344480193,1.0618093583707044,-0.26403836925906116,0.003809961352757923,0.003800139393987521
501.187233627272,1.094686482956387,-0.3214851813685532,0.003901783893067737,0.0038918553665016065
398.10717055349687,1.1420781965124633,-0.38507768903866546,0.004035175141020867,0.004025039538825299
316.227766016838,1.2074619567052531,-0.4509853160651044,0.00422101165138187,0.004210496669161033
251.18864315095797,1.29256427754819,-0.513036652609258,0.004465630907617996,0.004454480271644696
199.5262314968879,1.3955908675805286,-0.5637620116455501,0.004765280997077348,0.00475318068697288
158.48931924611125,1.5103620612664144,-0.5969166962172875,0.00510283357077015,0.005089487663962292
125.89254117941664,1.6276272784687338,-0.6104343705131106,0.005451059458447085,0.0054362830083997705
100.0,1.7384247942519253,-0.6077742054547132,0.005782633537191642,0.005766401831021867
79.43282347242804,1.8375310693309763,-0.5965058513595961,0.006080984854231394,0.006063407698663478
63.09573444801929,1.924959485956616,-0.5850976162707477,0.006345369411876514,0.006326614473447064
50.11872336272725,2.005173170392055,-0.5798621132736789,0.006588796748872305,0.006569008411611639
39.81071705534969,2.0850416971206966,-0.5831674292300015,0.006831904696930742,0.0068111479872617455
31.622776601683796,2.171485638418405,-0.5928957122665282,0.007095759238794247,0.007073996098831479
25.118864315095767,2.2691212181540727,-0.6029484392940909,0.007394589391162592,0.007371688066458768
19.95262314968879,2.3782013855680217,-0.6049852109755333,0.007729351366594619,0.0077051317849348615
15.848931924611108,2.4937734843528094,-0.5914341632178165,0.008084949930273201,0.008059259449734202
12.589254117941664,2.607095495935277,-0.5587070220542265,0.008434425043235012,0.008407215052961898
10.0,2.7090259564093815,-0.508675065193428,0.008749367192436635,0.008720728117698985
7.943282347242805,2.79338357351518,-0.4474002381729305,0.009010397248750227,0.00898053393711043
6.30957344480193,2.858306296317995,-0.3822291015909257,0.009211506242135861,0.009180676897512934
5.011872336272715,2.9054360699443746,-0.3192740441569088,0.009357609082208587,0.00932606624725597
3.981071705534969,2.9381782676354193,-0.26235140932903417,0.009459162387395473,0.009427118141466292
3.1622776601683795,2.9602248710550416,-0.21314007586805517,0.009527565476225007,0.009495181103579295
2.5118864315095766,2.9747586061889963,-0.17184780850515666,0.00957266871148035,0.00954005909804396
1.9952623149688788,2.9842101841322295,-0.13787299688107668,0.009602004451927654,0.009569247992340123
1.584893192461111,2.9903077004351446,-0.11027226253325412,0.009620931622232988,0.00958808033692073
1.2589254117941662,2.994226809229918,-0.08803277898054694,0.009633097561527087,0.009600185353163667
1.0,2.9967456826669925,-0.0702073157230337,0.009640917099253282,0.009607965808061222
0.7943282347242805,2.9983706617879644,-0.0559682462323844,0.009645961772920994,0.009612985362694752
0.6309573444801929,2.999427750913764,-0.04461915861584247,0.009649243509835134,0.00961625086276976
0.5011872336272715,3.000125500398254,-0.03558680009533664,0.009651409698254499,0.00961840644220366
0.3981071705534969,3.000596801408796,-0.028405499207744073,0.009652872879726456,0.009619862567861103
0.31622776601683794,3.0009261260262985,-0.02270003589769407,0.009653895292502448,0.009620880159118116
0.2511886431509577,3.0011670890121986,-0.018169596766571084,0.009654643383007342,0.00962162482544496
0.1995262314968879,3.00135370046385,-0.014573773393342322,0.009655222736357228,0.009622201621255256
0.1584893192461111,3.00150754186482,-0.011720785392799672,0.009655700353247147,0.00962267721071691
0.12589254117941662,3.001642321975875,-0.00945778525013529,0.00965611879336873,0.009623093939981252
0.1,3.0017667601170284,-0.00766297982802472,0.009656505126497638,0.009623478743190953
0.07943282347242805,3.00188640526724,-0.006239270861024074,0.009656876579913225,0.009623848761430522
0.0630957344480193,3.002004767486068,-0.00510913289483216,0.009657244050936393,0.009624214837474995
0.05011872336272714,3.002123983080602,-0.00421049308977034,0.009657614171968792,0.009624583570153809
0.039810717055349686,3.0022451395517455,-0.003493438641157323,0.009657990319295739,0.009624958317494582
0.031622776601683784,3.0023683413408127,-0.0029176445701950744,0.009658372817177963,0.00962533939882993
0.02511886431509577,3.0024926030262047,-0.0024504736000620134,0.009658758606239161,0.009625723763622107
0.019952623149688792,3.0026157091538654,-0.002065720850598861,0.009659140808260658,0.009626104557363463
0.01584893192461111,3.002734246065779,-0.0017429209528121077,0.009659508824969545,0.009626471219692746
0.01258925411794166,3.0028440149324394,-0.0014669939036049144,0.009659849620343022,0.00962681076179816
0.01,3.002940888170337,-0.0012278500246197123,0.009660150379494453,0.009627110415420144
