freq,Zreal,Zimag,sigma_re,sigma_im
1000000.0,0.9999745622438792,0.00826010822392794,0.010528107551179618,0.008855880550843586
794328.2347242822,1.000014631722279,0.0063989421036846714,0.010528516685876892,0.00885617032958841
630957.344480193,1.000062073203801,0.004895275279999621,0.010529001100103054,0.008856541472558963
501187.2336272725,1.0001158033298703,0.003672146101527057,0.010529549730565456,0.0088569778433136
398107.17055349686,1.000174245188794,0.0026667982329263906,0.010530146474846017,0.008857461682321013
316227.7660168379,1.0002356241506467,0.0018271465486997048,0.01053077321189623,0.00885797518451634
251188.6431509582,1.0002982828882483,0.0011090152252716935,0.010531413018550406,0.008858502586675207
199526.2314968879,1.0003609159372033,0.0004739740898214446,0.010532052564542888,0.008859031792082155
158489.3192461114,1.0004226649765355,-0.00011243451745120451,0.010532683085404265,0.008859554955547178
125892.5411794166,1.0004830855341942,-0.0006822822173815333,0.010533300042505545,0.00886006807327477
100000.0,1.0005420546764219,-0.001266809481310524,0.010533902180495713,0.008860570142082051
79432.82347242821,1.0005997038325796,-0.0018980320899506826,0.010534490841400613,0.008861062590729735
63095.7344480193,1.000656425445783,-0.002610431967757189,0.010535070032568993,0.008861549397102018
50118.72336272724,1.0007129536095614,-0.0034427669919364205,0.010535647250114211,0.008862037905330387
39810.71705534969,1.0007704974456553,-0.004440072620434988,0.01053623484093319,0.008862540190419307
31622.776601683792,1.0008309171997085,-0.00565597321053136,0.010536851800974247,0.00886307493437805
25118.864315095827,1.0008969695077063,-0.0071554595446664555,0.010537526279900136,0.008863670119338325
19952.623149688792,1.0009727035797444,-0.009018310518074772,0.010538299626935057,0.0088643673617777
15848.93192461114,1.0010641459177674,-0.011343338286328067,0.010539233383244428,0.008865229262954718
12589.254117941662,1.0011804587985136,-0.014253640807470973,0.010540421112524855,0.008866351674371928
10000.0,1.0013358255348577,-0.01790307582757355,0.010542007653888633,0.008867883538277088
7943.282347242814,1.001552445946643,-0.022484213882724587,0.010544219713463589,0.00887005835686559
6309.57344480193,1.0018652485082977,-0.02823805509679575,0.010547413990024963,0.00887324367237315
5011.8723362727205,1.0023292792657528,-0.035465772172927214,0.010552152644305932,0.00887801858601789
3981.0717055349687,1.003031273309744,-0.044542600810945424,0.01055932150196433,0.008885294883487932
3162.2776601683795,1.0041077150065822,-0.05593359943006068,0.010570314572938642,0.008896505288723246
2511.8864315095802,1.0057727912785623,-0.0702101055968231,0.010587319729573625,0.008913892857083903
1995.2623149688789,1.0083610238132923,-0.0880639088463573,0.01061375460389552,0.008940947540743614
1584.8931924611124,1.012390783451487,-0.1103126897836922,0.01065491649006069,0.008983044991584956
1258.9254117941662,1.0186553900520223,-0.13788396588691737,0.010718915693402593,0.009048335003827785
1000.0,1.02834548848661,-0.17175429419347488,0.010817932093941128,0.00914886978732285
794.3282347242813,1.0431941864464174,-0.21280572713497345,0.010969711864433775,0.009301792585477142
630.957344480193,1.0656052804773128,-0.26154790531580024,0.011198904926712794,0.009530040819498832
501.187233627272,1.098664689528241,-0.31766131008651183,0.011537227113373598,0.009861437207892093
398.10717055349687,1.1458542837634351,-0.37938772577082236,0.012020590106719992,0.010324537894121131
316.227766016838,1.210253772191707,-0.4429772162107399,0.01268096443096246,0.010940051770384788
251.18864315095797,1.2931844219911355,-0.5026642719565414,0.013532422358204557,0.011709128141856697
199.5262314968879,1.3927393246990452,-0.5517354074259792,0.014555863421115535,0.012603935057759984
158.48931924611125,1.5032138977310767,-0.5847642980807772,0.015692902482740485,0.013568291930902383
125.89254117941664,1.61636823971116,-0.6000540140911669,0.016858697647724297,0.014532406835099631
100.0,1.7242957547359308,-0.6006841044126654,0.017971540429406175,0.015436565491175544
79.43282347242804,1.8223368252086252,-0.5933042957002869,0.018983073147051017,0.016251472469242828
63.09573444801929,1.9104241145392884,-0.5854077704696709,0.019892342663409467,0.01698521205821914
50.11872336272725,1.9924930502871019,-0.5826192269219216,0.02073981038928816,0.0176760411792334
39.81071705534969,2.074686640638239,-0.5869975548040041,0.021588839581404118,0.018376871236320553
31.622776601683796,2.1631581877272117,-0.596498551872936,0.022502988171535888,0.0191370283969807
25.118864315095767,2.2618788473156877,-0.6055035510088422,0.023523327884752487,0.0199844324771579
19.95262314968879,2.3708429535380358,-0.6064913987640153,0.0246498498852284,0.020912191042393006
15.848931924611108,2.485448470588639,-0.592720067124714,0.025835000115177448,0.021876330466680034
12.589254117941664,2.597782159484784,-0.560958031334721,0.026996920789522493,0.022809230560520553
10.0,2.699490509249351,-0.512753031869465,0.028049136274876145,0.023643966979673574
7.943282347242805,2.7846733509752375,-0.45346663447679075,0.028930517536583687,0.024336320896998068
6.30957344480193,2.8512264711767714,-0.38986514049530535,0.029619212918965333,0.024873297911723557
5.011872336272715,2.9003437908246963,-0.32784908828164916,0.030127520766584332,0.025267558816878068
3.981071705534969,2.935068165933806,-0.2713216686860807,0.030486897196902868,0.025545370940262303
3.1622776601683795,2.9589133107337884,-0.22216494498563452,0.030733688944380694,0.025735814432859726
2.5118864315095766,2.9750314074772444,-0.18077517323046924,0.03090051151678829,0.025864509461255285
1.9952623149688788,2.985899657193868,-0.14667518145626782,0.031012999897857916,0.025951400746858942
1.584893192461111,2.9933157702374693,-0.1189819105885013,0.03108975888944677,0.026010884992376807
1.2589254117941662,2.99851881272599,-0.09669582564160671,0.031143612381202283,0.026052852725763402
1.0,3.0023319829256367,-0.07885421266073835,0.031183080418294203,0.026083859114028395
0.7943282347242805,3.005285337101606,-0.06459971873455762,0.031213649140618447,0.026108114029317606
0.6309573444801929,3.007708786957035,-0.05320246893517455,0.031238733205140094,0.02612822701249665
0.5011872336272715,3.009798550336294,-0.04405930865560758,0.0312603635192763,0.026145738229940384
0.3981071705534969,3.01166352815918,-0.036683033718650566,0.0312796672369997,0.026161489276197686
0.31622776601683794,3.0133576080225626,-0.030687977382918494,0.03129720210491262,0.026175882327028402
0.2511886431509577,3.0149023541851308,-0.02577477673996043,0.03131319130991213,0.026189063163689557
0.1995262314968879,3.0163029987874648,-0.021715407829362474,0.031327688994816964,0.02620105096354535
0.1584893192461111,3.017559454576522,-0.018338889482896723,0.031340694245746745,0.026211828114179308
0.12589254117941662,3.01867330401306,-0.015517921998988542,0.03135222343364579,0.02622139722412426
0.1,3.0196513558323956,-0.013156830665833055,0.031362347027124794,0.026229809732641492
0.07943282347242805,3.0205063188150105,-0.011181308246717285,0.03137119656646648,0.026237170412062045
0.0630957344480193,3.0212553021835453,-0.00953044585648618,0.03137894914149344,0.02624362359561027
0.05011872336272714,3.0219170487601934,-0.00815133842586318,0.03138579875237635,0.026249328766470386
0.039810717055349686,3.022508873312873,-0.006996194001644435,0.03139192461879289,0.026254433785644224
0.031622776601683784,3.0230441340459007,-0.006021513656389392,0.03139746500750227,0.026259052835788197
0.02511886431509577,3.023530772940817,-0.0051886864705831,0.031402502123387174,0.02626325366578509
0.019952623149688792,3.023971158376181,-0.004465289888468327,0.031407060480195,0.026267056129193164
0.01584893192461111,3.024363226753522,-0.0038264133411287163,0.031411118717141556,0.026270441975007774
0.01258925411794166,3.0247026976019296,-0.0032553538526811834,0.03141463252700657,0.026273373933407396
0.01,3.0249858321532708,-0.0027431244037356213,0.031417563209699,0.026275819510719063
