freq,Zreal,Zimag,sigma_re,sigma_im
1000000.0,0.9996412665780408,0.00040814389108423084,0.002487128498806142,0.0024762278749503254
794328.2347242822,0.9997615678751016,0.00015111207634996792,0.0024871323715179618,0.0024762291335484014
630957.344480193,0.9998869196543461,-4.20616488185214e-05,0.002487136407503271,0.002476230446753727
501187.2336272725,1.0000056860515925,-0.00018131229197370779,0.0024871402319974305,0.002476231691758815
398107.17055349686,1.0001068988182678,-0.0002809252071216469,0.0024871434916169657,0.002476232753112873
316227.7660168379,1.0001833596289083,-0.00035907512979890805,0.0024871459543240894,0.002476233555170063
251188.6431509582,1.0002338063083842,-0.00043580870639167235,0.002487147579293843,0.0024762340847278817
199526.2314968879,1.0002635826541513,-0.0005302783908887835,0.0024871485385623495,0.002476234398004345
158489.3192461114,1.0002837841070145,-0.0006580805589955453,0.002487149189524022,0.0024762346116726985
125892.5411794166,1.000309214668763,-0.0008293467936134694,0.002487150009103186,0.0024762348814488713
100000.0,1.0003556578229975,-0.0010479702625330583,0.002487151505846509,0.002476235373466487
79432.82347242821,1.0004370077624605,-0.001312113863631297,0.0024871541275624143,0.0024762362341467577
63095.7344480193,1.0005627948405424,-0.001615950307612774,0.0024871581816806655,0.002476237564178707
50118.72336272724,1.0007365910366666,-0.0019523992633892595,0.0024871637839160125,0.0024762394017574124
39810.71705534969,1.0009556764213232,-0.002316439863402664,0.0024871708474572696,0.002476241719143393
31622.776601683792,1.0012121539590284,-0.0027084134654621317,0.0024871791187326894,0.002476244434561441
25118.864315095827,1.001495410900655,-0.003136653897346815,0.0024871882565701596,0.0024762474383960595
19952.623149688792,1.001795488001104,-0.0036188609504400992,0.002487197940747792,0.0024762506290846396
15848.93192461114,1.002106633706437,-0.004181899386826729,0.002487207986734152,0.0024762539511307626
12589.254117941662,1.0024302044983178,-0.00486011723352074,0.0024872184395870324,0.0024762574264609195
10000.0,1.0027761973585438,-0.005692719133026626,0.0024872296239245024,0.0024762611716727637
7943.282347242814,1.0031630564841925,-0.006721059579088617,0.002487242138356339,0.002476265397472591
6309.57344480193,1.0036158915998235,-0.007986820738622228,0.0024872567987870046,0.0024762703918373022
5011.8723362727205,1.0041637355193418,-0.009531863108333547,0.002487274550881804,0.002476276493701239
3981.0717055349687,1.004836804195696,-0.011400122573286141,0.002487296382860598,0.0024762840677168795
3162.2776601683795,1.005664792829256,-0.013641390052429331,0.0024873232721091387,0.0024762934916869035
2511.8864315095802,1.0066770143816999,-0.016316316049449255,0.002487356191899385,0.0024763051662136048
1995.2623149688789,1.0079047357580244,-0.019501698881652093,0.002487396190204829,0.0024763195516870917
1584.8931924611124,1.0093855628419273,-0.023295135848628613,0.002487444536682413,0.002476337232742854
1258.9254117941662,1.0111693668801707,-0.02781840460518275,0.002487502922745038,0.00247635900691326
1000.0,1.0133251607856704,-0.033219344727155355,0.0024875736974915687,0.0024763859938082325
794.3282347242813,1.0159485334230198,-0.0396723354051473,0.0024876601295478816,0.002476419763899184
630.957344480193,1.0191696374782497,-0.04737756117645514,0.0024877666988168206,0.002476462490760104
501.187233627272,1.0231621503665747,-0.05655904405430125,0.0024878994382265093,0.0024765171355742776
398.10717055349687,1.0281539205091983,-0.06746089301272049,0.002488066358886915,0.002476587675483279
316.227766016838,1.034440014509912,-0.08034043953030907,0.002488277998068013,0.0024766793851248576
251.18864315095797,1.042398451789268,-0.09545599842408593,0.002488548124057752,0.00247679917007466
199.5262314968879,1.0525079134235813,-0.11304606748340879,0.0024888946108376684,0.002476955927640106
158.48931924611125,1.0653649793538107,-0.1332960837708229,0.002489340451726038,0.002477160869518605
125.89254117941664,1.0816957999282637,-0.15628879434706336,0.002489914802664002,0.002477427677863895
100.0,1.1023534719143218,-0.18193562659596754,0.0024906538150984764,0.0024777722828473415
79.43282347242804,1.1282881868454935,-0.20989036610401265,0.002491600819066168,0.002478211964815989
63.09573444801929,1.160474028915734,-0.2394543891772093,0.002492805154922676,0.0024787634508191886
50.11872336272725,1.1997775121901817,-0.2694952611600359,0.002494318697150452,0.002479439790954422
39.81071705534969,1.2467635375821113,-0.29841547212397057,0.0024961890574980517,0.0024802461788972275
31.622776601683796,1.3014585532326675,-0.3242181352439041,0.002498448942486405,0.0024811755541295217
25.118864315095767,1.3631264345267102,-0.3447091589527774,0.0025011025693153985,0.0024822055804052637
19.95262314968879,1.4301460273779099,-0.35783839980651927,0.002504112467963252,0.002483298903179584
15.848931924611108,1.5000832942764912,-0.362116020482764,0.0025073924392036056,0.002484407822341776
12.589254117941664,1.5699988942366532,-0.3569729079160028,0.002510812633091152,0.002485482591372639
10.0,1.6369295710136278,-0.3429184948226,0.0025142186581307794,0.0024864804972625364
7.943282347242805,1.6983876729097225,-0.32142036002941043,0.002517459590114589,0.0024873723215317004
6.30957344480193,1.7527096775134137,-0.29455341157015635,0.0025204146485122278,0.0024881443140092295
5.011872336272715,1.7991628979734506,-0.2645586440330773,0.002523009201207669,0.0024887961479778714
3.981071705534969,1.8378289485156354,-0.2334598630815267,0.002525216638430502,0.0024893367388526513
3.1622776601683795,1.869355779464617,-0.20282778967644718,0.0025270490148846312,0.002489779813415386
2.5118864315095766,1.8946835200935253,-0.17370467425882305,0.002528542587111241,0.00249014036503061
1.9952623149688788,1.9148186563472613,-0.1466486151426577,0.0025297438910711232,0.0024904323525502792
1.584893192461111,1.9306860324246986,-0.1218389030812666,0.0025306994684604917,0.002490667506242995
1.2589254117941662,1.9430529676636672,-0.09919395877461958,0.002531449797923106,0.002490854901626914
1.0,1.9525036362047095,-0.07847478643324511,0.002532026521910065,0.002491000957855324
0.7943282347242805,1.9594411650655599,-0.05936579779070368,0.002532451700882646,0.0024911096089997196
0.6309573444801929,1.9641016844909116,-0.04153618661306138,0.002532738098666499,0.002491182510741981
0.5011872336272715,1.9665728496346784,-0.024689440017379046,0.0025328899749937476,0.0024912192476029596
0.3981071705534969,1.9668165999426224,-0.008608318234667782,0.0025329043162398797,0.002491217591465958
0.31622776601683794,1.9647014443578787,0.006800925810109165,0.002532772792636365,0.0024911739322984305
0.2511886431509577,1.9600524390806964,0.021467898414139104,0.00253248491021787,0.0024910840423960183
0.1995262314968879,1.9527249815606291,0.03513259290427817,0.002532032673498281,0.002490944303990152
0.1584893192461111,1.9426990310701346,0.04735412082674978,0.0025314164358532327,0.00249075337471837
0.12589254117941662,1.930174131879602,0.05757200376688621,0.002530650574855642,0.002490513981446117
0.1,1.9156300541321176,0.0652235782252441,0.002529766721520616,0.002490234223296851
0.07943282347242805,1.8998157764047647,0.06989353558336434,0.0025288123322716894,0.0024899276449138765
0.0630957344480193,1.8836511286715982,0.07144499352403927,0.002527843963996718,0.0024896116393373913
0.05011872336272714,1.8680658389403306,0.07007739377605121,0.0025269171741125235,0.002489304467960802
0.039810717055349686,1.8538348113838414,0.06628628947833884,0.002526076825378449,0.0024890219375768435
0.031622776601683784,1.841469160800516,0.060746837065151986,0.0025253512267147814,0.0024887749658363914
0.02511886431509577,1.8311898535928983,0.054173157336162264,0.002524751324057435,0.0024885687389890605
0.019952623149688792,1.822971441425052,0.047203096939018405,0.0025242738477277366,0.0024884033631539424
0.01584893192461111,1.8166215874748195,0.04033336064719785,0.002523906252630163,0.0024882753735195632
0.01258925411794166,1.8118624216805594,0.03390378572326769,0.0025236315060889252,0.0024881793868833787
0.01,1.8083932191053056,0.028114229388076034,0.002523431646231572,0.0024881094255335408
