freq,Zreal,Zimag,sigma_re,sigma_im
1000000.0,1.0148961751317471,-0.03591422729404312,0.004617817900254555,0.004608428492794279
794328.2347242822,1.018055008108672,-0.04326251605433064,0.004640925406255882,0.004631529753527431
630957.344480193,1.0220496511576627,-0.05177030572515139,0.004671427028052705,0.004662026547106108
501187.2336272725,1.0269916032371638,-0.061592778492328436,0.00471111633161993,0.004701714492853282
398107.17055349686,1.0330171701168998,-0.07294151342491079,0.004762352280949249,0.004752955356947356
316227.7660168379,1.0403203625387554,-0.08608900345096997,0.004828342805785453,0.004818960530073812
251188.6431509582,1.049191789240744,-0.10135785651542269,0.0049134220156597415,0.004904067930101514
199526.2314968879,1.0600589282230035,-0.11909136205213419,0.005023217794890029,0.005013908889889247
158489.3192461114,1.073522062107485,-0.139601722618173,0.005164551953225659,0.005155306985954259
125892.5411794166,1.0903766824641268,-0.16309211537287377,0.005344860049432105,0.005335695800201669
100000.0,1.111607200902116,-0.18955168095886887,0.005570920634702467,0.0055618455956925284
79432.82347242821,1.1383308885625025,-0.21863184418639756,0.005846840144930327,0.0058378459811348074
63095.7344480193,1.171671398811492,-0.24952925516762567,0.006171612771496197,0.0061626652299418445
50118.72336272724,1.2125560220443898,-0.28091978660834205,0.0065370572862835695,0.006528089309720516
39810.71705534969,1.2614623290542863,-0.31099606430610294,0.0069271949432646454,0.006918104654076386
31622.776601683792,1.3181772748608531,-0.33764386320746703,0.007319840250618831,0.007310495112479138
25118.864315095827,1.381653806828138,-0.3587483211487956,0.007690344037926159,0.007680590795492182
19952.623149688792,1.450037676604246,-0.37256481329255553,0.008016471940481999,0.008006150771668843
15848.93192461114,1.5208864857601054,-0.37804860445559174,0.008282829009686389,0.008271789755054711
12589.254117941662,1.591531261562337,-0.3750384877055899,0.00848336001869031,0.008471478021924961
10000.0,1.659474049537595,-0.36424059654999164,0.008621241997256815,0.008608430954484127
7943.282347242814,1.7227070685599948,-0.3470353928230597,0.008706547883729866,0.008692767442171533
6309.57344480193,1.779883003716788,-0.32518992392058876,0.008752824728351951,0.008738081574654633
5011.8723362727205,1.8303310279869696,-0.3005703795163461,0.008773849329036893,0.008758191968799121
3981.0717055349687,1.8739623715123153,-0.2749221283372538,0.008781396922007311,0.00876490576837757
3162.2776601683795,1.9111261956668066,-0.24974132844120464,0.008784252513810405,0.008767027730002975
2511.8864315095802,1.9424663982526424,-0.2262266770975306,0.008788234194812668,0.008770383714714922
1995.2623149688789,1.9688068054706864,-0.20528190585677047,0.00879680511136696,0.008778434577060009
1584.8931924611124,1.9910685849022278,-0.1875391475489165,0.008811874881085563,0.008793080348102049
1258.9254117941662,2.0102083198219267,-0.17338542672704368,0.008834519512463076,0.008815383078983418
1000.0,2.0271632953764844,-0.16299110554383292,0.008865494249430486,0.008846082363842468
794.3282347242813,2.0428011930324828,-0.15634902703189568,0.00890553389487312,0.008885897851515494
630.957344480193,2.0578839714789137,-0.1533289351387336,0.00895550808951879,0.008935686022160074
501.187233627272,2.0730574547797227,-0.15373909709540462,0.00901651312825353,0.008996532709282723
398.10717055349687,2.088868317555466,-0.15737961789386917,0.009089951182102849,0.009069832321412742
316.227766016838,2.1057996423390506,-0.16407545070355123,0.009177606589644864,0.009157363654721395
251.18864315095797,2.1243130329546727,-0.1736854704927912,0.009281700901386787,0.009261344208213826
199.5262314968879,2.1448880337402842,-0.18608972926373193,0.009404893831109375,0.009384430285709074
158.48931924611125,2.168053281820656,-0.20115830453189631,0.009550186721968286,0.009529619518397883
125.89254117941664,2.1944053517155595,-0.21870404454423326,0.009720674121999003,0.00970000137670464
100.0,2.224610133463358,-0.23842050248375712,0.009919082215677435,0.009898294414789913
79.43282347242804,2.2593784153306036,-0.25980735243286546,0.010147043638271302,0.010126119879641937
63.09573444801929,2.299403467977708,-0.2820904949182655,0.010404110126770998,0.010383013443393993
50.11872336272725,2.3452470630020352,-0.3041546424795081,0.010686626987734548,0.010665299603100233
39.81071705534969,2.397167522108465,-0.3245218323479829,0.0109867958955286,0.01096515602455843
31.622776601683796,2.4549062217323625,-0.3414231922347707,0.011292470734947685,0.011270413215348014
25.118864315095767,2.5174888469789787,-0.3530075091117073,0.011588280808982427,0.011565683867199627
19.95262314968879,2.5831386906525164,-0.35768939834591296,0.011858311699092662,0.01183505088941331
15.848931924611108,2.649403634852323,-0.3545602456942305,0.01208974454999789,0.012065712174938958
12.589254117941664,2.7135296140214393,-0.3437069435128339,0.012276001121697367,0.012251126161381637
10.0,2.7729857551901564,-0.3262789527744911,0.012417862309360359,0.012392124104018529
7.943282347242805,2.8259453930967116,-0.3042496050099337,0.012522074110143427,0.012495504633598276
6.30957344480193,2.8715417603612647,-0.27997176236291,0.012598397623385138,0.012571071863718818
5.011872336272715,2.909841504283522,-0.25571573547968374,0.012656708442298494,0.01262872730163428
3.981071705534969,2.94161391638233,-0.23334498261731612,0.012705244356920104,0.012676716515424475
3.1622776601683795,2.9680310610253016,-0.21418262227245624,0.012750141280291656,0.012721169026936647
2.5118864315095766,2.9904084203773342,-0.1990315778769864,0.012795787588816637,0.012766458532933215
1.9952623149688788,3.0100343499057667,-0.18827276470778526,0.012845446061285546,0.012815830060107922
1.584893192461111,3.0280808527425638,-0.18197269105414823,0.012901772136090188,0.012871921664264652
1.2589254117941662,3.045555368971386,-0.17996423415693177,0.012967043999860045,0.012936996344431033
1.0,3.0632479223259956,-0.1819054309349272,0.013043059688803727,0.013012840122975565
0.7943282347242805,3.0816507483654973,-0.18735650649087188,0.013130817524384232,0.01310044341274132
0.6309573444801929,3.100875420672903,-0.19592646428676827,0.013230322271100577,0.013199808475586074
0.5011872336272715,3.1206439992514063,-0.2075027805152494,0.013341018961027674,0.01331038465045606
0.3981071705534969,3.140430149045234,-0.22249188104223677,0.013463152833497714,0.013432428947675103
0.31622776601683794,3.159731124803904,-0.2419391422886937,0.013599746368264274,0.01356898246699294
0.2511886431509577,3.178332376118183,-0.2674621260740916,0.013758463461582255,0.013727733518614617
0.1995262314968879,3.1964281839776536,-0.30108147627532467,0.013952988075282191,0.013922396431045807
0.1584893192461111,3.2145981595955275,-0.3451026635151027,0.014204319077488039,0.01417400834450128
0.12589254117941662,3.233756071005251,-0.4021199538638438,0.014542672737279497,0.014512833876048301
0.1,3.255179514969776,-0.47508950345291817,0.015010148942451626,0.014981030398519935
0.07943282347242805,3.2806418069664964,-0.5673579053581774,0.015663221770263507,0.015635130396147896
0.0630957344480193,3.3125738275276584,-0.6825405143146394,0.01657284454762227,0.01654612815646828
0.05011872336272714,3.3540994143615688,-0.8241960965997698,0.017819283611952695,0.017794288693416812
0.039810717055349686,3.4087102552831023,-0.9953562216325574,0.019480337713366134,0.019457351421522006
0.031622776601683784,3.4793269780556066,-1.198190287221048,0.021616909463365735,0.021596116508155266
0.02511886431509577,3.566707725418964,-1.4344074477115247,0.02426763433916622,0.024249125140308327
0.019952623149688792,3.6678078545568935,-1.7071005574887097,0.027467599931331757,0.027451440536954124
0.01584893192461111,3.775426414771128,-2.0240134912612366,0.03129541045928109,0.031281741892026906
0.01258925411794166,3.880118144188243,-2.4007701397359145,0.03592922787791863,0.03591833748496703
0.01,3.973479703391888,-2.8621684724618848,0.0416799966690325,0.04167232196020591
