freq,Zreal,Zimag,sigma_re,sigma_im
1000000.0,0.999669396659053,0.002497776860969829,0.0024391102177273175,0.00243630516766037
794328.2347242822,0.9997403009945384,0.0019238220102550025,0.0024391118638230503,0.0024363064103664284
630957.344480193,0.9998144963016949,0.0014866234209870341,0.0024391135878286366,0.0024363077155019936
501187.2336272725,0.9998837231879689,0.0011643836510807496,0.0024391151971400542,0.0024363089354740913
398107.17055349686,0.9999385753539105,0.0009365801909347342,0.0024391164725975608,0.0024363099029756368
316227.7660168379,0.9999702630357337,0.0007825422509241767,0.002439117209465194,0.0024363104619647144
251188.6431509582,0.999972371501709,0.0006811088523570109,0.00243911725834099,0.0024363104986368017
199526.2314968879,0.9999422265038567,0.0006111007928969789,0.002439116556938282,0.002436309965491218
158489.3192461114,0.9998816028764003,0.0005527605167674379,0.0024391151465689162,0.002436308893803593
125892.5411794166,0.9997966519835961,0.0004888400766011089,0.002439113170417926,0.002436307392288045
100000.0,0.99969707419765,0.00040488674453027014,0.00243911085422742,0.002436305632413944
79432.82347242821,0.999594714192684,0.00029233428065777436,0.002439108473558744,0.0024363038235446495
63095.7344480193,0.9995018737817184,0.0001463047475995184,0.002439106314512158,0.0024363021830896715
50118.72336272724,0.9994296747383324,-3.4336349871582e-05,0.0024391046356625366,0.002436300907582686
39810.71705534969,0.9993867439073395,-0.00024488135761929774,0.0024391036375298702,0.0024363001494700984
31622.776601683792,0.999378362201918,-0.00048136973648101207,0.0024391034428523696,0.002436300002102673
25118.864315095827,0.9994060792133579,-0.0007397781432238063,0.002439104087676743,0.002436300492961002
19952.623149688792,0.9994677080483478,-0.0010169154510445023,0.0024391055212533977,0.0024363015835751445
15848.93192461114,0.9995576100992304,-0.0013126385097112447,0.0024391076126379853,0.002436303174560403
12589.254117941662,0.9996672389332719,-0.0016311979481947766,0.0024391101632933562,0.002436305115230646
10000.0,0.9997859817537892,-0.0019827744171428256,0.0024391129266124975,0.0024363072184951204
7943.282347242814,0.9999023553136798,-0.0023849179773360284,0.0024391156357180437,0.0024363092820772177
6309.57344480193,1.0000055488611812,-0.002863787324657049,0.002439118039397654,0.002436311115966628
5011.8723362727205,1.0000871758379777,-0.0034550179825576953,0.0024391199429788773,0.002436312573708377
3981.0717055349687,1.000142956774767,-0.0042041486101831215,0.0024391212476896026,0.0024363135826762305
3162.2776601683795,1.0001739806595362,-0.005166716827216545,0.0024391219802911827,0.002436314167164725
2511.8864315095802,1.0001872331011488,-0.006408363249579614,0.0024391223057394587,0.002436314458899525
1995.2623149688789,1.0001952452265304,-0.008005478394611966,0.002439122519526145,0.0024363146925733374
1584.8931924611124,1.0002149721536029,-0.010047032284128142,0.0024391230223519784,0.002436315188657478
1258.9254117941662,1.0002662959879538,-0.01263821642498515,0.0024391242865218106,0.0024363163310160405
1000.0,1.0003708135527931,-0.015906417991521597,0.0024391268297249457,0.0024363185518893166
794.3282347242813,1.0005517927352836,-0.020009879203898184,0.0024391312172290596,0.0024363223413376043
630.957344480193,1.0008363885706262,-0.025149215143485684,0.0024391381186390673,0.0024363283028344253
501.187233627272,1.0012614721990465,-0.03158178590136085,0.0024391484520373337,0.002436337282845415
398.10717055349687,1.0018848484689573,-0.03963870121116042,0.002439163659202793,0.0024363506121205837
316.227766016838,1.0028043457387577,-0.04974384531372867,0.002439186174032062,0.002436370512758709
251.18864315095797,1.004188371487181,-0.0624334731109782,0.002439220175988199,0.0024364007507224963
199.5262314968879,1.0063230801105034,-0.07837314061353763,0.0024392727647496197,0.00243644765035102
158.48931924611125,1.009683071038561,-0.0983651122787694,0.0024393557517228613,0.002436521633535999
125.89254117941664,1.0150335776491122,-0.12333256448220936,0.0024394883293287987,0.0024366394876976743
100.0,1.023569740131195,-0.15425511897027178,0.0024397009128758747,0.002436827559144119
79.43282347242804,1.037086562348457,-0.19201264727598755,0.002440040347407235,0.0024371258999213116
63.09573444801929,1.0581398534384923,-0.23707538615001694,0.0024405761844599515,0.002437592832321701
50.11872336272725,1.090089104973109,-0.2889786733158116,0.0024414063748087007,0.00243830805852868
39.81071705534969,1.136809718922929,-0.3455908702923028,0.002442657830662778,0.0024393700403832403
31.622776601683796,1.2017958173079657,-0.4023946456473091,0.002444472872823768,0.0024408806201654323
25.118864315095767,1.2865406019313874,-0.45234383427091507,0.002446969825302601,0.0024429102259451363
19.95262314968879,1.3886759620295681,-0.4870321051100813,0.0024501745194633905,0.002445446986143188
15.848931924611108,1.5011211991481364,-0.4993578979797268,0.0024539488524695278,0.0024483546123719837
12.589254117941664,1.6134634515485213,-0.4865379013812275,0.002457976237800269,0.0024513794508294134
10.0,1.7153178980499055,-0.4514474665130805,0.002461848146987894,0.002454224930269219
7.943282347242805,1.7996738269724726,-0.40124613304821666,0.0024652127808816445,0.00245665509242181
6.30957344480193,1.864243683858442,-0.34435091822331965,0.0024678843459980896,0.002458559588040413
5.011872336272715,1.91058450531564,-0.2877814831834816,0.0024698527161078356,0.0024599494495001367
3.981071705534969,1.94222639742613,-0.236011757532031,0.0024712209995070896,0.0024609089099520026
3.1622776601683795,1.9630556785038937,-0.19113016464384244,0.0024721322982949137,0.002461544636029543
2.5118864315095766,1.9764262473229695,-0.15356728280422022,0.0024727215898466656,0.0024619540894661174
1.9952623149688788,1.9848801484979819,-0.1228302574129992,0.002473095867447609,0.0024622133331610916
1.584893192461111,1.990196415115351,-0.09802689284120475,0.0024733318853303096,0.0024623764496935372
1.2589254117941662,1.993555627168024,-0.07817303959092087,0.002473481298480642,0.0024624796223520697
1.0,1.9957117219315843,-0.062346025794531065,0.0024735773552636998,0.0024625460293345373
0.7943282347242805,1.9971318474745967,-0.04974653880348197,0.0024736407414400886,0.0024625900199552126
0.6309573444801929,1.9980981785816585,-0.03971224716881038,0.002473683972601683,0.002462620223881852
0.5011872336272715,1.998777534009926,-0.03170881867327158,0.0024737144472360088,0.0024626417027461436
0.3981071705534969,1.9992670266487944,-0.025312188575731892,0.0024737364665002237,0.0024626573700578633
0.31622776601683794,1.999623009394549,-0.02018903700977992,0.0024737525209626754,0.0024626688938061522
0.2511886431509577,1.9998788625366806,-0.01607867351561683,0.0024737640830451895,0.0024626772505722174
0.1995262314968879,2.0000555900145383,-0.012777546336865432,0.0024737720792942217,0.0024626830540639944
0.1584893192461111,2.000167945379732,-0.010126579345961569,0.0024737771631237874,0.0024626867433171933
0.12589254117941662,2.0002278687614616,-0.0080010548466961,0.002473779867436233,0.0024626886867101013
0.1,2.0002463245958086,-0.006302584586538825,0.0024737806857979432,0.0024626892361182106
0.07943282347242805,2.000234145852154,-0.004952722954048946,0.002473780109196095,0.0024626887500745665
0.0630957344480193,2.0002021910218146,-0.0038878911445702803,0.002473778631980862,0.0024626875952291727
0.05011872336272714,2.0001609821122965,-0.0030554256933787247,0.002473776734449064,0.002462686131121667
0.039810717055349686,2.00011997698215,-0.002410676248495974,0.002473774848946762,0.002462684683091735
0.031622776601683784,2.0000866819457643,-0.0019151152699611197,0.0024737733188390856,0.002462683510191737
0.02511886431509577,2.0000658687689716,-0.0015353769405631627,0.002473772362395422,0.002462682777123409
0.019952623149688792,2.0000591705137336,-0.0012430343499170867,0.0024737720541299687,0.002462682539658618
0.01584893192461111,2.0000652583038843,-0.0010147970197782066,0.0024737723328323333,0.002462682750523428
0.01258925411794166,2.000080636896185,-0.0008327214792683546,0.0024737730380071823,0.002462683287017848
0.01,2.0001008709773327,-0.0006840601760539108,0.0024737739660894323,0.002462683993764669
