freq,Zreal,Zimag,sigma_re,sigma_im
1000000.0,0.999409695924068,-7.317048775569188e-05,0.002317838636537123,0.0023171358246241586
794328.2347242822,0.9994220114942222,-7.78287797646877e-05,0.0023178386600419274,0.0023171358308125695
630957.344480193,0.9994338234782006,-8.129203372664956e-05,0.0023178386825858867,0.00231713583674792
501187.2336272725,0.9994443349022925,-8.434726331112018e-05,0.002317838702647865,0.0023171358420298275
398107.17055349686,0.9994531134096727,-8.807905297344985e-05,0.0023178387194025805,0.0023171358464411564
316227.7660168379,0.9994600939276375,-9.366725759405841e-05,0.002317838732725747,0.0023171358499493515
251188.6431509582,0.9994654823539388,-0.00010226584597886984,0.0023178387430102766,0.00231713585265806
199526.2314968879,0.9994696347370259,-0.00011497451072902545,0.002317838750935691,0.002317135854746462
158489.3192461114,0.9994729544695936,-0.00013287988036505999,0.0023178387572718967,0.0023171358564176656
125892.5411794166,0.9994758229117954,-0.00015713878177183742,0.0023178387627467646,0.0023171358578639406
100000.0,0.9994785617992725,-0.00018908259138143363,0.0023178387679743716,0.002317135859247953
79432.82347242821,0.999481417963673,-0.0002303332031706773,0.002317838773425836,0.0023171358606952908
63095.7344480193,0.9994845621544183,-0.0002829305144078259,0.002317838779427064,0.0023171358622941837
50118.72336272724,0.9994880960151683,-0.00034947368046854224,0.002317838786172067,0.0023171358640995004
39810.71705534969,0.9994920572741826,-0.0004332821826708298,0.0023178387937328646,0.0023171358661361365
31622.776601683792,0.9994964146782672,-0.0005385974033705796,0.002317838802049813,0.002317135868397703
25118.864315095827,0.9995010658340553,-0.0006708532246984595,0.002317838810927483,0.0023171358708474242
19952.623149688792,0.9995058693675515,-0.0008370202422527087,0.002317838820096041,0.002317135873437486
15848.93192461114,0.9995107183286868,-0.001045998041833907,0.0023178388293513524,0.0023171358761509887
12589.254117941662,0.9995156152114689,-0.0013090480555145929,0.002317838838698179,0.0023171358790476217
10000.0,0.9995207051517911,-0.001640317053280945,0.002317838848413551,0.0023171358822928973
7943.282347242814,0.9995262697639102,-0.002057532344998985,0.002317838859035006,0.002317135886174869
6309.57344480193,0.9995327228295081,-0.0025829329805294376,0.002317838871352374,0.002317135891133382
5011.8723362727205,0.9995406507778886,-0.003244476683922759,0.002317838886485054,0.0023171358978302642
3981.0717055349687,0.9995509256790495,-0.004077360555809058,0.0023178389060977264,0.002317135907285182
3162.2776601683795,0.9995649095081389,-0.0051259126925741905,0.002317838932790309,0.002317135921103607
2511.8864315095802,0.999584774089833,-0.006445941957983984,0.002317838970708825,0.0023171359418360515
1995.2623149688789,0.9996139832629167,-0.008107667090917035,0.0023178390264661434,0.0023171359735344376
1584.8931924611124,0.9996580225039855,-0.010199382295060887,0.0023178391105356288,0.002317136022615601
1258.9254117941662,0.9997255240769882,-0.012832056430398451,0.002317839239401137,0.0023171360992124738
1000.0,0.9998300378078787,-0.016145101234366868,0.0023178394389427597,0.0023171362193062216
794.3282347242813,0.9999928527519713,-0.020313569206283126,0.0023178397498368306,0.002317136408106766
630.957344480193,1.0002475056409346,-0.02555704191866915,0.002317840236196292,0.002317136705414023
501.187233627272,1.000646957187601,-0.03215041520420137,0.00231784099935481,0.0023171371740929076
398.10717055349687,1.0012749226002857,-0.04043662056518925,0.0023178421997082405,0.0023171379133866085
316.227766016838,1.0022635733812997,-0.05084095139377866,0.0023178440910351645,0.0023171390796412647
251.18864315095797,1.0038208982218462,-0.06388589083334507,0.0023178470740400844,0.002317140918190511
199.5262314968879,1.006272506454674,-0.0802037042930746,0.0023178517793921937,0.0023171438116090077
158.48931924611125,1.0101243798137625,-0.1005407176375712,0.0023178591954258676,0.0023171483508152815
125.89254117941664,1.0161541242304906,-0.1257408843240835,0.0023178708613706208,0.002317155435029281
100.0,1.0255362145096931,-0.15668538903719298,0.00231788915115258,0.0023171664004692687
79.43282347242804,1.0399960133723234,-0.1941488014576474,0.00231791766848228,0.0023171831576507293
63.09573444801929,1.0619574164829029,-0.23851439588044643,0.0023179617433434956,0.0023172082695127947
50.11872336272725,1.0945857954107074,-0.2892894545896531,0.0023180289250373455,0.0023172448156988253
39.81071705534969,1.1415304755805753,-0.3444215231725404,0.0023181291468551144,0.002317295787605905
31.622776601683796,1.206099452942608,-0.3996082776497773,0.002318273861334483,0.002317362782251653
25.118864315095767,1.2897332235056476,-0.4481225542744493,0.002318473122752683,0.0023174441861211694
19.95262314968879,1.3901971948807244,-0.48187893157080086,0.0023187301132354694,0.002317533943710508
15.848931924611108,1.5006941367823465,-0.49398658079845037,0.0023190349816474823,0.002317622538277633
12.589254117941664,1.6111552345454627,-0.4817123004560931,0.0023193630005862837,0.0023177004979750265
10.0,1.7115225250520494,-0.4478226803611107,0.0023196811937185244,0.002317762141740015
7.943282347242805,1.7950251389493084,-0.3992280741424924,0.0023199605343854957,0.0023178067639312984
6.30957344480193,1.8594571717119182,-0.3440152029041156,0.0023201851473439433,0.002317837064358667
5.011872336272715,1.9062798297483767,-0.28889973127235274,0.002320353328119768,0.0023178568310094232
3.981071705534969,1.93881097086025,-0.23816823749247004,0.00232047263054256,0.002317869452100627
3.1622776601683795,1.9607013840185614,-0.19385923869268828,0.00232055404261705,0.0023178774352536945
2.5118864315095766,1.9751133641536258,-0.1564556298979647,0.0023206081392421543,0.0023178824707640634
1.9952623149688788,1.9844661789761124,-0.12556829110054382,0.002320643457144433,0.0023178856484068373
1.584893192461111,1.9904806557455872,-0.10041972942938268,0.002320666256744334,0.0023178876576940544
1.2589254117941662,1.9943274645501952,-0.08012767826485027,0.0023206808752358845,0.0023178889321554806
1.0,1.99678123610015,-0.0638481602638859,0.002320690214657609,0.00231788974412885
0.7943282347242805,1.9983457129833953,-0.05083541490738865,0.0023206961752662413,0.002317890264848681
0.6309573444801929,1.9993449029191965,-0.040458061076719204,0.0023206999845839338,0.0023178906020994722
0.5011872336272715,1.9999857615902865,-0.032194615235333686,0.0023207024287964337,0.0023178908237838254
0.3981071705534969,2.0003998991147283,-0.02562070986578424,0.002320704008717758,0.0023178909727053004
0.31622776601683794,2.0006707789969704,-0.020394135455185723,0.0023207050422922,0.0023178910758562894
0.2511886431509577,2.0008512412087605,-0.016240498014206226,0.00232070573094471,0.0023178911502642592
0.1995262314968879,2.000974723269389,-0.0129405764632341,0.002320706202193922,0.0023178912066932184
0.1584893192461111,2.0010624327951034,-0.010319625789192604,0.002320706536940709,0.002317891252010057
0.12589254117941662,2.0011279128391206,-0.008238508998607461,0.0023207067868573866,0.002317891290692285
0.1,2.0011798994647743,-0.006586442324729211,0.002320706985279773,0.002317891325746355
0.07943282347242805,2.001224057986097,-0.005275146928471237,0.002320707153827935,0.0023178913592164425
0.0630957344480193,2.00126401574421,-0.0042342101446939725,0.0023207073063454646,0.002317891392441143
0.05011872336272714,2.001301993311572,-0.0034074447575609306,0.0023207074513074935,0.0023178914261941224
0.039810717055349686,2.0013392225378643,-0.0027500243716080276,0.0023207075934157436,0.0023178914607919912
0.031622776601683784,2.001376234584983,-0.0022262037234430545,0.002320707734697613,0.0023178914961861636
0.02511886431509577,2.0014130450571965,-0.0018074995532368033,0.0023207078752126207,0.0023178915320239074
0.019952623149688792,2.0014492628622524,-0.0014712595467308894,0.0023207080134677828,0.002317891567678781
0.01584893192461111,2.0014841619641977,-0.0011995631542255896,0.002320708146691386,0.002317891602272916
0.01258925411794166,2.0015167634534388,-0.0009784002038446295,0.002320708271146189,0.0023178916347280968
0.01,2.0015459864587273,-0.000797054355816082,0.0023207083827054917,0.0023178916638976537
