freq,Zreal,Zimag,sigma_re,sigma_im
1000000.0,0.9976920134367208,-0.002283570786148343,0.004871313859460617,0.004871313859315434
794328.2347242822,0.9979378586319254,-0.0026746294467367994,0.004871318218524536,0.004871318218379281
630957.344480193,0.9982388303691812,-0.0031200686417853164,0.004871323556490267,0.004871323556344926
501187.2336272725,0.9986050993834712,-0.0036217960148937213,0.004871330054717047,0.004871330054571601
398107.17055349686,0.9990471255345608,-0.004179382479836666,0.004871337900165469,0.004871337900019894
316227.7660168379,0.999573682569516,-0.00478893452203272,0.004871347250453386,0.004871347250307659
251188.6431509582,1.0001880178676792,-0.005443426908583416,0.004871358165660345,0.00487135816551444
199526.2314968879,1.0008834904496917,-0.006136572880093816,0.004871370530538609,0.0048713705303925015
158489.3192461114,1.0016420950620826,-0.006870569792921841,0.004871384027612544,0.004871384027466217
125892.5411794166,1.002438836374595,-0.007664548382629229,0.00487139821418368,0.004871398214037123
100000.0,1.0032510371211785,-0.008558740458112783,0.004871412687589819,0.004871412687443026
79432.82347242821,1.0040676427280681,-0.009612008659262119,0.0048714272512653065,0.004871427251118278
63095.7344480193,1.004893727585634,-0.010895384851286716,0.0048714419960108665,0.004871441995863601
50118.72336272724,1.0057496041644025,-0.012486695884892823,0.0048714572852516565,0.004871457285104146
39810.71705534969,1.0066678294273923,-0.014469352702366278,0.004871473702701241,0.004871473702553468
31622.776601683792,1.0076918958080914,-0.016934713910405276,0.00487149203015104,0.004871492030002979
25118.864315095827,1.0088783641499763,-0.019985283838734696,0.004871513287285577,0.004871513287137184
19952.623149688792,1.0103018920397828,-0.02373590153122687,0.0048715388245439434,0.004871538824395157
15848.93192461114,1.0120610019480987,-0.028311059058902802,0.004871570431508589,0.004871570431359318
12589.254117941662,1.0142813977409078,-0.0338380243303818,0.004871610404885302,0.004871610404735426
10000.0,1.0171132505092506,-0.040437743916207226,0.0048716615128505565,0.004871661512699915
7943.282347242814,1.02072009429149,-0.048218649371111616,0.004871726813047521,0.00487172681289591
6309.57344480193,1.0252612600039182,-0.05728115933476102,0.004871809356189329,0.004871809356036505
5011.8723362727205,1.0308770243374066,-0.06773947622241099,0.004871911936732668,0.004871911936578354
3981.0717055349687,1.0376917351709594,-0.07975928718784993,0.004872037167527513,0.004872037167371406
3162.2776601683795,1.0458488569329891,-0.0935972604592207,0.004872188147889134,0.0048721881477309026
2511.8864315095802,1.0555805804518141,-0.10961774894707695,0.0048723698129615745,0.004872369812800842
1995.2623149688789,1.0672964520495203,-0.12826077862225502,0.0048725907398156085,0.0048725907396519035
1584.8931924611124,1.0816571079951742,-0.14994740981911092,0.004872864852065611,0.004872864851898294
1258.9254117941662,1.09959070461536,-0.1749340942368052,0.004873212285761975,0.0048732122855901505
1000.0,1.122222176590347,-0.20315796880772016,0.004873658850543525,0.004873658850365941
794.3282347242813,1.1507210159006256,-0.23413072161895285,0.0048742340710918345,0.0048742340709068055
630.957344480193,1.1861138949550558,-0.26692140664014335,0.004874968422853133,0.004874968422658471
501.187233627272,1.229122026340088,-0.30022300216806364,0.0048758905619510325,0.004875890561744023
398.10717055349687,1.280053646964427,-0.3324593384078219,0.004877024823255656,0.004877024823033048
316.227766016838,1.3387357850641513,-0.36189362957703536,0.004878388431576525,0.004878388431334574
251.18864315095797,1.4044518129067165,-0.38674028158809237,0.0048799875397547805,0.0048799875394893695
199.5262314968879,1.4758777590288543,-0.4053166593928421,0.004881811841368409,0.004881811841075297
158.48931924611125,1.5510576591389698,-0.4162684759599084,0.004883828963729129,0.004883828963404341
125.89254117941664,1.6274903979557536,-0.4188579673461684,0.004885981497242914,0.0048859814968832535
100.0,1.702389067765992,-0.4132386377699795,0.00488819026623134,0.004888190265834911
79.43282347242804,1.7731080986006182,-0.4005919549417785,0.0048903660010795194,0.004890366000646063
63.09573444801929,1.8376342089596995,-0.3830142824011117,0.004892427563210538,0.004892427562741428
50.11872336272725,1.8949639575624229,-0.3631370923809145,0.00489432025603655,0.004894320255534403
39.81071705534969,1.945211513678188,-0.343599968950147,0.00489602631952211,0.004896026318990132
31.622776601683796,1.9894164096415832,-0.3265789432433136,0.004897563622303311,0.004897563621744613
25.118864315095767,2.0291697201466237,-0.313530183442659,0.004898975188685541,0.004898975188102623
19.95262314968879,2.066236563072988,-0.3051752207833625,0.004900316147526805,0.004900316146921287
15.848931924611108,2.1022970645946697,-0.3016393415567078,0.004901643633175272,0.004901643632547817
12.589254117941664,2.138829911206834,-0.30262725270027935,0.0049030115518587615,0.004903011551209116
10.0,2.177096979670857,-0.3075570991763094,0.004904469257160223,0.00490446925648728
7.943282347242805,2.2181685514648293,-0.31562297102802317,0.004906062059604124,0.0049060620589059835
6.30957344480193,2.26293466554873,-0.3257920024231019,0.004907831439306175,0.00490783143858019
5.011872336272715,2.3120623316143187,-0.3367668744075287,0.004909813138240292,0.004909813137483126
3.981071705534969,2.365879299687124,-0.3469642588969817,0.004912031891191538,0.004912031890399307
3.1622776601683795,2.424198565019826,-0.35457177719336547,0.004914492726816052,0.004914492725984603
2.5118864315095766,2.4861443292980496,-0.35773662381022725,0.004917170811299505,0.004917170810424883
1.9952623149688788,2.5500827857499586,-0.35489079620662173,0.004920004321571184,0.00492000432065027
1.584893192461111,2.6137610578930754,-0.34513206723750234,0.004922896125929203,0.004922896124960386
1.2589254117941662,2.6746798332454897,-0.3285022275085039,0.004925727718671289,0.004925727717654942
1.0,2.730592547278628,-0.30601063656298744,0.004928382557532433,0.004928382556471007
0.7943282347242805,2.779932598818395,-0.2793698666388739,0.004930769711123378,0.004930769710021039
0.6309573444801929,2.8220052923395156,-0.2505627403448532,0.004932838090045756,0.004932838088907732
0.5011872336272715,2.856916525708414,-0.22142715601282564,0.004934577311675476,0.004934577310507327
0.3981071705534969,2.8853338564946704,-0.1933912666296203,0.004936008344940661,0.004936008343747688
0.31622776601683794,2.908209536065135,-0.16738509348028932,0.004937170297829986,0.004937170296616871
0.2511886431509577,2.926552109494255,-0.14388025464286788,0.004938108424081519,0.004938108422852182
0.1995262314968879,2.941274698141784,-0.12299565227214894,0.004938865544311227,0.004938865543068849
0.1584893192461111,2.9531171026816767,-0.10462568692047705,0.004939477221283685,0.0049394772200308185
0.12589254117941662,2.962632344133283,-0.08856253305521139,0.004939970422668462,0.004939970421407179
0.1,2.97022328377117,-0.0745882465417805,0.004940364984464028,0.00494036498319604
0.07943282347242805,2.9762040317290537,-0.06251985322983704,0.004940676540610288,0.004940676539337028
0.0630957344480193,2.9808548037531035,-0.05220844118927034,0.00494091923364827,0.004940919232370918
0.05011872336272714,2.9844482710880404,-0.04351260508685466,0.00494110700429554,0.0049411070030150345
0.039810717055349686,2.987245982763501,-0.03627250181434434,0.0049412533457466245,0.004941253344463672
0.031622776601683784,2.9894790936930753,-0.030300196767226298,0.004941370249614951,0.004941370248330052
0.02511886431509577,2.991329056978134,-0.025387302851597533,0.004941467159689894,0.004941467158403391
0.019952623149688792,2.992917258276801,-0.02132349803395635,0.004941550403715871,0.004941550402427996
0.01584893192461111,2.9943068434529345,-0.017918450207247055,0.004941623272567377,0.0049416232712783045
0.01258925411794166,2.995516327355587,-0.015019916273676675,0.004941686723697831,0.004941686722407719
0.01,2.996540728958809,-0.012521887282036239,0.004941740484572254,0.004941740483281265
