freq,Zreal,Zimag,sigma_re,sigma_im
1000000.0,0.9982633674752446,-0.00044105909099659946,0.013166186761445015,0.0009315931456740855
794328.2347242822,0.9982980946359402,-0.0006669079333389131,0.013166642774990547,0.0009316204440679485
630957.344480193,0.9983318362185182,-0.0009154380951710075,0.013167085846738804,0.0009316609136287991
501187.2336272725,0.9983638905236687,-0.0012042152486807897,0.013167506762483972,0.0009317215136373712
398107.17055349686,0.9983980948395421,-0.0015544492644181953,0.013167955910967808,0.0009318152475563969
316227.7660168379,0.9984446987238393,-0.0019891021316935558,0.0131685678826222,0.0009319637284786892
251188.6431509582,0.9985207212300955,-0.0025299447734647277,0.01316956616056459,0.0009321995390250156
199526.2314968879,0.9986484316711367,-0.00319478434629645,0.013171243171325056,0.0009325677211929138
158489.3192461114,0.9988522164310241,-0.003995855688211373,0.013173919142523029,0.000933125896227289
125892.5411794166,0.9991546086317954,-0.00494016615785555,0.01317788996794121,0.0009339434459547156
100000.0,0.9995725404960696,-0.006032078541409148,0.013183377996835338,0.0009351016587955393
79432.82347242821,1.0001148862268607,-0.0072778668047491024,0.01319049976899137,0.0009366981071662074
63095.7344480193,1.0007821155206071,-0.008691524417401533,0.013199261464525582,0.0009388590757159648
50118.72336272724,1.0015684425345424,-0.010300786268940081,0.013209587121910612,0.0009417633455266249
39810.71705534969,1.0024663319525913,-0.012152266613693063,0.013221377808257752,0.0009456796050235293
31622.776601683792,1.0034727292343648,-0.0143148034419664,0.0132345934319682,0.000951018921495539
25118.864315095827,1.004596033104565,-0.016880499376703342,0.013249344304591628,0.0009584032103321243
19952.623149688792,1.005862714162101,-0.019963470267497174,0.013265978059124788,0.0009687495413969248
15848.93192461114,1.0073226348791393,-0.023696827710186344,0.013285149519835402,0.0009833667228656884
12589.254117941662,1.0090525083400441,-0.028228812235930597,0.013307866136335752,0.0010040536505329454
10000.0,1.0111574718602805,-0.03371918024468482,0.013335508670703109,0.0010331792797610851
7943.282347242814,1.013771367192168,-0.040336885677174236,0.013369834911176909,0.001073716190338151
6309.57344480193,1.0170569324019951,-0.048259754888068426,0.013412982242366292,0.001129201210434933
5011.8723362727205,1.0212076250297772,-0.05767620208752681,0.013467491661089043,0.0012036137441814832
3981.0717055349687,1.026453082321306,-0.0687880661638304,0.013536379589517108,0.001301191114986398
3162.2776601683795,1.0330701240002134,-0.08181240297989725,0.013623282527934384,0.0014262200271891697
2511.8864315095802,1.041400532715809,-0.09697862488672708,0.013732690799368938,0.0015828290024896526
1995.2623149688789,1.0518753707507507,-0.11451589311403232,0.013870268264694815,0.0017747539983354944
1584.8931924611124,1.0650429753892656,-0.13462445502636244,0.01404322054482847,0.0020049860305359343
1258.9254117941662,1.081593639482275,-0.15742439930854596,0.014260619968404836,0.002275176170409938
1000.0,1.1023682951803147,-0.18287752885133857,0.014533520700068922,0.0025847001234096424
794.3282347242813,1.1283325723829989,-0.21068485762534422,0.01487461924787138,0.0029293893331908505
630.957344480193,1.1604951991345813,-0.24017510649789,0.015297183663556,0.0033001223404255657
501.187233627272,1.1997567023990077,-0.27021637579481883,0.015813066175239275,0.003681702602466312
398.10717055349687,1.24669459678107,-0.29919607896721767,0.01642987946603262,0.004052622881215252
316.227766016838,1.3013212201974658,-0.32511279298312107,0.017147810858035763,0.004386296242727039
251.18864315095797,1.3628792413388624,-0.3458018689372636,0.01795692904081328,0.004654043191700444
199.5262314968879,1.4297546209433991,-0.35927576807428574,0.018836033494908328,0.004829583995099512
158.48931924611125,1.4995743182203785,-0.36410813592392627,0.019753933727894617,0.0048941015916412105
125.89254117941664,1.5695052910649632,-0.3597475734154816,0.020673378233003956,0.004840375539820301
100.0,1.6366906326068582,-0.3466467960162282,0.021556790521582027,0.004674484802978283
79.43282347242804,1.6986918285868078,-0.32615586153922393,0.02237208859299613,0.004414404646502877
63.09573444801929,1.753803811561374,-0.3002242476637088,0.02309683270272196,0.004086084637066301
50.11872336272725,1.801173372505744,-0.2710226436790787,0.02371978646725703,0.0037184622238827453
39.81071705534969,1.8407321633319416,-0.24059847333154935,0.024240038118899746,0.0033389077408514027
31.622776601683796,1.8730075288122139,-0.21063802633676984,0.024664513539553207,0.0029700564840288235
25.118864315095767,1.898887987628163,-0.1823572950649615,0.02500489181079863,0.002628316528896615
19.95262314968879,1.9194069530238342,-0.15650399395128362,0.025274760129701215,0.002323820993490647
15.848931924611108,1.9355820428772472,-0.13343175982969901,0.02548749970710989,0.0020613144374503184
12.589254117941664,1.948319780161727,-0.11320441243834778,0.025655031768516464,0.0018414304085459323
10.0,1.9583757765741026,-0.09569830805176158,0.025787293433104163,0.0016619629058605586
7.943282347242805,1.96635226065888,-0.08068567209987754,0.025892204904540594,0.0015189385949797407
6.30957344480193,1.9727156083242687,-0.06789414021899143,0.02597589985221219,0.0014074532598219722
5.011872336272715,1.9778213995175133,-0.05704482713265889,0.026043054855357076,0.0013223046458972522
3.981071705534969,1.981939649919409,-0.04787388310224444,0.026097221196726587,0.001258456192586974
3.1622776601683795,1.9852766477641708,-0.04014261838927648,0.026141112033665124,0.0012113486510037094
2.5118864315095766,1.9879921420938595,-0.03364041003625335,0.026176828445313664,0.0011770714736905235
1.9952623149688788,1.9902118928852985,-0.028183557561862353,0.026206024485948293,0.0011524159248482134
1.584893192461111,1.9920362261057878,-0.023612318852997947,0.026230019698090645,0.0011348433330116074
1.2589254117941662,1.9935455124026538,-0.019787589960877764,0.026249871166398864,0.0011224044250945076
1.0,1.9948035535331918,-0.016588076315415794,0.02626641805465735,0.001113639236033643
0.7943282347242805,1.9958597905273319,-0.013908317027497927,0.02628031064662338,0.0011074770326397552
0.6309573444801929,1.9967510851993966,-0.0116575567390449,0.026292033776148204,0.0011031466081580263
0.5011872336272715,1.9975036030461175,-0.009759206360534026,0.026301931591486718,0.0011001010057391486
0.3981071705534969,1.9981350683264836,-0.008150494795426604,0.026310237215352788,0.001097957090010768
0.31622776601683794,1.9986574015559602,-0.0067818891744314495,0.02631710743517576,0.0010964486243161228
0.2511886431509577,1.9990795226755749,-0.005615946508951076,0.026322659572700656,0.0010953908830247355
0.1995262314968879,1.999409950332248,-0.004625434959316327,0.02632700567200183,0.0010946547917441254
0.1584893192461111,1.9996587827440369,-0.003790789776015136,0.026330278553600175,0.0010941487702165063
0.12589254117941662,1.9998387222513299,-0.0030971843844490084,0.026332645290261726,0.0010938066158852756
0.1,1.9999649887572608,-0.002531677495813903,0.026334306068411195,0.0010935798585487244
0.07943282347242805,2.0000542123811407,-0.002080896911353457,0.026335479623174205,0.0010934330581121518
0.0630957344480193,2.000122637289539,-0.0017296679347191322,0.026336379613370126,0.0010933407448389721
0.05011872336272714,2.0001841363826727,-0.0014607819630944037,0.0263371885087045,0.0010932850842308274
0.039810717055349686,2.0002485761783024,-0.0012558049239829337,0.026338036083112464,0.0010932538382548338
0.031622776601683784,2.0003209648441116,-0.00109666760723936,0.026338988208838322,0.0010932386209737434
0.02511886431509577,2.0004015910594153,-0.0009673334944831708,0.0263400486828646,0.0010932335491859913
0.019952623149688792,2.000487082717963,-0.0008553171001524616,0.026341173151982134,0.0010932344173356322
0.01584893192461111,2.000572065557685,-0.0007524481251121615,0.02634229092868369,0.0010932382547251351
0.01258925411794166,2.000650956115817,-0.0006547332092836026,0.026343328573841914,0.0010932430866876946
0.01,2.0007194211426964,-0.0005615103648132413,0.026344229092336382,0.0010932477515946143
