freq,Zreal,Zimag,sigma_re,sigma_im
1000000.0,0.9993721896559496,0.009944331229061245,0.009832547885195237,0.00983058429126487
794328.2347242822,0.9993561486283418,0.007955729814432792,0.009832547754983146,0.009830584154076479
630957.344480193,0.9993316692052718,0.00638619067764785,0.009832547573910186,0.009830584024914192
501187.2336272725,0.999296196642401,0.00514836312086063,0.009832547321695966,0.009830583883987533
398107.17055349686,0.9992475375313576,0.004171145647799182,0.009832546981546267,0.009830583717093408
316227.7660168379,0.9991844032804312,0.003396116040469178,0.009832546543532062,0.00983058351556517
251188.6431509582,0.9991069153931843,0.002774953785350401,0.00983254600783772,0.009830583276718204
199526.2314968879,0.9990169682774321,0.0022675949594829115,0.009832545387109622,0.009830583004256974
158489.3192461114,0.998918369670082,0.0018413116553522265,0.00983254470732496,0.009830582708271031
125892.5411794166,0.99881671466667,0.0014696388764792643,0.009832544006857064,0.009830582404590307
100000.0,0.9987189941478377,0.001131055124456147,0.009832543333735,0.009830582113454493
79432.82347242821,0.9986329861166171,0.0008103560447465996,0.00983254274143022,0.00983058185762092
63095.7344480193,0.9985665178600095,0.0004961339341248244,0.00983254228376253,0.00983058166010207
50118.72336272724,0.9985267058593703,0.000180588956345549,0.0098325420096692,0.009830581541883486
39810.71705534969,0.99851927319488,-0.00013872888617558996,0.009832541958513498,0.009830581519880099
31622.776601683792,0.9985480155742401,-0.0004642063086088225,0.009832542156416662,0.00983058160533329
25118.864315095827,0.9986144504671317,-0.0007974682973994054,0.009832542613851778,0.009830581802774933
19952.623149688792,0.9987176540923036,-0.0011398084388908494,0.00983254332452255,0.009830582109542853
15848.93192461114,0.9988542768190142,-0.0014939982940818746,0.009832544265463952,0.009830582515834362
12589.254117941662,0.9990187272934175,-0.001865360872102712,0.009832545398298859,0.00983058300526813
10000.0,0.9992035194792961,-0.002263017644373856,0.009832546671615022,0.009830583555942499
7943.282347242814,0.9993997734588462,-0.0027011310639990537,0.009832548024405642,0.009830584141970675
6309.57344480193,0.9995978447207143,-0.003200173898891898,0.009832549390407598,0.00983058473543163
5011.8723362727205,0.9997880321142039,-0.003788230313829293,0.009832550703003123,0.009830585308611467
3981.0717055349687,0.99996129470789,-0.004502381269809803,0.00983255190021416,0.009830585836364824
3162.2776601683795,1.0001099083756784,-0.005390283925784859,0.009832552929324542,0.009830586298449588
2511.8864315095802,1.0002280255590252,-0.00651212147610317,0.009832553750895121,0.009830586681819596
1995.2623149688789,1.0003121686083056,-0.007943156946944073,0.009832554342409441,0.009830586983114375
1584.8931924611124,1.0003617817900208,-0.009777159240004205,0.009832554702460281,0.009830587211955542
1258.9254117941662,1.0003800796848363,-0.012130977632223934,0.00983255485719662,0.009830587396137852
1000.0,1.0003755561259127,-0.015150526939222218,0.009832554871674115,0.009830587590407792
794.3282347242813,1.0003646681124134,-0.019018418768127876,0.009832554869870204,0.009830587891330712
630.957344480193,1.0003764137158389,-0.023963437462196507,0.00983255506866805,0.009830588461918567
501.187233627272,1.0004598353914387,-0.030271994622724223,0.009832555833489735,0.009830589571482886
398.10717055349687,1.000695976156376,-0.03830154479747736,0.009832557767068645,0.00983059165895015
316.227766016838,1.00121658781047,-0.048495576437447625,0.009832561848887186,0.009830595432053122
251.18864315095797,1.0022330247141342,-0.06139895089770111,0.009832569652008561,0.009830602020742409
199.5262314968879,1.0040802700168523,-0.07767057736569868,0.009832583677254546,0.009830613210691019
158.48931924611125,1.0072826976075513,-0.09808686368579747,0.00983260786190272,0.009830631790063148
125.89254117941664,1.012649034323793,-0.12352278602224234,0.009832648338156336,0.009830662043501956
100.0,1.02140144515886,-0.15488617810447972,0.009832714523780003,0.00983071040505763
79.43282347242804,1.0353317627830307,-0.1929643339483903,0.00983282059107844,0.009830786200574945
63.09573444801929,1.0569456665709542,-0.23812491629537452,0.00983298720674688,0.009830902208382486
50.11872336272725,1.0894898502314143,-0.2898153641169122,0.009833243026770352,0.009831074386063716
39.81071705534969,1.1366614605398486,-0.3458742385098837,0.009833624600719685,0.009831319632471776
31.622776601683796,1.2017427117795032,-0.4018684884020654,0.009834172148243376,0.009831650401146075
25.118864315095767,1.2860669783264538,-0.4509859748516394,0.009834918100594297,0.009832066447126309
19.95262314968879,1.387279150246025,-0.4851615283216087,0.009835867926147495,0.009832547493122082
15.848931924611108,1.4985545145027455,-0.4975914207836136,0.009836980802585413,0.009833053466206075
12.589254117941664,1.6099005579217187,-0.4855633570874715,0.009838166304228714,0.009833535806336089
10.0,1.7113063956649457,-0.4517324010012251,0.009839308539787085,0.009833954218032277
7.943282347242805,1.7959030262907079,-0.4028686392755688,0.009840307035952348,0.009834287970986252
6.30957344480193,1.8612877439284192,-0.347033928342736,0.009841107152308586,0.00983453625119227
5.011872336272715,1.9087598549739462,-0.2910574840716308,0.009841703529288615,0.009834711034651068
3.981071705534969,1.9415848345348639,-0.2393954435722554,0.009842123452553265,0.00983482896738363
3.1622776601683795,1.9634557042286989,-0.19422894018184778,0.009842406615755259,0.009834905971811352
2.5118864315095766,1.9776213116047987,-0.15612380374769913,0.009842591403211953,0.009834954926335612
1.9952623149688788,1.9865912997311634,-0.12471986380855826,0.009842708924820231,0.009834985310330441
1.584893192461111,1.9921610361943893,-0.0992332980038913,0.009842782047431555,0.009835003713251758
1.2589254117941662,1.995555010326067,-0.07875732274506035,0.009842826617716028,0.009835014552885366
1.0,1.9975829787514376,-0.06241669998340984,0.009842853215579959,0.009835020720520976
0.7943282347242805,1.9987692031883062,-0.04943412613284148,0.009842868729727129,0.009835024074910657
0.6309573444801929,1.9994475826444866,-0.03914956443463139,0.00984287756168232,0.009835025791978784
0.5011872336272715,1.999827528130168,-0.031017066625248776,0.009842882476215922,0.009835026602138372
0.3981071705534969,2.0000380513228384,-0.024592351184103863,0.0098428851769698,0.009835026947671256
0.31622776601683794,2.0001567241674367,-0.019517762694178396,0.00984288668710278,0.009835027085955668
0.2511886431509577,2.000228531457104,-0.015507637156171277,0.009842887598134103,0.00983502715701743
0.1995262314968879,2.0002781195127994,-0.01233525869841001,0.00984288823208613,0.009835027227937894
0.1584893192461111,2.000317775433554,-0.009821706543893983,0.009842888747349423,0.009835027322313943
0.12589254117941662,2.000352642432461,-0.007826501578625017,0.009842889208014469,0.00983502743995689
0.1,2.000384116090544,-0.00623982521436896,0.009842889629095516,0.009835027570006085
0.07943282347242805,2.0004120034228716,-0.0049760699076966865,0.009842890005303128,0.00983502769935321
0.0630957344480193,2.000435805514393,-0.00396852006024778,0.009842890328112633,0.009835027817529035
0.05011872336272714,2.000455362128147,-0.003165013928328443,0.009842890594273214,0.009835027918842712
0.039810717055349686,2.00047103878834,-0.0025244786715810405,0.00984289080815675,0.009835028002451611
0.031622776601683784,2.000483614957983,-0.0020142508304656164,0.009842890980076707,0.009835028071056505
0.02511886431509577,2.0004940227140473,-0.0016080915601996337,0.009842891122601184,0.009835028128954638
0.019952623149688792,2.0005030710505234,-0.0012847854807741023,0.009842891246700661,0.009835028180156889
0.01584893192461111,2.0005112605104447,-0.001027185871415254,0.009842891359159943,0.009835028227131497
0.01258925411794166,2.0005187429200877,-0.0008215493255258137,0.009842891462001076,0.00983502827046383
0.01,2.0005254179880767,-0.0006570181375295772,0.009842891553799207,0.00983502830936239
