freq,Zreal,Zimag,sigma_re,sigma_im
1000000.0,1.0097562974791348,0.0009504259267501704,0.04721294496624135,0.047212729530578305
794328.2347242822,1.0098230838964704,0.0003988241366457406,0.0472129459464358,0.04721273048212063
630957.344480193,1.0099040872006373,-0.00010450325067149651,0.047212947135616155,0.04721273163670655
501187.2336272725,1.009998572528637,-0.0005805658462066378,0.04721294852300309,0.047212732983843146
398107.17055349686,1.0101052261652201,-0.0010496935222953467,0.047212950089349025,0.047212734504834396
316227.7660168379,1.0102225624426102,-0.0015328305782625535,0.04721295181290569,0.047212736178573834
251188.6431509582,1.0103493130305365,-0.002052679082365096,0.04721295367514119,0.047212737987097624
199526.2314968879,1.0104848117744627,-0.00263484680121097,0.04721295566640204,0.04721273992108774
158489.3192461114,1.0106294743076303,-0.0033090899063233275,0.04721295779298035,0.04721274198674472
125892.5411794166,1.010785478623776,-0.0041106494132445975,0.04721296008715243,0.0472127442155527
100000.0,1.0109577050240288,-0.005081629883122886,0.04721296262105751,0.047212746677783475
79432.82347242821,1.0111549511974527,-0.006272370648547921,0.04721296552466546,0.04721274949998617
63095.7344480193,1.0113914313692731,-0.0077427711630015635,0.04721296900799446,0.04721275288662551
50118.72336272724,1.0116885687368133,-0.009563514614172678,0.047212973387766276,0.047212757146060026
39810.71705534969,1.0120770508449821,-0.011817109491505856,0.04721297911814414,0.047212762720526914
31622.776601683792,1.0125990503307067,-0.014598702724109841,0.04721298682427329,0.047212770218905284
25118.864315095827,1.0133105066062293,-0.018016725110308603,0.047212997337340815,0.04721278045102954
19952.623149688792,1.0142834801522629,-0.022193515669102513,0.04721301173172325,0.04721279446412677
15848.93192461114,1.0156087647291836,-0.027266024824283988,0.04721303136755797,0.04721281358464471
12589.254117941662,1.0173990459886117,-0.03338652405197326,0.04721305794391106,0.047212839470524064
10000.0,1.0197928825881146,-0.04072304780517775,0.04721309356800685,0.04721287417925384
7943.282347242814,1.0229596974851454,-0.049459116393943243,0.04721314084538281,0.047212920256458436
6309.57344480193,1.0271058250256138,-0.05979212930264519,0.04721320299474523,0.047212980848689225
5011.8723362727205,1.032481444501533,-0.0719296808765007,0.04721328398950257,0.04721305984230687
3981.0717055349687,1.0393879279183296,-0.08608297365546606,0.047213388725215556,0.047213162027610237
3162.2776601683795,1.0481847511051148,-0.10245654001806921,0.04721352320854473,0.0472132932837072
2511.8864315095802,1.0592946965157743,-0.1212336778375185,0.047213694758756426,0.04721346077508617
1995.2623149688789,1.0732056659335063,-0.14255740687683358,0.04721391220738252,0.04721367314537042
1584.8931924611124,1.090467110335647,-0.166507401260528,0.047214186075124655,0.047213940687267704
1258.9254117941662,1.1116790128284637,-0.193074253505789,0.04721452869775831,0.047214275460541674
1000.0,1.1374716995462233,-0.22213349019517364,0.04721495426528332,0.04721469132266511
794.3282347242813,1.168475633691881,-0.25342278251845607,0.04721547873193961,0.04721520383078902
630.957344480193,1.2052817806977956,-0.28652648491811983,0.04721611955063649,0.04721582997044814
501.187233627272,1.2483949699222876,-0.320871693694531,0.04721689518688737,0.04721658766891956
398.10717055349687,1.298184626438889,-0.3557392179966716,0.047217824379543534,0.04721749506402631
316.227766016838,1.354838897745254,-0.3902910950450233,0.047218925144379975,0.047218569527785345
251.18864315095797,1.4183290584866608,-0.4236136331553691,0.04722021356457016,0.04721982649080107
199.5262314968879,1.4883906105483597,-0.4547717740102735,0.04722170247263519,0.04722127817094433
158.48931924611125,1.5645253081806705,-0.48286754593577746,0.047223400181644684,0.04722293235937314
125.89254117941664,1.646024473813672,-0.5070935866485565,0.04722530944024897,0.04722479143074709
100.0,1.7320092225886152,-0.5267732055341822,0.04722742674342914,0.047226851701112814
79.43282347242804,1.8214791120052352,-0.541381693267027,0.047229742031368115,0.04722910315994008
63.09573444801929,1.9133590106419998,-0.5505489072848047,0.047232238691131925,0.04723152948988666
50.11872336272725,2.0065356946352004,-0.554048776704524,0.047234893701728634,0.04723410821844438
39.81071705534969,2.0998805141909216,-0.5517850485594686,0.04723767778441389,0.047236810868701275
31.622776601683796,2.1922606941137333,-0.5437827090188999,0.047240555543968187,0.04723960309775873
25.118864315095767,2.282547001504019,-0.5301908380534932,0.0472434857626657,0.0472424449814914
19.95262314968879,2.3696275253546335,-0.5112965196765917,0.047246422147361904,0.04724529173709712
15.848931924611108,2.4524352587191793,-0.48754317539710323,0.04724931484389977,0.047248095186431686
12.589254117941664,2.5299917145345163,-0.45954277496409596,0.04725211288069424,0.04725080611475234
10.0,2.6014619651950195,-0.4280714216996335,0.04725476741906865,0.04725337740493765
7.943282347242805,2.666210897319134,-0.3940418844265813,0.04725723537632647,0.04725576752756882
6.30957344480193,2.723848238072108,-0.3584532134513256,0.04725948277944403,0.04725794376803728
5.011872336272715,2.7742517437847116,-0.3223241750766248,0.047261487195420955,0.04725988456164844
3.981071705534969,2.8175629427171067,-0.286621615182232,0.04726323877758758,0.04726158049441681
3.1622776601683795,2.8541560789253775,-0.25219586509088,0.04726473979107023,0.04726303383902595
2.5118864315095766,2.8845864210656944,-0.2197330928966242,0.04726600281928737,0.04726425682100435
1.9952623149688788,2.909527501659082,-0.18973017010876334,0.04726704810223715,0.04726526904933579
1.584893192461111,2.929707612406596,-0.16249261409821492,0.04726790055847962,0.04726609464293825
1.2589254117941662,2.945854243722644,-0.1381518362042739,0.047268586994123785,0.04726675953775483
1.0,2.958651942411106,-0.11669523781279753,0.04726913384736433,0.04726728931033003
0.7943282347242805,2.9687153958075325,-0.09800201828518987,0.04726956562307734,0.047267707666935936
0.6309573444801929,2.9765764886772574,-0.08187859755278401,0.04726990400189278,0.047268035583402396
0.5011872336272715,2.9826822445009222,-0.06808955825227782,0.04727016749978866,0.04726829097625482
0.3981071705534969,2.9874000129907365,-0.056382143182550186,0.0472703715133047,0.047268488746172614
0.31622776601683794,2.9910266431278685,-0.04650402364433176,0.0472705285946786,0.047268641043568524
0.2511886431509577,2.9937991976712772,-0.03821507144217294,0.04727064883580521,0.04726875763940663
0.1995262314968879,2.9959056261549475,-0.03129429345520506,0.04727074027949282,0.04726884632253004
0.1584893192461111,2.9974945000893096,-0.025543123013928415,0.0472708093093766,0.04726891327649018
0.12589254117941662,2.9986833661719463,-0.0207861168664988,0.04727086099232836,0.04726896341055886
0.1,2.9995655383801654,-0.016869933607366643,0.04727089936095505,0.047269000632878574
0.07943282347242805,3.000215322268046,-0.0136613334265807,0.04727092763288412,0.04726902806251018
0.0630957344480193,3.0006918185506692,-0.011044821183682206,0.04727094837132314,0.04726904818468558
0.05011872336272714,3.00104159646123,-0.008920403744764356,0.04727096359834708,0.04726906296033645
0.039810717055349686,3.001300613278073,-0.007201730634726818,0.04727097487656815,0.047269073905055525
0.031622776601683784,3.0014957428486895,-0.005814678221997831,0.04727098337453576,0.04726908215235692
0.02511886431509577,3.00164617794057,-0.00469628735476425,0.0472709899271169,0.04726908851213278
0.019952623149688792,3.00176484723674,-0.003793899081713431,0.04727099509681017,0.047269093530066884
0.01584893192461111,3.0018598844643805,-0.0030643289196024197,0.0472709992375119,0.0472690975494658
0.01258925411794166,3.0019361096482875,-0.0024729418530440766,0.04727100255891983,0.04726910077373519
0.01,3.0019964133943615,-0.0019925311769120155,0.0472710051867764,0.04726910332483519
