freq,Zreal,Zimag,sigma_re,sigma_im
1000000.0,0.9946300276907832,-0.0008234673378622748,0.019653681851845173,0.019653617933873047
794328.2347242822,0.9947504273747579,-0.0009917696882049134,0.01965368186776987,0.019653617934342053
630957.344480193,0.994902360267182,-0.0011647746668326385,0.019653681887867216,0.019653617934932328
501187.2336272725,0.9950858555376504,-0.0013370824251503544,0.019653681912142333,0.01965361793564275
398107.17055349686,0.9952978122407937,-0.001502694998914123,0.019653681940186386,0.019653617936459856
316227.7660168379,0.9955317952189854,-0.0016576934855171903,0.019653681971149684,0.019653617937358186
251188.6431509582,0.9957782709704498,-0.001800970887419255,0.01965368200377265,0.01965361793830198
199526.2314968879,0.9960252852809718,-0.0019359599016918875,0.019653682036475523,0.019653617939249093
158489.3192461114,0.9962595240454146,-0.0020711359524917313,0.019653682067498776,0.019653617940155795
125892.5411794166,0.9964676358203115,-0.0022214908668808505,0.019653682095078912,0.01965361794098324
100000.0,0.996637642568336,-0.002409562191737066,0.01965368211763668,0.01965361794170476
79432.82347242821,0.9967602367688124,-0.0026642565909025797,0.019653682133950707,0.019653617942312965
63095.7344480193,0.9968297686777817,-0.0030221739465339315,0.019653682143292543,0.01965361794283019
50118.72336272724,0.9968447728097921,-0.0035273114453687653,0.019653682145502577,0.019653617943321284
39810.71705534969,0.9968079663249704,-0.00422922114188804,0.019653682140998538,0.019653617943910042
31622.776601683792,0.9967257635451109,-0.00518702620228748,0.01965368213072752,0.01965361794480963
25118.864315095827,0.9966074720686372,-0.006470486079361673,0.019653682116083072,0.019653617946366542
19952.623149688792,0.9964644457102045,-0.00816194740106252,0.019653682098829454,0.019653617949129874
15848.93192461114,0.9963095512166561,-0.010361527189595281,0.019653682081090224,0.01965361795396625
12589.254117941662,0.996157356242815,-0.01319305762239222,0.019653682065466867,0.019653617962244668
10000.0,0.9960254832551275,-0.01681182104423829,0.019653682055368007,0.019653617976135247
7943.282347242814,0.9959376396476276,-0.021413981982149177,0.01965368205565008,0.01965361799908919
6309.57344480193,0.9959289899512931,-0.027247843473636676,0.01965368207371042,0.019653618036604703
5011.8723362727205,0.996054853632679,-0.0346270094683374,0.01965368212124499,0.01965361809744049
3981.0717055349687,0.9964042640383338,-0.0439454166176531,0.01965368221700108,0.01965361819552182
3162.2776601683795,0.9971207736756084,-0.05569377451204009,0.019653682391033066,0.01965361835289897
2511.8864315095802,0.9984340700787455,-0.0704759460596461,0.019653682691217166,0.019653618604258627
1995.2623149688789,1.0007073990349145,-0.08902171016077692,0.019653683193085754,0.01965361900361189
1584.8931924611124,1.0045070714419346,-0.11218835780714745,0.01965368401432454,0.019653619633749723
1258.9254117941662,1.0107001901852464,-0.1409365072903191,0.01965368533528154,0.0196536206185091
1000.0,1.0205820292052503,-0.17625432131716828,0.01965368742592764,0.01965362213604955
794.3282347242813,1.0360188486732436,-0.21898997168648493,0.01965369067657492,0.019653624426836425
630.957344480193,1.059555748536167,-0.26954292999911744,0.019653695622296314,0.01965362778145012
501.187233627272,1.0943766881700592,-0.32738430520830636,0.019653702938058324,0.019653632482152104
398.10717055349687,1.143936251887413,-0.39046686431905864,0.01965371336707503,0.01965363866981707
316.227766016838,1.2110927652380827,-0.4547735005267105,0.01965372754544824,0.019653646141656808
251.18864315095797,1.296791087514035,-0.5144590487024925,0.019653745729421197,0.019653654177261396
199.5262314968879,1.3987953322826696,-0.5630111877409233,0.019653767525488978,0.01965366158815832
158.48931924611125,1.511352878426348,-0.5953433452903865,0.019653791808642258,0.019653667127634222
125.89254117941664,1.6264521621479255,-0.6099227999851691,0.019653816977936008,0.01965367009794655
100.0,1.7363889138007707,-0.609661360347412,0.019653841504012892,0.01965367071731754
79.43282347242804,1.8363934353691642,-0.600911759939361,0.019653864511400606,0.019653669955779638
63.09573444801929,1.92601760149452,-0.5910842239938614,0.01965388610879272,0.019653669009849998
50.11872336272725,2.0088434694953246,-0.5860689227406244,0.01965390734928212,0.019653668812208737
39.81071705534969,2.090946978844434,-0.5883883608642336,0.019653929883789334,0.019653669774815405
31.622776601683796,2.1787518457844173,-0.5963931325482825,0.019653955418158234,0.019653671699984564
25.118864315095767,2.276696926811803,-0.6045773698625022,0.019653985058604787,0.01965367378082706
19.95262314968879,2.385194702279739,-0.6051875284432116,0.019654018693109006,0.019653674783540492
15.848931924611108,2.499780978444488,-0.5910352701117998,0.019654054714346503,0.01965367354613077
12.589254117941664,2.612337301094163,-0.5584964163803358,0.019654090389574497,0.01965366962871789
10.0,2.7141242218024266,-0.5089976521138293,0.01965412281372841,0.019653663610401387
7.943282347242805,2.798925855303694,-0.44805930237633895,0.01965414991051158,0.019653656733490076
6.30957344480193,2.8645306224063827,-0.38272209170083726,0.01965417090866931,0.019653650219247965
5.011872336272715,2.912201369341987,-0.3191106934393906,0.019654186173299545,0.019653644807408454
3.981071705534969,2.9451194179077973,-0.2612407980389263,0.01965419670364207,0.01965364071055112
3.1622776601683795,2.966926347692166,-0.2110191096048606,0.019654203659447162,0.019653637804388443
2.5118864315095766,2.980864388657479,-0.16882480098237984,0.0196542080796617,0.019653635832995356
1.9952623149688788,2.9894679333043586,-0.13415442186401305,0.019654210779658413,0.019653634535615996
1.584893192461111,2.9945728802200513,-0.10610350718486203,0.019654212352087207,0.019653633698930716
1.2589254117941662,2.9974490519727714,-0.08365838584193905,0.019654213208268052,0.019653633166451367
1.0,2.9989497294404286,-0.0658467966987556,0.0196542136256206,0.019653632830359844
0.7943282347242805,2.9996370686304745,-0.051802433607029186,0.019654213787609703,0.019653632619206253
0.6309573444801929,2.999875034722881,-0.040783429217423076,0.019654213813391348,0.019653632486830552
0.5011872336272715,2.9998940828519465,-0.03216895831772468,0.0196542137784676,0.01965363240391786
0.3981071705534969,2.999834773059782,-0.025447056557692457,0.0196542137286419,0.019653632352058928
0.31622776601683794,2.999776853635523,-0.02020015006885547,0.019654213689367452,0.019653632319760393
0.2511886431509577,2.9997587860347754,-0.01609119556561661,0.019654213672082782,0.019653632299844143
0.1995262314968879,2.9997911981571006,-0.012851477746543513,0.019654213678651417,0.01965363228779077
0.1584893192461111,2.999866583945485,-0.010270195889669749,0.019654213704644936,0.019653632280706455
0.12589254117941662,2.999966700968332,-0.008185557320508751,0.019654213741926396,0.019653632276692878
0.1,3.0000684860113926,-0.006476935633709038,0.01965421378078159,0.01965363227447227
0.07943282347242805,3.000148861277863,-0.0050577599560534805,0.019654213811695728,0.01965363227317021
0.0630957344480193,3.0001885146765237,-0.0038684894492983955,0.019654213826775836,0.01965363227219195
0.05011872336272714,3.0001745892068854,-0.0028705090819913944,0.019654213820772853,0.019653632271152945
0.039810717055349686,3.000102183457166,-0.002039793419451639,0.0196542137916502,0.01965363226983604
0.031622776601683784,2.9999746119049533,-0.0013618986957561292,0.019654213740670917,0.019653632268161372
0.02511886431509577,2.999802463025606,-0.0008256959589783567,0.019654213672012526,0.019653632266158037
0.019952623149688792,2.99960160109437,-0.0004202306520215537,0.019654213591965848,0.0196536322639349
0.01584893192461111,2.9993903822043255,-0.0001320143167236111,0.0196542135078227,0.019653632261646493
0.01258925411794166,2.9991865103877977,5.6062624184235446e-05,0.019654213426621457,0.01965363225945627
0.01,2.999004138175729,0.00016390783382182097,0.019654213353990552,0.019653632257501975
