freq,Zreal,Zimag,sigma_re,sigma_im
1000000.0,0.9975216985799549,-0.001454183612567248,0.01801739167627683,0.018014786710828214
794328.2347242822,0.9977920146593796,-0.0016920631110855827,0.01802227084011373,0.018019665170226434
630957.344480193,0.9981200713741758,-0.0019078567607514233,0.018028192214752093,0.018025585689609887
501187.2336272725,0.9985004066414338,-0.00208731279621953,0.01803505721105471,0.018032449693883783
398107.17055349686,0.9989226339752835,-0.0022180020417614616,0.018042678355094783,0.01804006973601679
316227.7660168379,0.9993726751200523,-0.002290788322548351,0.018050801536853917,0.018048191742571166
251188.6431509582,0.999834269951741,-0.0023005924876821696,0.01805913326360404,0.018056522263183983
199526.2314968879,1.0002904538856923,-0.002246627996403335,0.0180673673268425,0.018064755133667128
158489.3192461114,1.0007248415705987,-0.002131879748068776,0.01807520797279515,0.018072594643153223
125892.5411794166,1.0011226473791908,-0.0019629314524263032,0.018082388322202016,0.018079773951197697
100000.0,1.0014714138714749,-0.0017497990339861217,0.018088683519092166,0.018086068234618446
79432.82347242821,1.0017614395074368,-0.0015036232464737966,0.01809391845106821,0.01809130240660455
63095.7344480193,1.0019859177847559,-0.0012375970775917954,0.018097970260846467,0.01809535362787065
50118.72336272724,1.0021408273976242,-0.0009657715973716236,0.018100766363732042,0.018098149324382598
39810.71705534969,1.002224641583994,-0.0007005595441002439,0.01810227920143272,0.01809966194190698
31622.776601683792,1.0022379447028418,-0.0004560843696427008,0.01810251932135398,0.01809990202632746
25118.864315095827,1.002183046606148,-0.0002470063827951177,0.018101528416056445,0.01809891126410739
19952.623149688792,1.0020636671202752,-8.79047435313056e-05,0.018099373628160182,0.018096756788036527
15848.93192461114,1.0018847276084957,5.659291236521805e-06,0.01809614378803852,0.01809352741550226
12589.254117941662,1.0016522439728535,1.6770186344316595e-05,0.01809194748247181,0.018089331717466052
10000.0,1.001373278195987,-7.34061860783085e-05,0.018086912179936066,0.018084297143941462
7943.282347242814,1.0010558849091367,-0.0002862200215429986,0.018081183266113264,0.01807856905973572
6309.57344480193,1.0007089919720373,-0.0006462636667305504,0.018074921888327534,0.01807230858933283
5011.8723362727205,1.0003421795840854,-0.0011823261907656576,0.01806830096849449,0.018065688630620018
3981.0717055349687,0.9999653650195428,-0.0019287167867791661,0.01806149951261804,0.01805888816550835
3162.2776601683795,0.9995884503783331,-0.0029271093730445915,0.018054696252757147,0.0180520859032783
2511.8864315095802,0.9992210395699975,-0.004229058636812026,0.018048064538687972,0.01804545517369436
1995.2623149688789,0.998872372536857,-0.005899326028741298,0.018041771150763337,0.018039162741161623
1584.8931924611124,0.9985516606546871,-0.008020143595667049,0.018035982354046336,0.018033374859774895
1258.9254117941662,0.9982690471397708,-0.010696543312505021,0.018030881233824847,0.018028274609186826
1000.0,0.9980374788546166,-0.014062894213873208,0.018026701481897466,0.018024095680576155
794.3282347242813,0.9978758883158342,-0.01829081515276899,0.018023784832073803,0.018021179811116117
630.957344480193,0.9978142829018772,-0.023598650918568404,0.01802267292079615,0.018020068642837932
501.187233627272,0.9979016689452436,-0.030262678488616475,0.018024250317814502,0.018021646750755942
398.10717055349687,0.998218262421477,-0.03863008075290379,0.018029964930839096,0.018027362043884828
316.227766016838,0.998894230674304,-0.049133358283381154,0.018042166297517655,0.01803956405158106
251.18864315095797,1.0001383450607786,-0.06230500028542545,0.01806462277455316,0.018062021102576657
199.5262314968879,1.0022814115289165,-0.0787894519446285,0.018103305480503165,0.018100704247145893
158.48931924611125,1.0058409462432487,-0.0993458923212604,0.018167555740081835,0.018164954655690273
125.89254117941664,1.0116143428029711,-0.12482883942469869,0.01827176686730137,0.018269165298015144
100.0,1.0208051568572165,-0.15612257740322297,0.018437663862450174,0.018435060407979806
79.43282347242804,1.0351752611791487,-0.19398934336002874,0.01869705036601371,0.01869444194345664
63.09573444801929,1.0571838406103216,-0.23877486524926045,0.019094318593487945,0.019091698565744927
50.11872336272725,1.0900099034096782,-0.2899178917866125,0.0196868574264245,0.019684212169927814
39.81071705534969,1.13726254745639,-0.34527930616015146,0.020539824759180408,0.020537128426733803
31.622776601683796,1.2021313538169212,-0.40050238609223016,0.02171081257130936,0.02170802145307642
25.118864315095767,1.2858923949511611,-0.44891915961566364,0.023222875912788935,0.02321992678112228
19.95262314968879,1.386225036124971,-0.4826539733026223,0.025034140096535717,0.02503095841189415
15.848931924611108,1.4964635432478772,-0.49506328226221086,0.02702427983593644,0.027020798977087455
12.589254117941664,1.6068583018104607,-0.48347371141842377,0.02901728154072576,0.02901346443413963
10.0,1.7076177086044804,-0.450425341383662,0.030836361485277856,0.03083221149913061
7.943282347242805,1.791973501528112,-0.40248124917201455,0.03235931342067341,0.03235486882766848
6.30957344480193,1.85749191634077,-0.34750639163933905,0.03354218674854887,0.03353750467000621
5.011872336272715,1.9053644836604673,-0.29220777740959475,0.03440648572359395,0.03440162580728805
3.981071705534969,1.9387360782025789,-0.24099902702267237,0.035008984042287035,0.03500399813412103
3.1622776601683795,1.9612022639915616,-0.19607151598843653,0.03541459461347309,0.035409522958747656
2.5118864315095766,1.9759459319544714,-0.15802556462014122,0.035680781171333574,0.03567565280503163
1.9952623149688788,1.9854371697456088,-0.12654160630111905,0.03585213895588942,0.03584697384719823
1.584893192461111,1.99145024176036,-0.10087400852159217,0.03596070090252347,0.03595551236362131
1.2589254117941662,1.9952004536167252,-0.08014882641270715,0.036028408456559795,0.036023205182753204
1.0,1.9974958719896747,-0.06351788079842495,0.036069850691896325,0.036064638286759786
0.7943282347242805,1.99886376313982,-0.050225611138939676,0.036094547039768936,0.0360893290813999
0.6309573444801929,1.999643960354354,-0.03962908962855637,0.03610863296173091,0.03610341171988102
0.5011872336272715,2.0000535894160585,-0.03119551576292675,0.03611602851950954,0.03611080542690136
0.3981071705534969,2.000230378381513,-0.024490403189673913,0.036119220302269404,0.036113996260036356
0.31622776601683794,2.000261074709379,-0.019163076563088254,0.03611977447832307,0.03611455005216393
0.2511886431509577,2.000199914690054,-0.014932504410685095,0.03611867024825353,0.036113445793505006
0.1995262314968879,2.000080596986631,-0.011574656605071464,0.03611651601925718,0.03611129175999657
0.1584893192461111,1.9999240576022794,-0.00891169359529471,0.03611368977708228,0.03610846585554316
0.12589254117941662,1.999743527733188,-0.006802911029159438,0.03611043040227762,0.036105206909101815
0.1,1.9995478097102235,-0.005137228494989191,0.03610689681520486,0.036101673807375494
0.07943282347242805,1.999343356059999,-0.003826992224973743,0.036103205512147046,0.03609798302312133
0.0630957344480193,1.999135521883729,-0.002802889058324364,0.03609945317619622,0.03609423122127844
0.05011872336272714,1.9989292348312184,-0.0020098071802414135,0.03609572877318532,0.03609050735221678
0.039810717055349686,1.9987292554812888,-0.0014035116494771202,0.03609211825266084,0.03608689735144512
0.031622776601683784,1.9985401592087881,-0.0009480247157949509,0.03608870422046596,0.03608348381187491
0.02511886431509577,1.9983661425988464,-0.0006136146392989837,0.03608556244363177,0.03608034248898617
0.019952623149688792,1.9982107355578282,-0.0003753076235543379,0.036082756652681576,0.036077537103737414
0.01584893192461111,1.9980764848802597,-0.0002118508470408347,0.03608033282859402,0.03607511363026173
0.01258925411794166,1.9979646721810758,-0.00010506600234135033,0.036078314110216926,0.03607309520395726
0.01,1.997875141689776,-3.9541202309057344e-05,0.036076697685180986,0.03607147901281232
