freq,Zreal,Zimag,sigma_re,sigma_im
1000000.0,0.9963093568088002,0.0018503757087642715,0.019144304349749956,0.002589236243701386
794328.2347242822,0.9963642612597788,0.0013126671755878576,0.019145340055165938,0.0025891171802471654
630957.344480193,0.9964240636139213,0.0008693777138398133,0.01914646815638401,0.0025890494699447046
501187.2336272725,0.9964849223040843,0.0004984003780271074,0.019147616186302667,0.002589013955938744
398107.17055349686,0.9965430691567903,0.00017917817836815184,0.019148713062193082,0.0025889988238227656
316227.7660168379,0.9965956860110253,-0.00010797359913061971,0.0191497056221307,0.0025889974032800894
251188.6431509582,0.9966413646071396,-0.00038204563211001897,0.019150567300407897,0.0025890068160679095
199526.2314968879,0.9966800556913122,-0.0006614139992183929,0.019151297167578345,0.002589027234432507
158489.3192461114,0.9967126535614342,-0.0009641609765895073,0.019151912093447906,0.002589061698278533
125892.5411794166,0.9967404905478736,-0.0013087900977386718,0.019152437211027596,0.002589116547632874
100000.0,0.9967649823765836,-0.0017152842744689125,0.019152899226701138,0.002589202616107822
79432.82347242821,0.9967875095366784,-0.002206354719091994,0.019153324182387143,0.0025893374439185527
63095.7344480193,0.9968094638188625,-0.0028087804961270417,0.019153738333523736,0.0025895489483412477
50118.72336272724,0.9968323427932838,-0.003554874064612226,0.019154169931450523,0.0025898812896773473
39810.71705534969,0.9968578370181179,-0.004484210827857495,0.019154650868766134,0.0025904041559953114
31622.776601683792,0.9968879451633986,-0.005645783680084287,0.019155218851438904,0.002591227445622728
25118.864315095827,0.9969252109212778,-0.007100715342446187,0.019155921868554318,0.002592524481831431
19952.623149688792,0.99697318594704,-0.00892562874745658,0.01915682692633046,0.0025945686423529536
15848.93192461114,0.9970372038886544,-0.011216787876757565,0.01915803465121544,0.002597790928143361
12589.254117941662,0.9971255660792931,-0.01409519899376951,0.0191597016597999,0.0026028699757422577
10000.0,0.9972513503684368,-0.017712955668461122,0.01916207468573048,0.002610871816668329
7943.282347242814,0.9974352513872384,-0.02226115079343727,0.01916554416746591,0.0026234644839773307
6309.57344480193,0.9977101065000346,-0.027979656950318926,0.01917072964222989,0.00264324153602182
5011.8723362727205,0.9981280846075394,-0.03516901615588649,0.019178615386941586,0.0026741952990808793
3981.0717055349687,0.9987720003371232,-0.04420454487614201,0.019190763912045952,0.0027223759730205786
3162.2776601683795,0.9997729564518101,-0.055552436299336684,0.01920964890041803,0.002796737868741007
2511.8864315095802,1.001337619214242,-0.06978690418136597,0.019239170019941302,0.0029100811725254754
1995.2623149688789,1.0037899460681021,-0.08760579964477874,0.019285440727487783,0.003079829824024088
1584.8931924611124,1.0076338997982406,-0.10983885434350638,0.019357972798754286,0.00332819002285629
1258.9254117941662,1.0136447701994191,-0.13743655274034877,0.019471402411822124,0.003681159705080753
1000.0,1.022994875639934,-0.17141702259022668,0.019647868938175647,0.004166033836541595
794.3282347242813,1.0374091862213837,-0.21273232692670138,0.01991996667972594,0.004807272867918518
630.957344480193,1.0593173762745063,-0.261997698594054,0.020333644508715575,0.005620407081319591
501.187233627272,1.0919070917258682,-0.3190248870505535,0.02094926304515923,0.006603147926907231
398.10717055349687,1.1388874423799695,-0.38215879173718464,0.021837197343980586,0.007723397279594576
316.227766016838,1.2037002154049987,-0.447603724110115,0.023062982054372162,0.008907211862508323
251.18864315095797,1.2880454172223983,-0.5092494409163099,0.024659380793571023,0.010036109553471687
199.5262314968879,1.3901295578599355,-0.5597135573726606,0.026593018523466513,0.010967260016884202
158.48931924611125,1.503821720943909,-0.592850866167711,0.028748077305710325,0.011581345133067385
125.89254117941664,1.6199790632852213,-0.6066763347106151,0.030951206561296563,0.011838081957828166
100.0,1.729795032924865,-0.604675274606537,0.03303506790881335,0.011800914543328293
79.43282347242804,1.8282146029527149,-0.5943637201742573,0.03490336200265752,0.01160944884970027
63.09573444801929,1.9153920881790891,-0.5840746347977155,0.0365587161294024,0.011418564747210766
50.11872336272725,1.9958686777290842,-0.5799167588861152,0.038087176869367675,0.011341480459162596
39.81071705534969,2.0764941513884203,-0.5840075401775814,0.03961876137822091,0.011417335867548518
31.622776601683796,2.164031772497248,-0.593977674110315,0.041281944427071615,0.011602315079455573
25.118864315095767,2.262787815353724,-0.6035687163845005,0.043158588768318316,0.011780408591496672
19.95262314968879,2.3726211626713973,-0.6044859834396848,0.04524606962275116,0.011797459129327531
15.848931924611108,2.488267352832955,-0.5894494594942344,0.04744435747315842,0.011518321712109121
12.589254117941664,2.6009181509075927,-0.5552957104107282,0.04958598691103256,0.01088565843621698
10.0,2.7016306402279833,-0.5042468912130804,0.051500859438517226,0.009944267234755158
7.943282347242805,2.7845480674729046,-0.4425029399448189,0.053077519418510695,0.008814523578075937
6.30957344480193,2.848091043912292,-0.3773479463144735,0.05428584995755313,0.007637401055198579
5.011872336272715,2.8940599343963407,-0.3147344946263643,0.05516002890171605,0.006528376228052208
3.981071705534969,2.9259035987827904,-0.25831712220343406,0.055765609024721566,0.005558663528824182
3.1622776601683795,2.9472897600298835,-0.20965609628718584,0.05617232339137479,0.004758460508601881
2.5118864315095766,2.9613514656362327,-0.16888892135003622,0.056439747130084206,0.004128939719347647
1.9952623149688788,2.970468682539491,-0.13538023836292157,0.056613138568384534,0.003654011819369928
1.584893192461111,2.976327464359107,-0.10817553894991998,0.056724561576511554,0.003309026739324428
1.2589254117941662,2.980071950133269,-0.08626301320991468,0.05679577488327982,0.0030667576790017496
1.0,2.9824579389764536,-0.06870205485998238,0.05684115214653257,0.0029014492818124245
0.7943282347242805,2.983976366849366,-0.054673639102844916,0.05687002998479994,0.0027912246415315424
0.6309573444801929,2.984942815643528,-0.04349011250904627,0.056888410166722164,0.002718994612267038
0.5011872336272715,2.9855588755986058,-0.034586323925924665,0.05690012656946111,0.0026722466397303356
0.3981071705534969,2.98595286436494,-0.02750373921134333,0.05690761956517664,0.00264224751168985
0.31622776601683794,2.9862063203871467,-0.02187323772741872,0.05691243987149064,0.002623104919254665
0.2511886431509577,2.9863710342599665,-0.017399105038085245,0.05691557245529647,0.002610934228541744
0.1995262314968879,2.9864799168156724,-0.01384513484215781,0.056917643223756496,0.0026032135269718026
0.1584893192461111,2.986553907289156,-0.011022997828375847,0.05691905040517894,0.0025983219851661464
0.12589254117941662,2.986606361633054,-0.008782703672309121,0.05692004800700855,0.0025952246599614637
0.1,2.986645840911189,-0.007004863118289663,0.05692079884619445,0.002593263460004656
0.07943282347242805,2.986677875905399,-0.005594446502323948,0.05692140810894697,0.0025920210220146643
0.0630957344480193,2.986706068567282,-0.0044757701892025655,0.05692194429843441,0.0025912330855984043
0.05011872336272714,2.9867327598651503,-0.003588487010906297,0.05692245193605305,0.0025907325007292034
0.039810717055349686,2.9867594128510113,-0.002884398498624477,0.05692295884665586,0.0025904136138111076
0.031622776601683784,2.986786810624264,-0.002324944309290942,0.05692347992342082,0.002590209680134529
0.02511886431509577,2.986815143294046,-0.001879256306849502,0.056924018781658516,0.0025900785623444054
0.019952623149688792,2.9868440505899563,-0.0015226858587481758,0.0569245685691438,0.0025899936826841263
0.01584893192461111,2.986872688343251,-0.0012357158504758975,0.05692511323047,0.0025899382980940923
0.01258925411794166,2.986899881159908,-0.0010031500033087393,0.05692563041070655,0.00258990187188453
0.01,2.9869243868050965,-0.0008134425942515186,0.056926096483709936,0.0025898777665510297
