freq,Zreal,Zimag,sigma_re,sigma_im
1000000.0,1.0131299855655336,0.0005245573589692364,0.047181451008087794,0.047181451007939725
794328.2347242822,1.0129810003898,0.0005369687407502329,0.04718144830146938,0.04718144830132135
630957.344480193,1.0127971260980286,0.0005175193501480876,0.04718144496156419,0.04718144496141622
501187.2336272725,1.0125794162344708,0.00044975201226646675,0.04718144100784688,0.04718144100769898
398107.17055349686,1.0123314353521062,0.0003155976591939515,0.04718143650542538,0.04718143650527755
316227.7660168379,1.0120589288805006,9.540231699866632e-05,0.047181431558982814,0.04718143155883506
251188.6431509582,1.0117694907745942,-0.00023246881495008257,0.04718142630667497,0.04718142630652729
199526.2314968879,1.0114724137366968,-0.0006923691446694767,0.047181420917346166,0.047181420917198576
158489.3192461114,1.01117880817932,-0.0013123262763933355,0.047181415592630394,0.0471814155924829
125892.5411794166,1.0109020011927459,-0.002125107923421019,0.04718141057414357,0.04718141057399615
100000.0,1.010658188729502,-0.003169330113696486,0.04718140615528757,0.04718140615514022
79432.82347242821,1.0104673063302725,-0.004490578515055788,0.04718140269705588,0.0471814026969086
63095.7344480193,1.010354094679799,-0.006142541627731599,0.04718140064745051,0.04718140064730326
50118.72336272724,1.010349356476379,-0.008188168938994517,0.047181400564518056,0.04718140056437081
39810.71705534969,1.0104914247683174,-0.010700869494244812,0.047181403143490425,0.04718140314334315
31622.776601683792,1.0108278880343273,-0.013765757719463178,0.0471814092490436,0.04718140924889623
25118.864315095827,1.0114176433650075,-0.017480933177502503,0.04718141995427126,0.04718141995412374
19952.623149688792,1.0123333742662084,-0.02195874620516403,0.04718143658859488,0.047181436588447104
15848.93192461114,1.0136645690013162,-0.027326948352555655,0.04718146079744155,0.047181460797293434
12589.254117941662,1.01552120138381,-0.033729553209685986,0.04718149461702322,0.04718149461687462
10000.0,1.018038179072965,-0.041327140803562236,0.047181540567833996,0.047181540567684734
7943.282347242814,1.0213806137980646,-0.05029623101130448,0.047181601770427406,0.04718160177027728
6309.57344480193,1.0257498705233652,-0.06082723694379892,0.0471816820864856,0.04718168208633435
5011.8723362727205,1.031390193294524,-0.07312040374508565,0.047181786286935506,0.04718178628678282
3981.0717055349687,1.0385954710009266,-0.08737907110781658,0.04718192024664087,0.04718192024648637
3162.2776601683795,1.0477153945769908,-0.10379961450552246,0.04718209116177143,0.047182091161614634
2511.8864315095802,1.0591598919994976,-0.12255757890315537,0.04718230778123711,0.04718230778107746
1995.2623149688789,1.0734003705478574,-0.1437898736033562,0.047182580637710005,0.047182580637546774
1584.8931924611124,1.0909660476755014,-0.16757347291004515,0.04718292225702113,0.047182922256853485
1258.9254117941662,1.1124336348031907,-0.19390183374738734,0.04718334731735278,0.04718334731717969
1000.0,1.1384089633071126,-0.22266109885763627,0.047183872721722586,0.0471838727215428
794.3282347242813,1.1694998699945935,-0.2536089430153965,0.0471845175389163,0.047184517538728286
630.957344480193,1.2062807744297237,-0.28635944927848067,0.047185302760303006,0.04718530276010494
501.187233627272,1.2492507825195993,-0.3203774868472613,0.04718625081596585,0.04718625081575555
398.10717055349687,1.2987886609269754,-0.354985548387327,0.04718738479917273,0.047187384798947594
316.227766016838,1.3551093890871353,-0.3893847947891309,0.04718872737094049,0.0471887273706975
251.18864315095797,1.418227871186801,-0.4226901461247571,0.047190299361728874,0.04719029936146454
199.5262314968879,1.4879353734323042,-0.45397681786802746,0.047192118152356174,0.047192118152066594
158.48931924611125,1.563792967389643,-0.482333183058487,0.04719419598490807,0.047194195984588946
125.89254117941664,1.6451435911517103,-0.5069129957404203,0.047196538398474305,0.04719653839812105
100.0,1.731140708769015,-0.5269797334475995,0.04719914297579399,0.04719914297540188
79.43282347242804,1.8207880233868088,-0.5419376708997872,0.04720199851712758,0.047201998516691886
63.09573444801929,1.9129826953897917,-0.551348030847014,0.04720508465369749,0.04720508465321368
50.11872336272725,2.006555099706259,-0.5549329235763918,0.04720837183071097,0.04720837183017488
39.81071705534969,2.1003013315519072,-0.5525729613308623,0.04721182158343435,0.04721182158284243
31.622776601683796,2.1930091746159524,-0.544304947352769,0.04721538711287136,0.04721538711222079
25.118864315095767,2.2834820823980144,-0.5303235687785638,0.04721901429575767,0.047219014295046616
19.95262314968879,2.370567132122316,-0.5109866380939616,0.04722264335197241,0.04722264335120009
15.848931924611108,2.4531911989745243,-0.4868190748237522,0.04722621136096151,0.04722621136012833
12.589254117941664,2.5304054390377684,-0.45850844068805374,0.047229655639377394,0.04722965563848497
10.0,2.6014333103483147,-0.42688557445325437,0.04723291771401007,0.047232917713061144
7.943282347242805,2.6657138693425773,-0.39288747754408426,0.047235947358801045,0.04723594735779938
6.30957344480193,2.7229313924817227,-0.3575046227929988,0.04723870603254009,0.047238706031490225
5.011872336272715,2.773024654654612,-0.3217193277364473,0.04724116911965096,0.04724116911855799
3.981071705534969,2.816173408634322,-0.28644424437031624,0.04724332661814535,0.047243326617014594
3.1622776601683795,2.852764195903808,-0.25246988635149503,0.0472451822467033,0.04724518224554007
2.5118864315095766,2.8833412551366964,-0.22042789541222435,0.04724675124966088,0.047246751248470234
1.9952623149688788,2.9085502628747637,-0.1907733624725589,0.047248057383713446,0.04724805738250004
1.584893192461111,2.929082801624859,-0.16378592802765665,0.04724912963819866,0.04724912963696665
1.2589254117941662,2.9456280679368136,-0.13958638661962128,0.04724999918008291,0.04724999917883586
1.0,2.958835942100592,-0.11816366135659245,0.047250696864854363,0.0472506968635953
0.7943282347242805,2.969292839203309,-0.0994065247152981,0.04725125147080769,0.04725125146953913
0.6309573444801929,2.9775094372616713,-0.08313517071290691,0.04725168864990114,0.04725168864862512
0.5011872336272715,2.9839178968592828,-0.06912922369952099,0.047252030478277605,0.047252030476995784
0.3981071705534969,2.9888756559040495,-0.057150421195451134,0.04725229544247089,0.047252295441184596
0.31622776601683794,2.992673095706257,-0.04695957625490601,0.04725249870052328,0.047252498699233564
0.2511886431509577,2.995542981629493,-0.03832830079401041,0.0472526524884881,0.04725265248719581
0.1995262314968879,2.9976702676168054,-0.031046373060860215,0.0472527665817808,0.047252766580486605
0.1584893192461111,2.999201426546344,-0.024925699533513417,0.047252848754903064,0.047252848753607496
0.12589254117941662,3.0002528607129966,-0.01980171505578552,0.04725290520733731,0.0472529052060408
0.1,3.0009181757966377,-0.015532908432327071,0.04725294093830808,0.047252940937010976
0.07943282347242805,3.0012742210895835,-0.011999022865191151,0.047252960061438434,0.04725296006014101
0.0630957344480193,3.0013858633669845,-0.009098382745703189,0.04725296605514247,0.04725296605384493
0.05011872336272714,3.001309508562162,-0.006744733098744814,0.0472529619480187,0.047252961946721225
0.039810717055349686,3.0010954294941845,-0.004863929327237386,0.047252950441481895,0.047252950440184606
0.031622776601683784,3.0007889998774018,-0.0033907725714306105,0.04725293397451499,0.04725293397321796
0.02511886431509577,3.0004309728914,-0.0022662493877347476,0.04725291473770205,0.04725291473640533
0.019952623149688792,3.0000569829285473,-0.0014354082490139262,0.047252894645994636,0.04725289464469824
0.01584893192461111,2.999696510353479,-0.0008460861015826358,0.04725287528299939,0.0472528752817033
0.01258925411794166,2.999371653538339,-0.00044865652290360374,0.04725285783518121,0.04725285783388541
0.01,2.999096191135979,-0.0001968396157528878,0.0472528430418029,0.04725284304050733
