freq,Zreal,Zimag,sigma_re,sigma_im
1000000.0,1.001757111194727,-0.001988032801794248,0.012922020332960926,0.001104682789757037
794328.2347242822,1.0021362097940165,-0.0026622395072751575,0.01292687564514236,0.0011049276629482249
630957.344480193,1.002600707119626,-0.0033255034790392072,0.01293282472112456,0.0011052373423677134
501187.2336272725,1.0031477930809862,-0.003977599548470676,0.012939831581055201,0.0011056083116441188
398107.17055349686,1.0037706148951193,-0.004621474361859203,0.012947808468985541,0.001106039094106183
316227.7660168379,1.0044606507751603,-0.005265026906954442,0.012956646253016776,0.001106533223217718
251188.6431509582,1.0052102235236966,-0.005921691768788713,0.012966246617949278,0.0011071021734464935
199526.2314968879,1.0060146756973416,-0.006610058395465918,0.012976549924390035,0.0011077678598490786
158489.3192461114,1.0068740392652271,-0.007352915741953389,0.012987556594476455,0.0011085648073344456
125892.5411794166,1.0077942136277172,-0.008176128727603696,0.01299934220172222,0.0011095424265248949
100000.0,1.0087876913598766,-0.00910692223622175,0.013012066769036981,0.0011107669363494505
79432.82347242821,1.0098738015131874,-0.010172392682760076,0.013025977888502798,0.0011123235755714886
63095.7344480193,1.0110783625381088,-0.011397714484207419,0.013041406280376748,0.0011143180054967007
50118.72336272724,1.012432623535719,-0.012804369414220642,0.013058752237685383,0.0011168763460698758
39810.71705534969,1.0139714564450715,-0.014409272906405,0.013078462477192703,0.0011201445236010128
31622.776601683792,1.0157309287785516,-0.016224152582006785,0.013100999056216905,0.0011242856012578888
25118.864315095827,1.0177455869510896,-0.018256464836044213,0.013126804581811544,0.0011294781194433588
19952.623149688792,1.0200459503954507,-0.020511132495327628,0.01315627011799581,0.0011359160637541227
15848.93192461114,1.0226567994169213,-0.022993960739917045,0.013189713257276798,0.0011438156893979691
12589.254117941662,1.0255967988318946,-0.025715770843113845,0.013227373299630179,0.0011534308595334247
10000.0,1.0288798280140639,-0.028696897771683584,0.01326942828794864,0.0011650790597591977
7943.282347242814,1.0325181136569477,-0.03197129301555561,0.013316035136868475,0.001179177510880641
6309.57344480193,1.0365269445037157,-0.035589520226444016,0.013367390031843934,0.0011962864792844508
5011.8723362727205,1.0409304637635406,-0.03962005667481354,0.013423802643847002,0.0012171546042970631
3981.0717055349687,1.0457678458416175,-0.04414854792302998,0.013485775282330805,0.0012427590870033767
3162.2776601683795,1.0510990848679262,-0.049274925201415916,0.013554077094073445,0.0012743316204046889
2511.8864315095802,1.0570096208457,-0.055108542801961174,0.013629803392614893,0.0013133590880201826
1995.2623149688789,1.063613061588402,-0.06176173565614289,0.013714410615490037,0.0013615476260670273
1584.8931924611124,1.0710513288403596,-0.06934249169357366,0.013809718303545007,0.0014207424064288162
1258.9254117941662,1.0794917548093823,-0.0779473221582088,0.013917872027357022,0.0014928063147379152
1000.0,1.0891211341463352,-0.08765583783935901,0.014041267315241666,0.0015794783574358032
794.3282347242813,1.1001376146914235,-0.09852878386194817,0.01418244588585011,0.001682250800928271
630.957344480193,1.1127425307610672,-0.11061101112297549,0.014343991126252335,0.0018023110961510463
501.187233627272,1.1271355180050209,-0.1239397606159566,0.014528465595312037,0.0019405802049381313
398.10717055349687,1.1435169512454175,-0.13855663960213527,0.014738442358680548,0.002097842001885709
316.227766016838,1.1621013550974473,-0.15451907044426652,0.014976676982699307,0.002274909325279487
251.18864315095797,1.1831436187405708,-0.1719043741027359,0.015246443751305589,0.0024727263714918526
199.5262314968879,1.2069765764778615,-0.19079763658542892,0.01555201778625828,0.0026922763175317205
158.48931924611125,1.2340538682334508,-0.21125355642236665,0.015899225162066516,0.0029341521955308413
125.89254117941664,1.2649857451389,-0.23322312578597146,0.01629590291399413,0.003197662088483208
100.0,1.300547050748046,-0.2564396770697532,0.016752002510284074,0.0034793926568813314
79.43282347242804,1.3416263254326952,-0.2802691576258531,0.01727893816483278,0.0037712932861858877
63.09573444801929,1.3890776753904717,-0.30355205963991544,0.017887687150513372,0.00405863792393989
50.11872336272725,1.4434463111810012,-0.3245013724051241,0.01858526751778255,0.004318700123180366
39.81071705534969,1.504584083528095,-0.34075864788594035,0.019369801169531978,0.0045214638266227935
31.622776601683796,1.5712588346877567,-0.3497108059913053,0.02022549382301986,0.004633698765300774
25.118864315095767,1.6409544770032929,-0.34908872486531545,0.021120060585414845,0.00462667575963415
19.95262314968879,1.7100747147629978,-0.3377014903446059,0.02200733419610961,0.004485639556602344
15.848931924611108,1.7746234619934094,-0.3159914784000093,0.022835998384378543,0.004216979484273374
12.589254117941664,1.831161823208076,-0.2860809937707512,0.02356187880847474,0.0038488466296820725
10.0,1.8776192723854206,-0.2512153122727414,0.02415836625564399,0.0034239727751515696
7.943282347242805,1.9135845569274237,-0.21485957249227022,0.0246201592262354,0.0029879781046314715
6.30957344480193,1.9400168853639879,-0.1798892178023172,0.024959559367345216,0.002578799409254958
5.011872336272715,1.9586363952214927,-0.14818219878864042,0.025198645123652164,0.002221187706091467
3.981071705534969,1.9713328155345329,-0.12063037570994195,0.025361677084618176,0.001926515257655559
3.1622776601683795,1.9797879513261554,-0.09739012900111949,0.025470248636377524,0.001695667052246546
2.5118864315095766,1.9853255720370488,-0.07817862631659388,0.02554135710021921,0.0015227105203603306
1.9952623149688788,1.9889096313021402,-0.06250886511273442,0.025587380106859757,0.001398151224651932
1.584893192461111,1.9912076910206484,-0.0498390849694566,0.025616889630561746,0.0013114550055924482
1.2589254117941662,1.9926674082863176,-0.039652616011789765,0.025635633974587606,0.0012527839701282672
1.0,1.993583010197189,-0.031492785525666166,0.025647391295383015,0.0012139429996803966
0.7943282347242805,1.9941456604502787,-0.024972731605408232,0.025654616328273174,0.0011886527951372706
0.6309573444801929,1.9944789640106868,-0.019772874393304496,0.025658896291073225,0.0011723872962764437
0.5011872336272715,1.994662998805531,-0.01563323724989447,0.025661259471173432,0.0011620227916487558
0.3981071705534969,1.9947502104627308,-0.012344281269948947,0.02566237932896301,0.0011554668873918134
0.31622776601683794,1.9947757631297875,-0.009737926853654853,0.025662707412765426,0.001151345844739639
0.2511886431509577,1.9947641402050107,-0.007679430586785942,0.025662558119091818,0.001148769698476703
0.1995262314968879,1.9947331632261371,-0.00606035284882279,0.025662160299317904,0.0011471671356626746
0.1584893192461111,1.9946962006448152,-0.004792709950148075,0.025661685622429126,0.0011461739761447916
0.12589254117941662,1.9946631418376373,-0.0038043651087380412,0.02566126108192544,0.0011455596266124165
0.1,1.99464064032259,-0.003035661892868399,0.025660972118468028,0.001145179187931612
0.07943282347242805,1.9946320931360497,-0.0024371999413060506,0.025660862354622963,0.001144942428981874
0.0630957344480193,1.9946377469803611,-0.0019685147572697788,0.025660934957710883,0.0011447937241300678
0.05011872336272714,1.9946551746078267,-0.0015973063808981105,0.02566115875722361,0.0011446991189700468
0.039810717055349686,1.9946801654891089,-0.001298823356829593,0.02566147968242595,0.0011446380502478039
0.031622776601683784,1.9947078789890855,-0.0010550781436400969,0.02566183557104609,0.0011445981039112211
0.02511886431509577,1.9947339818122316,-0.0008537327579278278,0.02566217077598942,0.001144571743450185
0.019952623149688792,1.9947554789046091,-0.0006866941040205281,0.025662446835527767,0.001144554307249151
0.01584893192461111,1.9947710496338984,-0.0005486206286294483,0.025662646790417947,0.0011445428189663337
0.01258925411794166,1.9947808743003084,-0.0004356171497918017,0.025662772955995942,0.0011445353101944198
0.01,1.9947861069785078,-0.0003442972199456212,0.02566284015255313,0.001144530445928096
