freq,Zreal,Zimag,sigma_re,sigma_im
1000000.0,0.9998733583951858,-0.001108017946433271,0.004344625456927683,0.004344544493192561
794328.2347242822,1.000109456053773,-0.0014914131164493563,0.004344625585533318,0.004344544583640847
630957.344480193,1.0003775154556735,-0.0018525710411403645,0.004344625731697278,0.004344544686477134
501187.2336272725,1.0006662580816599,-0.0021991158674831385,0.004344625889334041,0.004344544797438444
398107.17055349686,1.000963938036902,-0.0025451846925540634,0.004344626052182573,0.004344544912168405
316227.7660168379,1.0012614143055383,-0.0029112778136568787,0.004344626215491682,0.00434454502740644
251188.6431509582,1.0015540648514312,-0.00332276849898354,0.0043446263770798065,0.004344545141737944
199526.2314968879,1.0018420751410275,-0.003808203334824122,0.004344626537527704,0.004344545255740893
158489.3192461114,1.0021294626535404,-0.0043985213121339834,0.004344626699716274,0.004344545371684199
125892.5411794166,1.002422839202633,-0.005127776411042092,0.0043446268682717365,0.004344545493179023
100000.0,1.0027309903828783,-0.0060350837652013295,0.004344627049525774,0.004344545625216771
79432.82347242821,1.0030657427793948,-0.007166901019629969,0.004344627252273605,0.004344545774801455
63095.7344480193,1.0034438294199113,-0.008578902333238124,0.004344627489210909,0.004344545952105683
50118.72336272724,1.0038892995456237,-0.010337285496962318,0.004344627778857754,0.0043445461720342735
39810.71705534969,1.0044364106596202,-0.012519548835387504,0.004344628148004636,0.004344546456243045
31622.776601683792,1.005133138894986,-0.015214334018572032,0.00434462863481629,0.004344546835727314
25118.864315095827,1.0060448757402694,-0.01851935044079418,0.004344629292367401,0.004344547353820408
19952.623149688792,1.0072564780347093,-0.022536560177225082,0.004344630191519597,0.004344548068797989
15848.93192461114,1.0088695333154598,-0.02736575025786345,0.00434463142128274,0.004344549054727575
12589.254117941662,1.010992716172637,-0.03310105057255854,0.004344633085579987,0.004344550399834481
10000.0,1.0137276484961673,-0.03983689861352316,0.004344635298493573,0.004344552204126003
7943.282347242814,1.0171582251374984,-0.04768726214650175,0.004344638184047921,0.0043445545811492585
6309.57344480193,1.0213535215935772,-0.056815221337145,0.004344641888415092,0.0043445576702432365
5011.8723362727205,1.0263912964710664,-0.06746317578611362,0.0043446466105391945,0.004344561664181706
3981.0717055349687,1.0324022973851044,-0.0799702367753876,0.0043446526521765,0.004344566853050965
3162.2776601683795,1.0396273374180751,-0.0947639055823958,0.004344660481357304,0.004344573679349204
2511.8864315095802,1.048471292741403,-0.11231868878120123,0.004344670795319148,0.004344582792376228
1995.2623149688789,1.0595344102588367,-0.13308554708642803,0.004344684562962186,0.004344595084375104
1584.8931924611124,1.0736073743665728,-0.157409369455599,0.004344703028323221,0.004344611691239438
1258.9254117941662,1.0916329952243933,-0.18545622124246455,0.004344727666988959,0.0043446339484174935
1000.0,1.114651297297612,-0.21715992581140606,0.00434476009625801,0.004344663299377787
794.3282347242813,1.143740032025759,-0.252178830677119,0.004344801933811881,0.0043447011488440095
630.957344480193,1.179942103959044,-0.2898502549503178,0.0043448545853762895,0.004344748642873318
501.187233627272,1.224157316646989,-0.3291497171230749,0.004344918947930995,0.004344806368940501
398.10717055349687,1.2769861765540855,-0.3686893678827256,0.004344995063720173,0.004344874021150024
316.227766016838,1.3385471013301404,-0.4068020634310497,0.004345081839321265,0.004344950153989425
251.18864315095797,1.4083276996310303,-0.4417387535351425,0.004345176999615197,0.004345032196372294
199.5262314968879,1.4851502058448411,-0.47195772965590527,0.004345277408771073,0.004345116845346877
158.48931924611125,1.5673089550245476,-0.4964252787431473,0.0043453797340444,0.0043452007861279965
125.89254117941664,1.652872577007333,-0.5148139679295595,0.004345481227812282,0.004345281479745397
100.0,1.7400647910872078,-0.5275070126017004,0.00434558030417155,0.004345357678006132
79.43282347242804,1.8275927043321056,-0.5353918407453993,0.004345676677608965,0.004345429450994475
63.09573444801929,1.914809468277369,-0.5395117236540795,0.004345771046745005,0.0043454977563848855
50.11872336272725,2.0016646245640164,-0.5406937798762393,0.004345864489687937,0.004345563766760278
39.81071705534969,2.088469360910385,-0.5392688026404596,0.004345957798934271,0.004345628211938442
31.622776601683796,2.1755545731239705,-0.5349603976362239,0.004346050953179325,0.004345690934096168
25.118864315095767,2.2629218087642835,-0.5269715835755133,0.004346142868502065,0.004345750774823941
19.95262314968879,2.34998779375843,-0.5142475148744793,0.004346231510749766,0.004345805836171571
15.848931924611108,2.435504375434589,-0.495845103971955,0.004346314356931742,0.004345854053428738
12.589254117941664,2.517691918561062,-0.47130074587737897,0.004346389059394858,0.0043458938840472815
10.0,2.594556016339739,-0.44087538567981177,0.004346454056573015,0.00434592482902391
7.943282347242805,2.6642870384304986,-0.4055917736176135,0.004346508885827826,0.004345947559107129
6.30957344480193,2.7256083369891146,-0.36705706364466345,0.004346554110553775,0.004345963621244552
5.011872336272715,2.7779660762151934,-0.3271464373061167,0.004346590970916388,0.004345974915090667
3.981071705534969,2.821526042342887,-0.28766506649960893,0.004346620965552543,0.004345983202048565
3.1622776601683795,2.8570174953374923,-0.2500905218684803,0.0043466455300017765,0.004345989818015646
2.5118864315095766,2.8855051622168366,-0.21544512716205239,0.004346665869390608,0.0043459956107363374
1.9952623149688788,2.908168734123704,-0.1842913922918968,0.004346682917623295,0.004346001023208644
1.584893192461111,2.9261390484375465,-0.15680878858785327,0.004346697366394649,0.004346006227357959
1.2589254117941662,2.9404043971837446,-0.13290340119668187,0.004346709717694102,0.004346011244723033
1.0,2.9517758051065286,-0.11231438703416255,0.004346720334865765,0.004346016030508904
0.7943282347242805,2.960890873112284,-0.09469891605830554,0.004346729483596424,0.004346020522344049
0.6309573444801929,2.9682372577925076,-0.07969120659180506,0.004346737362335717,0.00434602466416876
0.5011872336272715,2.9741826295946003,-0.06693884758813654,0.004346744124316113,0.004346028415660257
0.3981071705534969,2.979003768626119,-0.05612213197497835,0.004346749893579968,0.0043460317545420315
0.31622776601683794,2.9829115739126566,-0.04696183098585176,0.004346754776845752,0.004346034676024517
0.2511886431509577,2.986071000215034,-0.039219549036417375,0.004346758872216799,0.004346037191318584
0.1995262314968879,2.9886158635537017,-0.03269360525656937,0.004346762274960462,0.004346039325698539
0.1584893192461111,2.9906588098320794,-0.02721265042545231,0.0043467650801913725,0.00434604111589482
0.12589254117941662,2.9922970145235075,-0.022628808892701135,0.004346767382431538,0.004346042606536504
0.1,2.993614518327779,-0.01881177375626118,0.004346769272563014,0.004346043845711915
0.07943282347242805,2.994682445403754,-0.01564479999794473,0.004346770833369926,0.004346044880218955
0.0630957344480193,2.9955585225479355,-0.01302286092343814,0.004346772135322473,0.004346045751447902
0.05011872336272714,2.996287101160382,-0.010852497703095031,0.004346773234091922,0.004346046492785214
0.039810717055349686,2.9969002854601943,-0.009052438713325265,0.00434677417048412,0.004346047128921763
0.031622776601683784,2.9974201153409563,-0.007554080488954051,0.00434677497254013,0.004346047676833074
0.02511886431509577,2.997861334954801,-0.006301239790863834,0.004346775658944703,0.004346048147796661
0.019952623149688792,2.9982341056104524,-0.005248978691631166,0.0043467762426338255,0.004346048549646861
0.01584893192461111,2.998546045186038,-0.004361737142613914,0.004346776733543989,0.004346048888507936
0.01258925411794166,2.9988033221685453,-0.0036113974220277944,0.004346777140011542,0.00434604916964411
0.01,2.9990111556350625,-0.002975868249333043,0.004346777469339497,0.0043460493977715686
