freq,Zreal,Zimag,sigma_re,sigma_im
1000000.0,1.003726992824109,0.02032457233273727,0.027715543669771303,0.02356706121783171
794328.2347242822,1.0038315048855653,0.01589286845338321,0.027718426029521945,0.023568791302786076
630957.344480193,1.003961836814831,0.012350611182288156,0.02772202050083598,0.023571397634314904
501187.2336272725,1.0041167900441614,0.009521708404332325,0.027726294023763736,0.023574752196875666
398107.17055349686,1.0042919497573215,0.00726751779507508,0.027731124837383575,0.02357868810344098
316227.7660168379,1.0044793788420125,0.005477837587824418,0.027736294038455168,0.02358297899655942
251188.6431509582,1.0046677008081193,0.004063297989525328,0.02774148786775943,0.023587332567330505
199526.2314968879,1.004842633639238,0.002948947590366454,0.027746312433124518,0.023591397779655528
158489.3192461114,1.0049879803582789,0.002068938988865561,0.027750321028577662,0.023594784756604682
125892.5411794166,1.0050869908761677,0.0013622753423623356,0.027753051693492358,0.023597094588059822
100000.0,1.0051239152696327,0.0007695692295738414,0.0277540700514314,0.02359795439515491
79432.82347242821,1.0050855086533736,0.00023069338250375016,0.0277530108141023,0.023597051777282507
63095.7344480193,1.0049622479452525,-0.0003169044625285796,0.027749611339478536,0.023594162905798445
50118.72336272724,1.0047490866875188,-0.0009395502208719225,0.027743732449640554,0.02358917016683209
39810.71705534969,1.0044456920882636,-0.0017087505377537796,0.027735364968335806,0.02358206809301924
31622.776601683792,1.0040562529543224,-0.002703068437115119,0.027724624423748238,0.023572959781886837
25118.864315095827,1.0035890902081377,-0.00401082834780059,0.0277117403064802,0.023562049448468937
19952.623149688792,1.0030564214668756,-0.005733928029512057,0.02769704957640806,0.02354963972418272
15848.93192461114,1.002474717581628,-0.007992924281981818,0.027681006495462384,0.023536144592191624
12589.254117941662,1.0018661459083031,-0.010933438194719688,0.027664222431882067,0.023522130572515853
10000.0,1.0012616410123207,-0.014733820911368161,0.027647550548181514,0.023508400423924304
7943.282347242814,1.000706212042176,-0.0196139184683368,0.02763223217519995,0.023496136054993975
6309.57344480193,1.0002672341433132,-0.02584466636491802,0.027620125484579223,0.02348712167942284
5011.8723362727205,1.0000467320534023,-0.03375805993750462,0.02761404426469681,0.023484075727517813
3981.0717055349687,1.0001990835398002,-0.043756629856484916,0.02761824617724875,0.023491131223462317
3162.2776601683795,1.000956110985008,-0.056320689784518464,0.02763912478719027,0.02351451752020609
2511.8864315095802,1.0026619557943282,-0.07200993175448074,0.027686171428445188,0.023563503702351538
1995.2623149688789,1.005819775040389,-0.09145302878455995,0.02777326319212002,0.023651645093656186
1584.8931924611124,1.0111497362191948,-0.11531470140114723,0.027920262664390547,0.02379828696397786
1258.9254117941662,1.019650730413994,-0.1442255227296434,0.02815472051614665,0.024030059790645198
1000.0,1.0326447419078726,-0.17865997417756363,0.02851310027389115,0.02438170502903345
794.3282347242813,1.051765480748076,-0.21876110018408845,0.029040466562646854,0.024895109395191874
630.957344480193,1.0788448252203144,-0.2641420745344355,0.029787355489263263,0.025615335972024117
501.187233627272,1.115673294765104,-0.3137364627560827,0.030803170404143036,0.026583357566196727
398.10717055349687,1.163671006451827,-0.36578592486800665,0.03212710670683437,0.02782715291640277
316.227766016838,1.2235700646477594,-0.4180145079883505,0.0337793884221475,0.02935449854193582
251.18864315095797,1.295225237370845,-0.4679568871956543,0.03575603978421528,0.031150491901997014
199.5262314968879,1.377621630763393,-0.5133390430874516,0.0380290896286367,0.03318061278944005
158.48931924611125,1.469070645194692,-0.5523933092905442,0.0405519715426036,0.03539775682959005
125.89254117941664,1.567521420465461,-0.5840228343666733,0.043268113785600915,0.037750579715185875
100.0,1.6708862662628796,-0.6077895635978212,0.04611991861444318,0.04019070205385777
79.43282347242804,1.777288979902792,-0.6237591989048346,0.04905561617142227,0.04267722615423643
63.09573444801929,1.885184259303533,-0.6322748261965935,0.05203256227767407,0.04517808228685437
50.11872336272725,1.9933445459599657,-0.6337384372834878,0.05501687788082201,0.0476686267067134
39.81071705534969,2.100748983673104,-0.6284618961794315,0.05798038676387128,0.05012849201172194
31.622776601683796,2.206429550111294,-0.6166188848467578,0.06089637069962583,0.052537923609588054
25.118864315095767,2.309332646860322,-0.5982978163208277,0.06373575055607693,0.05487478541672722
19.95262314968879,2.4082442366448813,-0.5736285257099628,0.0664650205550725,0.05711314525821434
15.848931924611108,2.5018060393890127,-0.5429362591483919,0.06904669506737762,0.05922389633194116
12.589254117941664,2.588622521545947,-0.5068689668493119,0.07144226077926982,0.06117729269243726
10.0,2.667429512815698,-0.46645193988447464,0.07361682950716146,0.06294670016433807
7.943282347242805,2.7372748025783653,-0.4230472056935021,0.07554412168122286,0.06451248253824414
6.30957344480193,2.797657660892263,-0.37822632909725207,0.0772103164381453,0.06586491948847861
5.011872336272715,2.8485893590349143,-0.3335920246355547,0.07861572174937202,0.0670053980210595
3.981071705534969,2.8905631611432288,-0.2905963451972041,0.07977394641938114,0.06794567444389071
3.1622776601683795,2.9244489137729603,-0.2503987907321663,0.08070899135114673,0.06870554892781577
2.5118864315095766,2.951345496619865,-0.21379075085911747,0.08145117796464998,0.06930966216552746
1.9952623149688788,2.972429722878345,-0.18119055944620127,0.08203297861444542,0.0697842311578508
1.584893192461111,2.988832929072112,-0.15269398157514302,0.08248561107229574,0.07015438753787936
1.2589254117941662,3.0015610365432273,-0.1281545689428231,0.08283683259043194,0.07044245561483313
1.0,3.0114578368244134,-0.107268984348426,0.08310992671610623,0.07066716507338378
0.7943282347242805,3.019200999801908,-0.08965059666161283,0.08332359308785023,0.07084357213317262
0.6309573444801929,3.0253175083979045,-0.0748844111186599,0.08349237330910526,0.07098340175662643
0.5011872336272715,3.0302074920202564,-0.06256349157593455,0.08362730859200601,0.07109557202020983
0.3981071705534969,3.0341693883224563,-0.05231043475686202,0.08373663406328463,0.07118674729283837
0.31622776601683794,3.037422831388167,-0.04378816516182851,0.08382641033794444,0.07126184201907788
0.2511886431509577,3.0401279350804766,-0.03670370981875727,0.08390105562355658,0.07132444612337005
0.1995262314968879,3.0424008392001056,-0.030807637434865275,0.08396377470162607,0.07137716900849736
0.1584893192461111,3.0443258855120656,-0.025890995208068077,0.08401689491395797,0.07142190990477675
0.12589254117941662,3.0459649226297727,-0.021780844617182396,0.08406212292276032,0.0714600651566594
0.1,3.0473642204278426,-0.018335410123993538,0.08410073550794779,0.07149268268871097
0.07943282347242805,3.048559421346137,-0.015439025475370807,0.08413371619421106,0.07152057277235536
0.0630957344480193,3.049578913973782,-0.012997468101210543,0.08416184834225329,0.07154438347365992
0.05011872336272714,3.0504459908531087,-0.010933893510200007,0.0841857746915867,0.07156464875928836
0.039810717055349686,3.051180137194898,-0.009185389817097298,0.08420603292153758,0.07158181702141435
0.031622776601683784,3.051797776063437,-0.007700327626006447,0.08422307621398173,0.07159626740460374
0.02511886431509577,3.052312757541222,-0.006436370916810429,0.08423728675141551,0.07160832049479852
0.019952623149688792,3.052736817520798,-0.00535902550635048,0.08424898837693198,0.0716182485417385
0.01584893192461111,3.053080141307025,-0.0044405076731471255,0.0842584621463787,0.07162628830396682
0.01258925411794166,3.0533520460859975,-0.0036587069056747312,0.08426596516056555,0.07163265679329697
0.01,3.0535616574636624,-0.002996041163341459,0.084271749233838,0.07163756695770439
