freq,Zreal,Zimag,sigma_re,sigma_im
1000000.0,0.9955236031698294,0.00010436370360483214,0.0327227695366635,0.002461414777371128
794328.2347242822,0.9954539889083468,-0.00017606310197558698,0.03272049317665529,0.0024614046361557326
630957.344480193,0.9953827376816484,-0.0005037630318250417,0.03271816328938904,0.002461438384268793
501187.2336272725,0.9953220845493687,-0.0008998290371149087,0.032716179956405335,0.0024615470431882122
398107.17055349686,0.9952889629764543,-0.00138293031950025,0.03271509689470511,0.0024617807771319176
316227.7660168379,0.9953039710871207,-0.0019679763516506433,0.03271558765405434,0.00246221164014881
251188.6431509582,0.9953895887459632,-0.0026652226587787686,0.03271838731752933,0.002462934166866011
199526.2314968879,0.9955678796298996,-0.003480207106102445,0.032724217362437406,0.0024640634297913053
158489.3192461114,0.9958580285962567,-0.004414764751076065,0.03273370513604977,0.0024657318349843448
125892.5411794166,0.9962741536536559,-0.005469158774058656,0.03274731231041998,0.00246808780888597
100000.0,0.9968238586578254,-0.006645272891797156,0.03276528755726632,0.002471301234860396
79432.82347242821,0.997507931744786,-0.007950580797610643,0.03278765668603355,0.002475581144079984
63095.7344480193,0.9983214435335328,-0.009402359673999775,0.032814258552181556,0.002481210392854777
50118.72336272724,0.9992562816188962,-0.011031736642841815,0.03284482793133675,0.0024886016678666353
39810.71705534969,1.0003049181171568,-0.012886978020244034,0.03287911871578254,0.0024983781931117977
31622.776601683792,1.0014650021590414,-0.015035690689997355,0.03291705409085531,0.0025114834783503035
25118.864315095827,1.0027442557672996,-0.017565797684664392,0.03295888663839609,0.0025293257096164795
19952.623149688792,1.0041651678747705,-0.02058541905276262,0.033005351847523935,0.002553962622117306
15848.93192461114,1.0057691337437837,-0.024222014935387275,0.03305780349998776,0.0025883289428419685
12589.254117941662,1.0076199488151893,-0.02862127833798218,0.03311832795847155,0.0026364977467649322
10000.0,1.0098068882545166,-0.03394625662014324,0.03318984492643006,0.0027039474391855885
7943.282347242814,1.0124479308426955,-0.04037701454393421,0.033276212958285326,0.00279777914805931
6309.57344480193,1.0156939654982848,-0.04811082316503117,0.03338236715046652,0.0029268036405615786
5011.8723362727205,1.0197349985483464,-0.057362367679888074,0.03351452233541369,0.0031014097325152887
3981.0717055349687,1.0248093967511043,-0.06836281186577033,0.03368047566982758,0.003333155673176807
3162.2776601683795,1.0312169594185465,-0.08135573887129768,0.03389003463139153,0.0036340880312924493
2511.8864315095802,1.039335956567348,-0.09658704095647419,0.034155575006844144,0.0040158463230411
1995.2623149688789,1.0496429622945525,-0.11428488752608316,0.03449269072723834,0.004488596810975998
1584.8931924611124,1.0627320703739254,-0.13462532030628657,0.03492082410144319,0.005059745830269715
1258.9254117941662,1.0793267478508464,-0.1576795459674763,0.03546365600865929,0.005732287359918189
1000.0,1.100273546504598,-0.18334177280605068,0.03614890340689986,0.006502654419167516
794.3282347242813,1.1265036419822347,-0.21124262775705632,0.037007064725449054,0.007358137684898731
630.957344480193,1.1589485018366343,-0.2406628516318997,0.03806866373383295,0.008274286384278892
501.187233627272,1.1984029832626408,-0.2704727310171565,0.039359770525894996,0.009213100740373452
398.10717055349687,1.24534394943402,-0.29912968709096976,0.04089606166736175,0.010123080079512198
316.227766016838,1.299732507760332,-0.32476421850658854,0.042676337423748746,0.010942127368323581
251.18864315095797,1.360847507095904,-0.3453696011902698,0.044677055969287484,0.011603825636603856
199.5262314968879,1.4272093765580407,-0.35908283487586157,0.04684982268794842,0.012046684162701828
158.48931924611125,1.4966469971824599,-0.36450701242546063,0.049123565891902005,0.012224728103840447
125.89254117941664,1.566526844490364,-0.36099168166396167,0.051412034536631374,0.012116703683422934
100.0,1.6341067692826967,-0.34878142310165605,0.05362538785878935,0.01173096129319661
79.43282347242804,1.6969240447692724,-0.3289801802807828,0.05568291528422416,0.011104296222194526
63.09573444801929,1.7531138470283427,-0.3033445516938369,0.057523481145503416,0.01029517052410064
50.11872336272725,1.8015872899675176,-0.27397347803986616,0.05911136791149112,0.009373508972602829
39.81071705534969,1.8420502242952717,-0.24297885717101045,0.06043689958863959,0.008409820250308215
31.622776601683796,1.8748859222823273,-0.2122084800343926,0.06151260203669521,0.007465970643094834
25.118864315095767,1.9009492682831792,-0.18306804131664772,0.06236646094188727,0.006589144456263883
19.95262314968879,1.9213321791697546,-0.1564604499320909,0.06303423531676242,0.005809605383138349
15.848931924611108,1.937158269268902,-0.13282866334776072,0.06355272835042577,0.005141835557671065
12.589254117941664,1.94944434807392,-0.11226182997189488,0.06395524787751508,0.004587778647438656
10.0,1.9590350245766937,-0.09461771706986515,0.06426946239340692,0.0041407172407164445
7.943282347242805,1.9665926587956672,-0.0796280719197794,0.06451707084579222,0.0037887770736289798
6.30957344480193,1.9726178459861397,-0.06697391626322596,0.06471447313401703,0.003517679382687104
5.011872336272715,1.9774808442444298,-0.05633221874079697,0.06487379940136145,0.0033127424734810387
3.981071705534969,1.981452795233772,-0.04740115228180228,0.06500393270843251,0.0031602320855361353
3.1622776601683795,1.9847320641591062,-0.03991139987489922,0.0651113718916881,0.003048150694584869
2.5118864315095766,1.9874646315147297,-0.03362922614431313,0.06520089959277914,0.002966561974442003
1.9952623149688788,1.9897590547143462,-0.028355146827768764,0.06527607241002914,0.0029075746044598333
1.584893192461111,1.9916970396288187,-0.023920587261453335,0.06533956723325063,0.002865121532307493
1.2589254117941662,1.9933407200339897,-0.020183942495189563,0.06539341972854214,0.002834651508543689
1.0,1.9947376269898633,-0.017026809021575703,0.06543918714313833,0.0028128122540786796
0.7943282347242805,1.9959241572983866,-0.014350735104162859,0.06547806193833826,0.0027971675768350616
0.6309573444801929,1.9969281614008403,-0.012074558965079748,0.06551095657431406,0.0027859640819799577
0.5011872336272715,1.9977710807122828,-0.010132230928863263,0.06553857353422754,0.0027779479230994235
0.3981071705534969,1.9984698811485322,-0.008470926261711977,0.06556146867176367,0.002772225299909622
0.31622776601683794,1.9990388642761907,-0.007049238130067785,0.06558011054974043,0.0027681585948789514
0.2511886431509577,1.999491304474728,-0.005835283814067744,0.06559493407863871,0.0027652905428587975
0.1995262314968879,1.9998407751879996,-0.004804646469759131,0.06560638396883876,0.002763290078482474
0.1584893192461111,2.000102001381951,-0.0039381865309042925,0.06561494265982423,0.0027619147161118537
0.12589254117941662,2.0002911114157103,-0.003219865953675208,0.06562113857210368,0.002760985212338011
0.1,2.000425250244076,-0.0026348025076054216,0.0656255334341162,0.0027603688754653834
0.07943282347242805,2.000521635413332,-0.0021677872757867953,0.06562869135310033,0.0027599684312859547
0.0630957344480193,2.0005962567170537,-0.001802458589211071,0.06563113621104413,0.002759714036638695
0.05011872336272714,2.0006625062546095,-0.0015212220285639002,0.06563330678043174,0.002759556873988362
0.039810717055349686,2.000730051580424,-0.0013058615647809704,0.06563551980455165,0.0027594636289598904
0.031622776601683784,2.0008042198863714,-0.0011386879470809182,0.06563794982109004,0.0027594118279425785
0.02511886431509577,2.000886054053887,-0.001003834176548389,0.06564063099856639,0.0027593862045800863
0.019952623149688792,2.000973055571534,-0.0008885029951832316,0.06564348147691587,0.0027593762754724452
0.01584893192461111,2.001060474751159,-0.000783772533640963,0.06564634563951742,0.0027593748956993495
0.01258925411794166,2.0011428735851973,-0.0006847375780210641,0.06564904531792781,0.002759377421018785
0.01,2.00121559815099,-0.0005899741597400488,0.06565142803307548,0.002759381123120974
