freq,Zreal,Zimag,sigma_re,sigma_im
1000000.0,0.9997382250344856,0.00039201968111018167,0.0020615673347766225,0.002060748305147461
794328.2347242822,0.9998130016666825,0.00017759408967098038,0.0020615675188816254,0.0020607483666759577
630957.344480193,0.9998955783338749,6.111713868734033e-06,0.0020615677223352813,0.002060748434841168
501187.2336272725,0.9999806936488806,-0.00012871076535290711,0.002061567932122151,0.0020607485052089435
398107.17055349686,1.0000626948085234,-0.0002344494516443405,0.0020615681342782428,0.0020607485730541604
316227.7660168379,1.0001368283853127,-0.0003202169276419374,0.002061568317068736,0.002060748634421283
251188.6431509582,1.0002002404798258,-0.0003962489369329546,0.002061568473451228,0.0020607486869452887
199526.2314968879,1.0002524609022625,-0.0004731441468033259,0.0020615686022683573,0.0020607487302471304
158489.3192461114,1.0002953570303033,-0.0005610830063292041,0.0020615687081341517,0.00206074876589316
125892.5411794166,1.0003326878504943,-0.0006692653625100922,0.002061568800335735,0.00206074879702703
100000.0,1.0003694497665039,-0.0008056869951711764,0.00206156889122272,0.002060748827832242
79432.82347242821,1.00041119987903,-0.000977268493596608,0.0020615689945423076,0.0020607488629784065
63095.7344480193,1.0004634972474273,-0.0011902778744819142,0.002061569124066936,0.00206074890716744
50118.72336272724,1.0005315441704186,-0.0014509543939579088,0.0020615692927175304,0.002060748964848566
39810.71705534969,1.0006200554203166,-0.001766237520261681,0.00206156951225247,0.002060749040127314
31622.776601683792,1.0007333421905418,-0.0021445213860243678,0.002061569793491475,0.002060749136860677
25118.864315095827,1.0008755719387705,-0.0025963818400584716,0.0020615701469813355,0.0020607492589105464
19952.623149688792,1.0010511548222243,-0.0031352530880337315,0.0020615705839856484,0.002060749410520289
15848.93192461114,1.0012652097207457,-0.003778058378048373,0.0020615711176879244,0.0020607495967833937
12589.254117941662,1.0015240744917115,-0.004545820487802379,0.002061571764528348,0.0020607498241859315
10000.0,1.0018358418623659,-0.005464291128681069,0.002061572545638946,0.0020607501012230886
7943.282347242814,1.0022109204948104,-0.00656464449487504,0.002061573488391115,0.00206075043911166
6309.57344480193,1.0026626387177855,-0.007884280862676377,0.0020615746281202026,0.0020607508526445904
5011.8723362727205,1.0032079260123747,-0.009467781963433106,0.002061576010144359,0.002060751361261252
3981.0717055349687,1.0038681233129056,-0.011368050873532059,0.0020615776922471786,0.0020607519904383568
3162.2776601683795,1.004669986368248,-0.013647657619414827,0.0020615797478442093,0.0020607527735419327
2511.8864315095802,1.0056469593577546,-0.0163804006120029,0.002061582270110472,0.00206075375432478
1995.2623149688789,1.006840814247036,-0.019653082658760538,0.0020615853774260916,0.0020607549903135665
1584.8931924611124,1.0083037792633116,-0.02356748378975446,0.002061589220613895,0.0020607565574111944
1258.9254117941662,1.0101013200732085,-0.028242485673615536,0.002061593992607348,0.002060758556147676
1000.0,1.0123157940452903,-0.03381625593666891,0.0020615999414150886,0.0020607611201499585
794.3282347242813,1.0150512756339065,-0.040448319522488,0.0020616073875551473,0.0020607644275655156
630.957344480193,1.0184399470670669,-0.048321202817551326,0.0020616167475142172,0.002060768716344564
501.187233627272,1.0226505482177786,-0.05764110040576199,0.0020616285652028054,0.002060774304401575
398.10717055349687,1.0278994482997044,-0.06863664006536442,0.002061643553716021,0.00206078161560924
316.227766016838,1.0344648675959551,-0.08155425332799342,0.002061662649728657,0.0020607912120721465
251.18864315095797,1.0427044908887801,-0.0966478437862337,0.002061687082039041,0.0020608038317109496
199.5262314968879,1.053075902971384,-0.11415939655724625,0.002061718453172341,0.002060820427084054
158.48931924611125,1.0661575338899274,-0.13428610319433615,0.0020617588270769463,0.002060842195548492
125.89254117941664,1.0826646863311589,-0.1571291030714313,0.002061810805042552,0.002060870581479666
100.0,1.1034505839665032,-0.18262029204212674,0.002061877555050976,0.002060907219006878
79.43282347242804,1.1294770526312305,-0.210428631658931,0.002061962738963449,0.002060953773249242
63.09573444801929,1.1617360968337824,-0.23985765570335627,0.002062070265844872,0.002061011640771597
50.11872336272725,1.2011070657216376,-0.26976104058761396,0.0020622038053198888,0.0020610815033214524
39.81071705534969,1.2481495699714844,-0.29851836246735536,0.0020623660430779474,0.0020611628056053707
31.622776601683796,1.3028612450071255,-0.3241184989310021,0.002062557762057299,0.0020612533335964997
25.118864315095767,1.3644646311754642,-0.34438181445082716,0.002062776968409944,0.0020613491438081963
19.95262314968879,1.4313114484567495,-0.35730840157939386,0.002063018391133663,0.0020614450444526944
15.848931924611108,1.5009824899221096,-0.36147723968672835,0.0020632736780104534,0.0020615356063638387
12.589254117941664,1.57060267798173,-0.35637007760515843,0.0020635324176307124,0.0020616163705677515
10.0,1.637299094646897,-0.34249560219590786,0.00206378377660263,0.0020616847445635777
7.943282347242805,1.6986579666507078,-0.32126188713380416,0.002064018243085841,0.0020617402232187033
6.30957344480193,1.753037591578607,-0.2946507144128021,0.002064228925053865,0.0020617839504890223
5.011872336272715,1.799666867599039,-0.26481797530248524,0.002064412087724161,0.0020618179548728315
3.981071705534969,1.8385495778579348,-0.23374456163458965,0.0020645669469688127,0.002061844437019639
3.1622776601683795,1.8702513370786233,-0.2030114334683922,0.002064694968601264,0.002061865319536591
2.5118864315095766,1.8956554394218528,-0.1737118612559359,0.002064798988373118,0.002061882072384324
1.9952623149688788,1.9157507206316544,-0.14647142826396642,0.0020648824033397224,0.002061895720901283
1.584893192461111,1.9314807896606057,-0.12153025473104007,0.002064948566833832,0.0020619069321224435
1.2589254117941662,1.9436558476046903,-0.09884653132912088,0.002065000410508488,0.0020619161099207583
1.0,1.9529127941702584,-0.07819505319993149,0.0020650402509589712,0.002061923468084611
0.7943282347242805,1.9597055489359185,-0.059249597104266985,0.002065069717482578,0.0020619290752721424
0.6309573444801929,1.964310906056201,-0.041648820997883536,0.002065089746580007,0.002061932876939373
0.5011872336272715,1.9668414880120637,-0.02505110102088961,0.0020651006116346295,0.0020619347028062655
0.3981071705534969,1.9672641278744667,-0.009185270627566577,0.0020651019833142006,0.0020619342696307765
0.31622776601683794,1.965428370817154,0.006097875414503594,0.0020650930432640404,0.0020619311910398523
0.2511886431509577,1.9611144952938466,0.020774648937900077,0.0020650726941781566,0.002061925009207341
0.1995262314968879,1.9541103489897718,0.03460971914061161,0.002065039908009531,0.0020619152643974394
0.1584893192461111,1.944317001800739,0.047151922207004135,0.0020649942102451495,0.002061901612203176
0.12589254117941662,1.931863827232902,0.057789522865443525,0.002064936207761526,0.0020618839795394557
0.1,1.9171923973662697,0.06587473760996998,0.002064867969773714,0.002061862720092849
0.07943282347242805,1.901062157190363,0.07089462624393039,0.002064793043426209,0.0020618387008660972
0.0630957344480193,1.8844532662994684,0.07263125294446494,0.0020647159920731814,0.0020618132495632863
0.05011872336272714,1.8683889165775023,0.07124475705497035,0.002064641563423641,0.002061787940878678
0.039810717055349686,1.8537421653395656,0.06724373746387285,0.0020645737920642,0.002061764283661805
0.031622776601683784,1.8410984815242228,0.06136094211394338,0.0020645153665878376,0.0020617434304082824
0.02511886431509577,1.8307117404125477,0.054390985639482345,0.0020644674334978504,0.002061726016174294
0.019952623149688792,1.822546215378119,0.047049452406875684,0.002064429799510052,0.0020617121606839738
0.01584893192461111,1.8163680870289136,0.039888295214219244,0.0020644013604661717,0.0020617015921402075
0.01258925411794166,1.8118452521230393,0.03327193943695618,0.002064380565252599,0.0020616938168433207
0.01,1.8086268818050488,0.027397266927544496,0.002064365783424513,0.0020616882696758328
