freq,Zreal,Zimag,sigma_re,sigma_im
1000000.0,0.9989565979453763,0.0020885153897967313,0.001754684254852233,0.0017463471553926747
794328.2347242822,0.999092905652149,0.001318083832192599,0.0017549054986331115,0.0017465671527820954
630957.344480193,0.9992718330864602,0.0006710739950453275,0.0017551959332237376,0.001746855969408668
501187.2336272725,0.999496268489218,0.00013385278841430493,0.001755560247511234,0.0017472182641705201
398107.17055349686,0.9997640041241663,-0.0002995128759661515,0.0017559948597500512,0.0017476504722227688
316227.7660168379,1.0000662182248998,-0.0006305663138884067,0.0017564854521820623,0.001748138352806884
251188.6431509582,1.0003870177388257,-0.0008604399755316711,0.001757006227185997,0.0017486562493718041
199526.2314968879,1.0007045172389268,-0.000993974934207169,0.001757521657065422,0.0017491688297023465
158489.3192461114,1.0009935876897436,-0.0010431978383932655,0.001757990945277073,0.0017496355225076379
125892.5411794166,1.0012299443549326,-0.0010293322085851166,0.0017583746629616587,0.0017500171171764387
100000.0,1.0013947884573016,-0.0009827762808774336,0.0017586422859266443,0.0017502832588689823
79432.82347242821,1.0014789393375991,-0.0009407781257520508,0.0017587789052731992,0.0017504191217732605
63095.7344480193,1.0014854319851891,-0.0009435325779502484,0.001758789446207767,0.0017504296044404976
50118.72336272724,1.0014299259373358,-0.0010294407501999976,0.0017586993322971508,0.0017503399904534062
39810.71705534969,1.0013388404389334,-0.001230633890086888,0.0017585514569163421,0.0017501929369308402
31622.776601683792,1.0012456876655325,-0.0015701276147034936,0.0017584002287447877,0.001750042553346237
25118.864315095827,1.0011864471482488,-0.00206064992936265,0.0017583040613783488,0.0017499469329554692
19952.623149688792,1.001194933822374,-0.002705669731927803,0.0017583178540927491,0.0017499606752128976
15848.93192461114,1.001298983126607,-0.0035022078019306025,0.0017584868004435572,0.0017501287285085726
12589.254117941662,1.0015180024560983,-0.00444491535990822,0.001758842415581498,0.00175048243935902
10000.0,1.0018621321138055,-0.005530796749777906,0.001759401175943876,0.0017510381997811921
7943.282347242814,1.0023330052466166,-0.006764010358099038,0.0017601657536457805,0.0017517986755077864
6309.57344480193,1.0029259272718019,-0.008160286989117995,0.0017611285543930057,0.0017527563256687776
5011.8723362727205,1.0036331994538121,-0.009750640241547176,0.0017622771129475222,0.0017538987706069214
3981.0717055349687,1.0044482617375263,-0.011584163814868875,0.0017636008202311102,0.0017552154850315226
3162.2776601683795,1.0053703117836674,-0.013729829035940989,0.0017650984268009812,0.0017567052646398908
2511.8864315095802,1.00640907630841,-0.016277314896154887,0.001766785798456775,0.0017583839453639153
1995.2623149688789,1.0075894806144137,-0.019337008861171474,0.0017687035130940264,0.0017602919673253947
1584.8931924611124,1.00895608077166,-0.023039379706102328,0.0017709240810094434,0.0017625015677794017
1258.9254117941662,1.0105772625161638,-0.02753391557061976,0.0017735587989714773,0.0017651236142672544
1000.0,1.01254933002999,-0.032987741039675875,0.0017767644442377177,0.001768314283942785
794.3282347242813,1.0150006783633607,-0.03958392505403033,0.001780750133007691,0.0017722819124425695
630.957344480193,1.0180962752395146,-0.047519369456332186,0.0017857847246756338,0.0017772943916734023
501.187233627272,1.0220427233513394,-0.057002073183687774,0.0017922052333249803,0.0017836875745257837
398.10717055349687,1.0270943023021977,-0.068247541539477,0.0018004269241536897,0.001791875358021221
316.227766016838,1.0335606346140005,-0.0814736787205023,0.0018109561816671952,0.0018023625204816984
251.18864315095797,1.0418169088685554,-0.09689307115286447,0.0018244077199370875,0.001815761864609078
199.5262314968879,1.0523176459094705,-0.11470031267654915,0.0018415278095506784,0.0018328173138857133
158.48931924611125,1.0656142271675866,-0.1350500184983967,0.0018632239671315335,0.001854433373311416
125.89254117941664,1.082373922628875,-0.15801934317982597,0.0018905975165426265,0.0018817073302025637
100.0,1.103393018212999,-0.18354731136482666,0.0019249669997022574,0.001915952162706783
79.43282347242804,1.129588645385936,-0.21134576445403208,0.001967857156447412,0.0019586849357361076
63.09573444801929,1.1619451431876424,-0.24078616417294552,0.002020913368819112,0.002011540785930274
50.11872336272725,1.2013874931780717,-0.2707858039841224,0.0020856952511418402,0.002076066605680552
39.81071705534969,1.2485667846334714,-0.29974284071038226,0.002163322509319439,0.002153368176253802
31.622776601683796,1.3035787721809458,-0.3255880441189202,0.002254005322847935,0.0022436435421847875
25.118864315095767,1.3656905056165094,-0.34600994675152036,0.0023565819228482158,0.0023457251546194205
19.95262314968879,1.4331948183335759,-0.358853444520687,0.0024682636516315964,0.0024568296779872148
15.848931924611108,1.5035081175541205,-0.36260006085151825,0.00258478442109534,0.002572709943506656
12.589254117941664,1.5735460200972748,-0.356758394723863,0.0027010182906110525,0.00268827068067448
10.0,1.6402770222633722,-0.34199412426625286,0.0028119024667079317,0.002798485351109121
7.943282347242805,1.7012531561117052,-0.3199390426892803,0.002913329394058651,0.0028992802925677384
6.30957344480193,1.7549321422225157,-0.2927720805956896,0.003002694086126698,0.002988075709048311
5.011872336272715,1.8007243063468183,-0.26275069162916126,0.003078980912535873,0.0030638697531277436
3.981071705534969,1.838822761525194,-0.2318454137706802,0.003142485286583487,0.003126961033145429
3.1622776601683795,1.8699327638152246,-0.20154361029723136,0.0031943637777024584,0.0031785016206702884
2.5118864315095766,1.8950039676594197,-0.17280887894747005,0.003236186932563616,0.003220053248587598
1.9952623149688788,1.9150244263328449,-0.14614253275583547,0.0032695942192758672,0.0032532450768101005
1.584893192461111,1.930891221337815,-0.12169018729913306,0.0032960767227502154,0.0032795582774904635
1.2589254117941662,1.9433455043715475,-0.0993529664548945,0.003316867564443112,0.003300217483269395
1.0,1.952950403136115,-0.07888316204454951,0.003332904171996363,0.0033161534762643757
0.7943282347242805,1.9600922642779122,-0.05995955216786973,0.0033448297747970543,0.0033280047490332116
0.6309573444801929,1.9649922531942616,-0.04224609854766899,0.00335301239456107,0.0033361363878010833
0.5011872336272715,1.9677223883374149,-0.02544094859927792,0.003357571388555435,0.0033406664290077494
0.3981071705534969,1.9682263508049465,-0.009322384746860049,0.003358412078219846,0.003341500237859924
0.31622776601683794,1.9663506393235521,0.006204803870991406,0.0033552777441857857,0.003338382144537569
0.2511886431509577,1.961894811469219,0.021065511583313663,0.0033478335694671303,0.0033309788407170477
0.1995262314968879,1.9546878120801947,0.03498539955213527,0.0033357941946556427,0.00331900614356965
0.1584893192461111,1.9446874012536548,0.047497594158054136,0.003319089835667281,0.0033023941305944647
0.12589254117941662,1.9320819711753918,0.058005423219346375,0.003298036282900633,0.0032814561988261963
0.1,1.9173568819937696,0.06590572085844612,0.0032734454539323065,0.00325699910937266
0.07943282347242805,1.9012849894198727,0.07074748648302316,0.0032466091598859575,0.003230307040693426
0.0630957344480193,1.8848240840023447,0.07237201239201885,0.0032191273828441835,0.0032029710212456946
0.05011872336272714,1.868947102967164,0.07097604134017968,0.0031926244925166887,0.0031766068037739604
0.039810717055349686,1.8544673317218665,0.06707106750152508,0.0031684574553682674,0.00315256458806264
0.031622776601683784,1.8419216207806337,0.06136138545988886,0.0031475212208395276,0.0031317352437769098
0.02511886431509577,1.8315403568593056,0.054595403942957234,0.0031301990481322145,0.0031145006617911107
0.019952623149688792,1.8232920107029675,0.047442229956406595,0.0031164372231101117,0.0031008079068516755
0.01584893192461111,1.8169672087203692,0.04042068983932959,0.003105885551475313,0.0030903089106776136
0.01258925411794166,1.8122665333097032,0.033881079261890795,0.0030980439050743934,0.0030825062730301545
0.01,1.8088691741414231,0.028023216842718333,0.00309237671778214,0.0030768672185484546
