freq,Zreal,Zimag,sigma_re,sigma_im
1000000.0,1.009070430766172,0.0031289122136153183,0.019212967472805365,0.017045507575186206
794328.2347242822,1.0092874238211063,0.001761244535306124,0.019217094848165365,0.01704915316829793
630957.344480193,1.0095585877659536,0.0005723728678343966,0.019222252597494015,0.017053721505807834
501187.2336272725,1.0098854295743953,-0.00047863653457796843,0.019228469385342294,0.01705923520518374
398107.17055349686,1.010267371166172,-0.0014260649225046604,0.019235734217135043,0.017065682761790137
316227.7660168379,1.0107028345021558,-0.002300351355729823,0.019244017078464983,0.017073036532886828
251188.6431509582,1.0111905501552245,-0.003129969863631136,0.019253293825113333,0.01708127463294049
199526.2314968879,1.011730824904472,-0.0039424966277288274,0.019263570293730756,0.017090402220623382
158489.3192461114,1.01232659910984,-0.004765049996278326,0.019274902414059505,0.01710046928962987
125892.5411794166,1.012984202039502,-0.005624279661026738,0.01928741057606567,0.01711158339665025
100000.0,1.0137137659213766,-0.006546093600694792,0.019301287505819123,0.017123916655748663
79432.82347242821,1.01452929605785,-0.007555257820668531,0.01931679959950485,0.01713770694819431
63095.7344480193,1.01544842134605,-0.008675002028365155,0.019334282178573896,0.017153253753901417
50118.72336272724,1.0164918693271345,-0.009926766453047577,0.019354129505294394,0.017170909346650352
39810.71705534969,1.017682723999528,-0.011330141561138983,0.01937678066637018,0.01719106633389458
31622.776601683792,1.0190455360593023,-0.012903094399409041,0.019402702649659452,0.017214142721406398
25118.864315095827,1.0206053681079719,-0.014662588463963854,0.019432372183946226,0.01724056591071787
19952.623149688792,1.02238687511155,-0.01662559514685806,0.019466258249206295,0.017270757343255175
15848.93192461114,1.024413543777259,-0.01881059434269817,0.019504807609570643,0.0173051199192205
12589.254117941662,1.0267072406884994,-0.021239592515116902,0.019548436219076256,0.01734403077591064
10000.0,1.0292882418640181,-0.023940540819076324,0.019597529784518255,0.017387842401280752
7943.282347242814,1.0321759279009552,-0.026950219168260337,0.019652456988449876,0.017436895287144528
6309.57344480193,1.0353903215016196,-0.030317335073389125,0.019713598735536804,0.017491545197008088
5011.8723362727205,1.0389546137689067,-0.0341056598606794,0.01978139620713818,0.01755220763444807
3981.0717055349687,1.042898773847255,-0.03839691834206432,0.01985641952375394,0.017619421232045438
3162.2776601683795,1.0472642715435072,-0.0432931112286128,0.019939457579928214,0.017693930691494674
2511.8864315095802,1.0521098767636188,-0.048917918090243546,0.020031628364894277,0.017776788781506434
1995.2623149688789,1.0575184428631845,-0.055416805110024364,0.020134508003339584,0.017869475883163684
1584.8931924611124,1.0636045326532606,-0.06295542587686917,0.020250275831305446,0.017974034605683937
1258.9254117941662,1.0705226890386574,-0.07171583896606866,0.020381871743106232,0.018093215731669242
1000.0,1.0784760557933695,-0.08188996914678179,0.020533160210883642,0.018230629585405646
794.3282347242813,1.087724881028727,-0.0936696270361684,0.020709092089484873,0.018390893163373653
630.957344480193,1.0985941555032135,-0.10723231387828733,0.020915849986099213,0.018579757488698487
501.187233627272,1.1114792309529467,-0.12272203021712734,0.021160955232348084,0.018804191452400115
398.10717055349687,1.1268477233968088,-0.14022445390687674,0.02145330421777046,0.01907238814596198
316.227766016838,1.1452353466147023,-0.15973625749918913,0.021803089287186314,0.019393648353121563
251.18864315095797,1.1672326049935227,-0.18112913807902875,0.02222154577206172,0.019778085686199515
199.5262314968879,1.1934586617660687,-0.20411049961942018,0.02272045504270972,0.020236092867849106
158.48931924611125,1.224518495683293,-0.22818479301534308,0.023311329582043776,0.020777514916768044
125.89254117941664,1.2609401718249913,-0.25262230589857515,0.024004219614671283,0.021410500173172
100.0,1.3030913790706107,-0.27644538791515505,0.02480612507848225,0.022140052037310863
79.43282347242804,1.3510790450672236,-0.2984448288602326,0.02571908536434737,0.022966387693955474
63.09573444801929,1.404643140615843,-0.3172397570221322,0.02673815821023035,0.02388332146376101
50.11872336272725,1.4630649745792756,-0.33139072879608017,0.027849674061885522,0.02487701215216662
39.81071705534969,1.5251187239437978,-0.339565376514924,0.029030312970441778,0.0259255067497391
31.622776601683796,1.5890975502534381,-0.34073843289979605,0.030247600772883736,0.02699950977966622
25.118864315095767,1.6529359063735625,-0.33438699200909494,0.03146223584843929,0.028064625929063954
19.95262314968879,1.7144242747139904,-0.32062783061155115,0.03263217507375801,0.029084930296291247
15.848931924611108,1.7714786599397336,-0.30024937869800705,0.03371776207079084,0.030027231174865287
12.589254117941664,1.8224027271028733,-0.27462012381043466,0.03468671580239712,0.030865070146878178
10.0,1.8660812733701937,-0.24549404273289976,0.0355178126599255,0.03158156593675256
7.943282347242805,1.9020675628509196,-0.21476081232491362,0.03620254885828214,0.03217059094875037
6.30957344480193,1.930556983625055,-0.18419497787531228,0.03674463954284529,0.032636209245279234
5.011872336272715,1.9522626713985982,-0.15525127708086475,0.037157652281639836,0.03299062748980214
3.981071705534969,1.9682258834131088,-0.12894162857031993,0.037461398807654415,0.033251154715790585
3.1622776601683795,1.9796081687648104,-0.10581111041023322,0.037677980288534474,0.033436891893105385
2.5118864315095766,1.987516102489559,-0.08600229389856938,0.03782845219949812,0.03356594561651532
1.9952623149688788,1.9928924471176663,-0.06937057441891709,0.0379307532050309,0.03365370376976164
1.584893192461111,1.99647713825741,-0.05560571353711722,0.03799896269551193,0.033712228642541704
1.2589254117941662,1.9988178745442013,-0.044329074579304545,0.03804350223469259,0.03375044394064726
1.0,2.000304380321203,-0.035157069754427936,0.03807178747886975,0.03377469917402499
0.7943282347242805,2.0012072996957553,-0.027735468467461083,0.038088968237658664,0.03378940532326807
0.6309573444801929,2.0017121687813497,-0.02175386686001665,0.03809857489072372,0.033797588496589315
0.5011872336272715,2.001945610087134,-0.016948666703786648,0.038103016811511715,0.033801316230192405
0.3981071705534969,2.0019941906992638,-0.013100293838341348,0.03810394119943269,0.03380200415806718
0.31622776601683794,2.0019174803133972,-0.010028037635084173,0.03810248154760144,0.033800628278889876
0.2511886431509577,2.001756901392599,-0.007584300040604798,0.03809942604347383,0.033797868812437105
0.1995262314968879,2.0015416641838475,-0.005649102951929233,0.03809533050030434,0.033794206695620915
0.1584893192461111,2.0012927300605248,-0.004125196200295177,0.03809059377163773,0.03378998805714663
0.12589254117941662,2.0010254539039964,-0.0029338563220124873,0.03808550803056979,0.03378546723726723
0.1,2.0007513408319784,-0.0020113526962630755,0.03808029219679891,0.03378083541420036
0.07943282347242805,2.0004792052414553,-0.0013060144698143867,0.03807511399091511,0.03377623950582616
0.0630957344480193,2.0002159238014277,-0.0007758209191907591,0.03807010426236162,0.0337717944541055
0.05011872336272714,1.9999669119747148,-0.00038643982161175116,0.038065366056703256,0.033767590995904075
0.039810717055349686,1.9997364125189283,-0.00010964440695300098,0.03806098010523113,0.03376370035875088
0.031622776601683784,1.9995276554216062,7.79525509917809e-05,0.038057007868214004,0.03376017684980731
0.02511886431509577,1.9993429276242562,0.00019589820382114574,0.03805349286161111,0.03375705896270764
0.019952623149688792,1.9991835773273134,0.0002606695137263248,0.038050460738988705,0.033754369406149926
0.01584893192461111,1.9990499742610386,0.0002862341001688775,0.0380479185355552,0.03375211440587239
0.01258925411794166,1.9989414576136806,0.0002844100207674366,0.038045853677338086,0.03375028280899696
0.01,1.9988563257848129,0.0002650363751130301,0.038044233786210906,0.03374884590127197
