freq,Zreal,Zimag
999.040405,0.1123303731001162,0.0031683688250062295
631.009521,0.11287074282027461,0.0010191145062322217
397.582581,0.11356524981123152,-0.00045179951975469015
251.044281,0.11437117298087694,-0.0014324406984306
158.629395,0.11523958729795643,-0.0020740335784860567
99.9040375,0.11613740055614512,-0.002496922732605518
63.00402070000001,0.11703574281106771,-0.0027886843433114063
39.7582626,0.11792940651906496,-0.0030186017153993015
25.1044273,0.11881271618953436,-0.0032430659758207895
15.8361454,0.11968658465707016,-0.003530192095258457
9.9904108,0.12057562804670252,-0.003972111527705706
6.30040264,0.12157549759381173,-0.0046735441302884345
3.98190546,0.12287601223639986,-0.005684058238496657
2.51044273,0.12476696503761547,-0.006899947083705804
1.58083737,0.1274245156450069,-0.007923115869139501
0.998529792,0.13058868110527297,-0.008216151832264703
0.63065052,0.1336311494607348,-0.007581075215418135
0.39697656,0.135982433154443,-0.006357057069021662
0.250400603,0.137491490429631,-0.005138508656758122
0.158038959,0.13840977012864442,-0.004317148960435084
0.0997458994,0.13904475809985903,-0.004035946404415005
0.0630518198,0.1396388959794709,-0.004321763051059806
0.039762307,0.1404050569131482,-0.005188683489287124
0.0250390954,0.1415745638427882,-0.006642521509765402
0.0158327222,0.1434066225947905,-0.008595782910165918
0.009981217790000002,0.14621617986371402,-0.01086135975264881
0.00629552873,0.15016732077353717,-0.013007279075830436
