freq,Zreal,Zimag,sigma_re,sigma_im
1000000.0,0.9942605784502274,0.0011251131740038164,0.05547379731252762,0.006293165659000113
794328.2347242822,0.9940526926568497,0.0012063819372828623,0.055462347799360656,0.00629321191847282
630957.344480193,0.993808304710937,0.0012647873434742788,0.055448887933898544,0.00629324715483023
501187.2336272725,0.9935335013661016,0.0012889975272470623,0.055433752966449056,0.006293262248558504
398107.17055349686,0.9932355302164684,0.001270011596831835,0.05541734207850327,0.0062932503855987094
316227.7660168379,0.9929209638351307,0.001200353777378784,0.055400017269986064,0.006293208371832688
251188.6431509582,0.992594754574907,0.0010722081370616921,0.05538205130230009,0.0062931372702991865
199526.2314968879,0.9922605867781925,0.0008752996521213474,0.05536364709743608,0.006293043642038845
158489.3192461114,0.9919223744947022,0.0005953412380865497,0.055345020225045026,0.00629294311802439
125892.5411794166,0.9915863221499729,0.0002136038494352073,0.055326512391528776,0.006292867719756798
100000.0,0.991262753688348,-0.0002922488592103466,0.055308692175302335,0.006292877431777754
79432.82347242821,0.9909669427164537,-0.0009464030703134449,0.0552924007415634,0.0062930752616308
63095.7344480193,0.9907184190040809,-0.0017728323399647233,0.05527871364555961,0.006293623906031568
50118.72336272724,0.9905386230467834,-0.0027939715663460414,0.055268811662438765,0.006294762261988325
39810.71705534969,0.9904472346148203,-0.004030970972204938,0.05526377859565099,0.006296822603004559
31622.776601683792,0.9904579038351188,-0.005506173566524265,0.0552643661856113,0.0063002546350714615
25118.864315095827,0.9905743707201203,-0.007248517594016211,0.055270780410005306,0.006305671901749021
19952.623149688792,0.9907880209390191,-0.009301285737016052,0.05528254687369886,0.006313944419767905
15848.93192461114,0.9910777986258602,-0.011732103722243077,0.05529850599564788,0.0063263739531108296
12589.254117941662,0.9914131399141912,-0.01464446904529636,0.055316974548674624,0.006345003038231928
10000.0,0.9917602985191082,-0.01818967962745998,0.055336094014069026,0.0063731282374178055
7943.282347242814,0.99209222006675,-0.022578962508172602,0.05535437439511392,0.006416124011248951
6309.57344480193,0.9924020997492284,-0.0280948952665603,0.055371440909435236,0.006482713161156605
5011.8723362727205,0.9927210247441827,-0.03510184738275507,0.05538900566922269,0.006586828468180364
3981.0717055349687,0.9931407047189648,-0.04405488921224579,0.05541211961468063,0.006750116082972175
3162.2776601683795,0.9938431689809331,-0.05550593238331146,0.055450808232404114,0.00700481448342717
2511.8864315095802,0.9951401747332445,-0.07010412064557019,0.055522242473887075,0.007396091765255835
1995.2623149688789,0.9975251961694044,-0.08858424006382865,0.055653603663407665,0.007982089541309936
1584.8931924611124,1.0017387031382572,-0.11173195549054013,0.05588568316927514,0.008829635054972343
1258.9254117941662,1.008840391513718,-0.1403091237939887,0.05627687129846699,0.010004775029882809
1000.0,1.020267394629891,-0.17492064371025454,0.05690638623316961,0.011559535249431383
794.3282347242813,1.037836563273478,-0.21581530114485775,0.05787444097156455,0.013517583555912252
630.957344480193,1.0636339849426453,-0.2626462934080839,0.05929621791205982,0.015861255961393806
501.187233627272,1.099750407542169,-0.31426765376965304,0.06128735417205149,0.018522804682690498
398.10717055349687,1.1478834028325584,-0.3686777571482471,0.06394203831346501,0.02138413637289154
316.227766016838,1.2089127310775247,-0.42319733856682606,0.06730953174075692,0.024288834717868434
251.18864315095797,1.2826062918323964,-0.4748805053645825,0.07137778181145561,0.027066188928365553
199.5262314968879,1.367588118384162,-0.5210492010534791,0.07607144469167036,0.02956135620721073
158.48931924611125,1.4616050333024608,-0.5597748250681727,0.08126644805156714,0.031662163592118465
125.89254117941664,1.5620098676788772,-0.5901411766470834,0.08681663530968896,0.03331358742672052
100.0,1.6662945173906092,-0.6122086974968153,0.09258327941231574,0.03451562697877846
79.43282347242804,1.7724988443417344,-0.6267173409218328,0.09845779471634586,0.03530672244278943
63.09573444801929,1.8793873674993002,-0.6346514169687303,0.10437161168783698,0.03573958314619582
50.11872336272725,1.986376683228551,-0.6368109976371406,0.11029223351552865,0.035857433167460144
39.81071705534969,2.0932661664406824,-0.6335053680520812,0.116208370493425,0.03567704777344926
31.622776601683796,2.199859865844215,-0.6244380163983652,0.12210902097099477,0.0351824015133445
25.118864315095767,2.305580742912551,-0.6088097049965453,0.1279621071318897,0.03433038366757797
19.95262314968879,2.40918301951789,-0.5856256856511954,0.13369853150705852,0.03306781759220753
15.848931924611108,2.508664074141671,-0.5541449630393812,0.139207281203308,0.03135636737270532
12.589254117941664,2.6014472618839486,-0.5143511351072665,0.14434554137000322,0.029198675662529754
10.0,2.6848310385343392,-0.46727788151700433,0.1489635680435605,0.026656477412224898
7.943282347242805,2.7565854133517957,-0.41503413445258674,0.1529377318391122,0.02385205914018186
6.30957344480193,2.8154821331661175,-0.360476221432956,0.1561998973881786,0.020950055865729223
5.011872336272715,2.8615468183970743,-0.30663264759718023,0.1587514010564992,0.018125315442713435
3.981071705534969,2.895942091048481,-0.25610706552161966,0.16065658309311948,0.01552918306386553
3.1622776601683795,2.9205649899730663,-0.210683155595604,0.16202048681786396,0.01326646483082533
2.5118864315095766,2.9375579041079063,-0.1712308432393282,0.16296176301131116,0.011388512795714205
1.9952623149688788,2.9489200634947483,-0.13785745318380282,0.16359114341882838,0.00989949852043305
1.584893192461111,2.9563005258501525,-0.11016598935166742,0.16399996889823568,0.008768971386748816
1.2589254117941662,2.9609495818490212,-0.08750108894412778,0.16425749453027128,0.00794530439075678
1.0,2.963762185305139,-0.06912685811601357,0.16441329364586937,0.00736778485324231
0.7943282347242805,2.965354908324458,-0.05433239615834307,0.16450151976966923,0.0069764981840837225
0.6309573444801929,2.966142728282301,-0.042483093197833624,0.16454515970951927,0.006719098646179251
0.5011872336272715,2.9664022171556255,-0.03303808278075723,0.16455953365128062,0.0065539590235193556
0.3981071705534969,2.966318711777248,-0.02554910732796572,0.16455490800465244,0.00645027992043554
0.31622776601683794,2.966019403214868,-0.01965040404593355,0.16453832830558754,0.006386455509382452
0.2511886431509577,2.9655953243863746,-0.0150451692287744,0.1645148371726642,0.00634789879071899
0.1995262314968879,2.965115025151368,-0.011491699157143986,0.16448823181205047,0.006325033516324921
0.1584893192461111,2.9646322594646977,-0.008790922355706873,0.1644614898334293,0.006311712762746976
0.12589254117941662,2.9641895890749366,-0.006776126189146362,0.1644369688709864,0.006304073094870359
0.1,2.9638194753925453,-0.005305410977908918,0.1644164670663867,0.006299740976398864
0.07943282347242805,2.963544141216221,-0.004256568288743287,0.16440121541038236,0.0062972944974924745
0.0630957344480193,2.963375190783613,-0.00352415310585978,0.16439185669716466,0.0062959039274197316
0.05011872336272714,2.9633136638774626,-0.003018207518539474,0.16438844852216952,0.006295096079605458
0.039810717055349686,2.963350884678361,-0.0026639268779053964,0.16439051030305155,0.006294604725925707
0.031622776601683784,2.9634701858097885,-0.002401654178803235,0.16439711877998192,0.0062942804279276345
0.02511886431509577,2.963649377616389,-0.002186812994262666,0.16440704479656593,0.006294039789702252
0.019952623149688792,2.9638637041236184,-0.00198932830617448,0.16441891703957354,0.006293838462874455
0.01584893192461111,2.9640889587259407,-0.0017923009410718872,0.16443139462670348,0.006293656572023527
0.01258925411794166,2.964304379363108,-0.0015898803086733398,0.16444332747972779,0.00629348943649012
0.01,2.9644948778189693,-0.0013842932537502094,0.16445387981274917,0.006293340160419829
