freq,Zreal,Zimag,sigma_re,sigma_im
1000000.0,1.000352293534362,8.786081912238172e-05,0.003308453249692107,0.0004636972037872537
794328.2347242822,1.000379776751286,3.617906883959877e-05,0.0033085423601922305,0.0004636971371785149
630957.344480193,1.0004073819597796,-6.813751091182892e-07,0.0033086318662826036,0.0004636971296070609
501187.2336272725,1.0004321821477182,-2.5226683592489383e-05,0.0033087122775215336,0.00046369714375338
398107.17055349686,1.0004516681461355,-4.1087659927832536e-05,0.0033087754582507454,0.0004636971612539287
316227.7660168379,1.0004645128273955,-5.271211903048544e-05,0.003308817105415562,0.0004636971773815317
251188.6431509582,1.0004709863381012,-6.468739039994334e-05,0.0033088380949142914,0.00046369719541298853
199526.2314968879,1.0004728810785426,-8.087642132867392e-05,0.0033088442383594993,0.00046369722318411046
158489.3192461114,1.0004729734484825,-0.00010408496622893473,0.003308844537857801,0.0004636972728521501
125892.5411794166,1.0004741824124046,-0.00013404183920469125,0.0033088484577648253,0.0004636973556790038
100000.0,1.0004786645841726,-0.0001728272612837691,0.0033088629906165646,0.0004636974945477821
79432.82347242821,1.000487107097196,-0.0002178279850368904,0.003308890364355649,0.00046369770016117383
63095.7344480193,1.0004984394033385,-0.00026855560659654943,0.003308927107876569,0.00046369798859648874
50118.72336272724,1.0005100831319436,-0.00032946199259982885,0.0033089648611552233,0.0004636984129995723
39810.71705534969,1.000518708137119,-0.0003984662718213192,0.0033089928266260217,0.00046369899624676604
31622.776601683792,1.0005212973783353,-0.00048476761647370443,0.003309001221923235,0.00046369987844719637
25118.864315095827,1.000516197553592,-0.0005967140542524937,0.0033089846864310627,0.00046370127713108654
19952.623149688792,1.0005038021787394,-0.0007451912577474322,0.0033089444960886015,0.000463703577847869
15848.93192461114,1.0004866075010708,-0.0009420837415479008,0.0033088887446790227,0.00046370741493209617
12589.254117941662,1.0004685785346663,-0.0011997902341539276,0.0033088302882696096,0.00046371379312180904
10000.0,1.0004539951489868,-0.001531198068171622,0.003308783003798452,0.00046372425532645344
7943.282347242814,1.000446131208185,-0.0019505652965095058,0.003308757506368279,0.0004637411376376561
6309.57344480193,1.00044618961105,-0.0024753094599089874,0.0033087576962792468,0.0004637679923234615
5011.8723362727205,1.0004528574059388,-0.0031285406377125676,0.0033087793165735425,0.0004638103188701526
3981.0717055349687,1.0004626893628679,-0.003942028434104926,0.0033088111967373296,0.00046387681750530916
3162.2776601683795,1.0004713292256888,-0.004959259061565978,0.003308839212478794,0.0004639814801459565
2511.8864315095802,1.0004753863817824,-0.006238306836035627,0.003308852370646199,0.0004641469795714602
1995.2623149688789,1.0004746419572605,-0.007854404856075728,0.003308849962317372,0.00046441003340078
1584.8931924611124,1.0004741982051344,-0.009902333998729624,0.0033088485320826085,0.00046482973584018896
1258.9254117941662,1.0004862471511657,-0.012499029760936309,0.003308887612911555,0.0004655003178230771
1000.0,1.000531355492776,-0.015787082487044225,0.0033090338927567746,0.0004665705041130566
794.3282347242813,1.0006395607065008,-0.01994000391683707,0.0033093847695621365,0.00046827270695749216
630.957344480193,1.0008521310140086,-0.025170165509441806,0.0033100740598808282,0.00047096680721399114
501.187233627272,1.0012255080467014,-0.031740112278433846,0.0033112847868788436,0.0004752050329890062
398.10717055349687,1.001839670156849,-0.039977485124749274,0.003313276306397368,0.0004818255304897296
316.227766016838,1.0028139171471147,-0.05029302753124485,0.0033164355063740724,0.0004920802337077952
251.18864315095797,1.0043339599029062,-0.06320002721058604,0.003321364685147639,0.0005077929633407184
199.5262314968879,1.0066953323036438,-0.07933175090215663,0.0033290224104141333,0.0005315202415541807
158.48931924611125,1.0103695311742555,-0.09945024316824783,0.0033409382089754545,0.0005666481375218798
125.89254117941664,1.0161003409847036,-0.12443394052500997,0.0033595254511297164,0.0006173172239145621
100.0,1.0250363507030422,-0.15522097914016827,0.0033885123180427672,0.0006880560466489855
79.43282347242804,1.0388962264639816,-0.19266832964626635,0.00343348052725138,0.000783034549486472
63.09573444801929,1.0601347618461583,-0.23726656729312262,0.003502409471699477,0.0009048705395839606
50.11872336272725,1.0920137784933013,-0.2886425365637488,0.0036059160539483877,0.0010528889404007355
39.81071705534969,1.1383757121914206,-0.34483438353115925,0.003756533372712998,0.001220799984888728
31.622776601683796,1.202822035459257,-0.40151603332340263,0.003966052862097154,0.0013943026426883537
25.118864315095767,1.2871041451961995,-0.45171479734777176,0.00424028515771347,0.0015503109451353227
19.95262314968879,1.3891146956964477,-0.48685316436440335,0.004572481843489305,0.0016604823226786414
15.848931924611108,1.501794811523237,-0.49949046923303975,0.004939710702016846,0.0017002721010911308
12.589254117941664,1.614458491876955,-0.4866326274159193,0.00530712648159177,0.0016598147335205487
10.0,1.7164139532859453,-0.4512673318981718,0.005639788943998658,0.0015489655580950498
7.943282347242805,1.8005902040356196,-0.4008386949486712,0.005914541499627689,0.0013922927771373875
6.30957344480193,1.8648718154162136,-0.3439387367497704,0.006124410677455604,0.0012182009029194233
5.011872336272715,1.9110124539031326,-0.2875590792892723,0.006275077914700991,0.0010498532839835486
3.981071705534969,1.9426254027852812,-0.23604165411217523,0.006378317929844528,0.0009016147872399249
3.1622776601683795,1.963569878528633,-0.19135747714135481,0.006446722197694752,0.0007798055105798895
2.5118864315095766,1.9771252318183508,-0.1538823389275521,0.006490995705309851,0.000685088503931425
1.9952623149688788,1.9857622840666318,-0.12312352601980389,0.006519206203947701,0.0006147933687683941
1.584893192461111,1.9912135901886803,-0.09821878406246314,0.006537011668475559,0.0005646708640507744
1.2589254117941662,1.9946395326066133,-0.07822243754358543,0.006548201858122841,0.0005301091537392095
1.0,1.9967935914397867,-0.06224652232986726,0.006555237728845569,0.0005069013230072996
0.7943282347242805,1.9981544730738472,-0.049517535453301426,0.006559682839003502,0.0004916218105231639
0.6309573444801929,1.9990216755706773,-0.03938910782822291,0.00656251543106213,0.0004816999920744459
0.5011872336272715,1.9995807764932314,-0.03133402228816586,0.006564341658295198,0.0004753161302792007
0.3981071705534969,1.9999463121593526,-0.02492818374594294,0.006565535633734264,0.00047123274723474357
0.31622776601683794,2.0001890383904426,-0.01983295145877319,0.006566328469828434,0.00046863037233836955
0.2511886431509577,2.0003527884396757,-0.015778842645772933,0.006566863341107318,0.00046697550088770995
0.1995262314968879,2.000464724604985,-0.012551751895321766,0.006567228969101411,0.00046592451263773033
0.1584893192461111,2.0005416125687074,-0.00998181222456345,0.0065674801163830955,0.0004652575796980515
0.12589254117941662,2.0005938046848453,-0.007934521423518637,0.006567650597347911,0.00046483465342481655
0.1,2.000627891027377,-0.006303603659554101,0.0065677619374922445,0.0004645667102850259
0.07943282347242805,2.0006484778654046,-0.005005146435000369,0.0065678291825774,0.0004643971961767921
0.0630957344480193,2.000659280631825,-0.003972725489847419,0.006567864468673905,0.00046429016064287646
0.05011872336272714,2.0006636327827922,-0.0031533986874813596,0.0065678786842660935,0.00046422272359433314
0.039810717055349686,2.0006645407189634,-0.002504544453083326,0.006567881649600371,0.00046418031485571823
0.031622776601683784,2.000664476009224,-0.001991521640681111,0.006567881437952293,0.0004641536673253284
0.02511886431509577,2.0006651233603168,-0.0015860595741985875,0.0065678835523500685,0.0004641369087196048
0.019952623149688792,2.0006672638401284,-0.0012652006074965695,0.006567890544111176,0.0004641263399843376
0.01584893192461111,2.0006708752977644,-0.0010105657766737873,0.006567902340856078,0.0004641196466044416
0.01258925411794166,2.000675415586735,-0.000807733384070853,0.006567917171650452,0.00046411538784919907
0.01,2.000680171091328,-0.0006455930742010502,0.006567932705461905,0.0004641126678081085
