freq,Zreal,Zimag,sigma_re,sigma_im
1000000.0,0.9959518111007067,0.002055343586726381,0.019377754964154045,0.0024564825822815262
794328.2347242822,0.9961624044925729,0.0012733937470417998,0.01938178659404353,0.002456285534213985
630957.344480193,0.9964074730611723,0.0006530493227677439,0.019386478239149983,0.0024561952717052854
501187.2336272725,0.996674428324144,0.00017857851371545297,0.019391588909029818,0.002456165734582668
398107.17055349686,0.9969443215865722,-0.0001642678161183379,0.019396755847209877,0.0024561657490782597
316227.7660168379,0.9971934711285398,-0.00039360586784641604,0.01940152567971946,0.0024561758072238517
251188.6431509582,0.9973960987131273,-0.0005339417631290846,0.019405404888730524,0.0024561859675805726
199526.2314968879,0.9975278246244341,-0.0006186542806422219,0.019407926725601966,0.0024561935598415804
158489.3192461114,0.9975697388790259,-0.0006900069679966899,0.019408729157410858,0.002456200700153328
125892.5411794166,0.9975124978230163,-0.0007987855147060068,0.01940763330023953,0.002456212897772746
100000.0,0.9973596251340947,-0.0010018697998230514,0.01940470661854798,0.002456240406297601
79432.82347242821,0.9971290997869888,-0.0013565863526212277,0.019400293323839475,0.0024563035077451263
63095.7344480193,0.9968525070438473,-0.0019174666352126508,0.019394998113136053,0.002456442342368771
50118.72336272724,0.9965715109680422,-0.002731641781102398,0.01938961862756438,0.0024567289052914256
39810.71705534969,0.9963320547588022,-0.003835007495685298,0.019385034415350492,0.002457277763502996
31622.776601683792,0.996177308840106,-0.005256654601710304,0.019382071929822997,0.0024582569599778197
25118.864315095827,0.9961407716106131,-0.007022682757430394,0.019381372458241616,0.0024598992887492313
19952.623149688792,0.9962409744812769,-0.009163576583265425,0.019383290766307695,0.0024625216363575427
15848.93192461114,0.9964789655447309,-0.011725969030848665,0.01938784693263682,0.002466566912297627
12589.254117941662,0.9968392646678264,-0.014785348344573752,0.019394744631289172,0.0024726839852258565
10000.0,0.9972944686804578,-0.01845961344493357,0.01940345928433033,0.002481867865276942
7943.282347242814,0.9978133125103917,-0.022922544379393284,0.019413392374948015,0.00249568900345701
6309.57344480193,0.9983719088190136,-0.028416911704488186,0.01942408661939254,0.002516651756111048
5011.8723362727205,0.9989682014276989,-0.03526736006511252,0.019435502681600693,0.002548733180465506
3981.0717055349687,0.9996404248717007,-0.04389345468594526,0.019448372606401015,0.002598151932538294
3162.2776601683795,1.0004915441271776,-0.054823052408814146,0.01946466777936668,0.00267437480982041
2511.8864315095802,1.0017231706347205,-0.06870515010210698,0.01948824839991913,0.002791241745065969
1995.2623149688789,1.0036841381984627,-0.08631912067631292,0.019525793872547204,0.002967850620630896
1584.8931924611124,1.006940329105861,-0.10857303256976786,0.01958814073490964,0.0032285679290131215
1258.9254117941662,1.0123722131389388,-0.13647644483165822,0.0196921529393319,0.0036014728219440724
1000.0,1.0213017530092454,-0.17106161736098086,0.019863158532659304,0.004114908278206473
794.3282347242813,1.0356343643609882,-0.21321249944575257,0.020137683243356606,0.004792267353215999
630.957344480193,1.0579647524334568,-0.26335159146809906,0.020565507594927358,0.005645017810941378
501.187233627272,1.091532045132207,-0.3209552495700632,0.02120885727664268,0.006663596037511226
398.10717055349687,1.1398420181156335,-0.38396068138375683,0.022135223687409784,0.00780686061550743
316.227766016838,1.2057871867679295,-0.44831865432580803,0.023400521706047665,0.008994392696584906
251.18864315095797,1.2903206687740083,-0.5081507015161397,0.025023575626135552,0.0101101922094675
199.5262314968879,1.3911951607013342,-0.5569310616965056,0.026961706535804528,0.011025842300434194
158.48931924611125,1.502650555806324,-0.589589998372015,0.02910448197242365,0.0116412009693936
125.89254117941664,1.6166976164054954,-0.6046290103303129,0.031298256820478196,0.01192512139829391
100.0,1.7256920594713756,-0.6049818599115739,0.03339573689783262,0.01193183911354532
79.43282347242804,1.824946452585588,-0.5969846316951365,0.03530640852878656,0.011780899601433414
63.09573444801929,1.9140907057906995,-0.5879824021029761,0.03702288954197931,0.011611089192930406
50.11872336272725,1.9967558172930633,-0.5837556408624365,0.03861493062481422,0.01153142507924873
39.81071705534969,2.0790150298130587,-0.5866833074853648,0.040199420390567724,0.011586686759292947
31.622776601683796,2.1672121963209827,-0.5949600193777649,0.04189854804075102,0.011742893054305424
25.118864315095767,2.2656087098284416,-0.602958393278392,0.04379444661043625,0.01189394644487712
19.95262314968879,2.3743584781213176,-0.6029115793314388,0.04589013082730359,0.011893137330438489
15.848931924611108,2.4887410601148954,-0.5877858602947577,0.04809465873245999,0.011607766573655455
12.589254117941664,2.600509202805612,-0.5542584189360332,0.05024905261618366,0.01097633979339454
10.0,2.70100036040759,-0.5040847512482897,0.05218626527211698,0.010035080336679261
7.943282347242805,2.784244715132303,-0.4430003511469041,0.05379112480227613,0.008896946286984163
6.30957344480193,2.8483265866867526,-0.37808339929914614,0.05502662102531439,0.007700835687087165
5.011872336272715,2.894744998306611,-0.3153526169831837,0.055921600973088154,0.006565134013903471
3.981071705534969,2.9268136827786515,-0.25865185476410785,0.056539924140701366,0.0055658518018456525
3.1622776601683795,2.9482138791272536,-0.20971303832081614,0.056952552996654464,0.00473723953588945
2.5118864315095766,2.962164906651524,-0.16876771823326175,0.05722155335102959,0.004082816599395079
1.9952623149688788,2.9711413544979077,-0.13519904122830573,0.057394636284491214,0.003587321529517676
1.584893192461111,2.976898041716165,-0.10802170841321246,0.057505636630905486,0.0032259674057206196
1.2589254117941662,2.98061135574177,-0.0861715694182748,0.05757723689936309,0.002970934632015536
1.0,2.983035515215499,-0.06865552182620781,0.05762397972966581,0.0027957738729585146
0.7943282347242805,2.9846351781417972,-0.05461580650645011,0.05765482459500077,0.0026780095463954153
0.6309573444801929,2.9856865928592704,-0.04334692139719709,0.05767509810014307,0.0026001085519745293
0.5011872336272715,2.986350647542519,-0.0342880219699566,0.057687902488833695,0.002549238640426226
0.3981071705534969,2.9867234809627377,-0.02700354522637357,0.05769509151070539,0.002516410434857902
0.31622776601683794,2.986869690398353,-0.021159170433356883,0.05769791073437926,0.002495491606080309
0.2511886431509577,2.9868421201700106,-0.01649736059217897,0.057697379110068864,0.0024823556757654123
0.1995262314968879,2.9866914907641897,-0.01281521920282267,0.05769447463818884,0.0024742440363847967
0.1584893192461111,2.9864687624539137,-0.00994642079602023,0.05769017994385269,0.0024693230671786305
0.12589254117941662,2.9862229304224552,-0.007748148956193879,0.057685439761190005,0.002466386562049733
0.1,2.9859967245567396,-0.006093154907676289,0.05768107801553812,0.002464655227415313
0.07943282347242805,2.985822305120262,-0.004866401464646562,0.05767771482656397,0.0024636383326463733
0.0630957344480193,2.9857184645656307,-0.003964690626358705,0.05767571255327622,0.0024630358399075503
0.05011872336272714,2.9856901190262666,-0.0032988430378687885,0.057675165989079735,0.0024626699908291707
0.039810717055349686,2.985730126212239,-0.0027954900398256305,0.05767593741486734,0.0024624381626574495
0.031622776601683784,2.985822851068303,-0.0023989438646150082,0.05767772535264479,0.0024622827642312465
0.02511886431509577,2.985948538289864,-0.0020695443345335653,0.05768014887706723,0.0024621719677521557
0.019952623149688792,2.9860874909085844,-0.0017824480906529082,0.05768282818759307,0.002462088910572889
0.01584893192461111,2.9862232606821477,-0.0015244318751275723,0.05768544612613084,0.0024620249498755746
0.01258925411794166,2.9863444267771295,-0.0012901772912277648,0.05768778247395471,0.0024619755924823383
0.01,2.986444945088861,-0.001079053906963162,0.05768972068740474,0.0024619381839823466
