freq,Zreal,Zimag,sigma_im
0.01,3.0085695044647567,0.002988939782341049,3.033311551359219e-05
0.01258925411794166,3.0051588767535793,-0.0008753057026638089,1.2550919357479096e-05
0.01584893192461111,3.0021882612851374,-0.0034263138026204842,9.846257479351195e-06
0.019952623149688792,2.999806415724841,-0.00509620938632338,9.842558582717764e-06
0.02511886431509577,2.9980415001474294,-0.006313058647734238,9.288863590917185e-06
0.031622776601683784,2.9968095675854625,-0.007456326468641805,8.31929240729945e-06
0.039810717055349686,2.9959409079195893,-0.008822599215889682,7.577179336637485e-06
0.05011872336272714,2.9952186549224584,-0.010606589483103335,7.276332167238664e-06
0.0630957344480193,2.9944225539964218,-0.012900437793319952,7.242625954140269e-06
0.07943282347242805,2.9933700899123536,-0.015711702850325082,7.2241830111896554e-06
0.1,2.991947491661027,-0.01899756194872282,7.099191857040665e-06
0.12589254117941662,2.9901245375690984,-0.022710046670596284,6.897714967923907e-06
0.1584893192461111,2.9879494769501997,-0.02684505550699612,6.712626724802995e-06
0.1995262314968879,2.9855234855924033,-0.03148680177953622,6.6066255756114245e-06
0.2511886431509577,2.98295745457753,-0.036839526665715994,6.5767658621873615e-06
0.31622776601683794,2.9803170612089573,-0.04323978816941576,6.5767015346995805e-06
0.3981071705534969,2.9775644669452275,-0.05114529292950465,6.5607011919821545e-06
0.5011872336272715,2.974506193020622,-0.061099723071976086,6.513116728834589e-06
0.6309573444801929,2.9707564678077025,-0.0736767815714785,6.448839224182379e-06
0.7943282347242805,2.965723573440148,-0.08941018615736596,6.3936741712122824e-06
1.0,2.958623644178232,-0.10871895440597257,6.363437060064037e-06
1.2589254117941662,2.948522417846158,-0.13183857791332798,6.355676693603485e-06
1.584893192461111,2.9344012176414638,-0.15876833109746258,6.355807617874909e-06
1.9952623149688788,2.9152396244817607,-0.1892429425184332,6.349640051250827e-06
2.5118864315095766,2.890104532464134,-0.22273348692928607,6.3323852087515675e-06
3.1622776601683795,2.858234054051421,-0.25847810323347176,6.309233236523326e-06
3.981071705534969,2.819105306267994,-0.2955387091777766,6.289247077462257e-06
5.011872336272715,2.7724774168753994,-0.3328759763142841,6.2782282112539e-06
6.30957344480193,2.718404793217534,-0.36943215138623486,6.275525063936804e-06
7.943282347242805,2.6572202006759964,-0.40421025368783603,6.275850904402525e-06
10.0,2.589491755899205,-0.43633905080082513,6.27381582912756e-06
12.589254117941664,2.5159617824849034,-0.46511576643104036,6.26749587195885e-06
15.848931924611108,2.4374779467602092,-0.49002237652365466,6.258892512489567e-06
19.95262314968879,2.35492776386467,-0.5107158704380197,6.2516618106744914e-06
25.118864315095767,2.269186326529561,-0.526997231423934,6.248163587962985e-06
31.622776601683796,2.1810841845344515,-0.5387673645458904,6.248021924726288e-06
39.81071705534969,2.0913982163435825,-0.545980145002062,6.248875641101659e-06
50.11872336272725,2.0008638198395325,-0.5486028376132026,6.248410056253206e-06
63.09573444801929,1.9102026190987567,-0.5465923543438294,6.246095570205945e-06
79.43282347242804,1.8201568839444042,-0.5398924771357372,6.2433148269036565e-06
100.0,1.7315205310990263,-0.5284528979533434,6.242082691954032e-06
125.89254117941664,1.6451571613534743,-0.5122664934322074,6.243318361465189e-06
158.48931924611125,1.5619979822261554,-0.4914174447145001,6.246094543582714e-06
199.5262314968879,1.4830162398694602,-0.4661303562216972,6.248415157616982e-06
251.18864315095797,1.4091792595108037,-0.4368098291822946,6.248879912962302e-06
316.227766016838,1.3413835679556168,-0.4040611758983914,6.248029417177392e-06
398.10717055349687,1.2803820624606668,-0.3686858750691897,6.2481756553101064e-06
501.187233627272,1.226714175685802,-0.3316494827706151,6.25166965728674e-06
630.957344480193,1.180650114031146,-0.294024281184619,6.258902400746447e-06
794.3282347242813,1.1421584926926458,-0.25691321220520535,6.267504112422717e-06
1000.0,1.1109033592616742,-0.22136483769838833,6.27382722179215e-06
1258.9254117941662,1.0862722611119977,-0.1882906852490578,6.2758585007149925e-06
1584.8931924611124,1.0674324052523212,-0.1583961221679715,6.275533021071755e-06
1995.2623149688789,1.0534078486833254,-0.13213389932403174,6.278241079349378e-06
2511.8864315095802,1.043167705949653,-0.10968609994066014,6.2892580800499864e-06
3162.2776601683795,1.0357140183837112,-0.09097601440760172,6.309248384239741e-06
3981.0717055349687,1.0301583632817275,-0.07570712143126457,6.33239561836918e-06
5011.8723362727205,1.0257783571329617,-0.06342261700999074,6.349650299330989e-06
6309.57344480193,1.0220485260596568,-0.05357635530161531,6.355818540193514e-06
7943.282347242814,1.0186439942208234,-0.04560500161798586,6.355685621239893e-06
10000.0,1.0154194143768598,-0.03899175062683469,6.363445828494463e-06
12589.254117941662,1.0123689083848377,-0.03331393672009142,6.393684727878934e-06
15848.93192461114,1.0095750125489777,-0.02826987487496524,6.448849177886906e-06
19952.623149688792,1.0071554583936786,-0.02368376019354912,6.513129718666022e-06
25118.864315095827,1.005216031701677,-0.01949085318014454,6.56071296778471e-06
31622.776601683792,1.0038159414982029,-0.01570794400441855,6.576704621397145e-06
39810.71705534969,1.0029494781389057,-0.012395841223536763,6.5767740917155315e-06
50118.72336272724,1.002544733513273,-0.009621181472347473,6.606632165784276e-06
63095.7344480193,1.0024773018250281,-0.007424175269726163,6.712632804772856e-06
79432.82347242821,1.0025946152152971,-0.005797299205639206,6.89772310841219e-06
100000.0,1.0027452011321347,-0.0046776119354206,7.099199975935111e-06
125892.5411794166,1.002806813930435,-0.003952880606256315,7.224187801191384e-06
158489.3192461114,1.0027080512674866,-0.003479362129070296,7.2426318411533686e-06
199526.2314968879,1.0024395240150619,-0.0031073171548214873,7.276335928729782e-06
251188.6431509582,1.002052612359822,-0.0027076742129601428,7.577165935301888e-06
316227.7660168379,1.0016459830624724,-0.0022094479893510766,8.31928783129321e-06
398107.17055349686,1.0013420828443056,-0.001586734098044218,9.288852904520972e-06
501187.2336272725,1.0012576064111325,-0.0009134857554649045,9.842541784654824e-06
630957.344480193,1.0014734782155852,-0.0003306118509573963,9.846240130617634e-06
794328.2347242822,1.0020112494109106,-4.107882292458953e-05,1.2550902964258981e-05
1000000.0,1.0028236155162913,-0.00027906555642154274,3.0333099794943585e-05
