freq,Zreal,Zimag,sigma_im
0.01,1.8053194451923993,0.027761747698036743,3.820773865070848e-07
0.01258925411794166,1.8101789392574563,0.03372491815952117,2.0426418939623048e-07
0.01584893192461111,1.8156248101972066,0.040017891644538395,1.7104782062959956e-07
0.019952623149688792,1.822120422445806,0.046807322396148265,1.381442183423509e-07
0.02511886431509577,1.8302226542676896,0.053960562287159064,1.3786696895223827e-07
0.031622776601683784,1.840415595579458,0.061000857499948324,1.2913467789532618e-07
0.039810717055349686,1.8529332977883608,0.06715901826208892,1.2086684236800593e-07
0.05011872336272714,1.8676265645970485,0.07151753268010452,1.202983111459055e-07
0.0630957344480193,1.8839203863995726,0.07321245459104375,1.1868139965232061e-07
0.07943282347242805,1.900883249645409,0.07163628807802525,1.1499272428716623e-07
0.1,1.9173946238647175,0.06658060772474528,1.1368069025019523e-07
0.12589254117941662,1.9323643729827804,0.0582734882141267,1.1373319930285675e-07
0.1584893192461111,1.9449396520328313,0.047299379949095055,1.1252215048607184e-07
0.1995262314968879,1.9546382612893172,0.03442677452426324,1.1143601597041197e-07
0.2511886431509577,1.9613717828884922,0.0203983907631482,1.1114999781680623e-07
0.31622776601683794,1.9653585972990397,0.005748964235294807,1.1119420423311155e-07
0.3981071705534969,1.966962792387526,-0.00929672333313647,1.1046835818318002e-07
0.5011872336272715,1.9665169211223097,-0.02482353945288196,1.100851829693994e-07
0.6309573444801929,1.9641864310375077,-0.041138603094395876,1.1022578455532894e-07
0.7943282347242805,1.9599114502839083,-0.05864149756553161,1.0978354575419402e-07
1.0,1.9534262110015121,-0.07770651875443946,1.0972735908776343e-07
1.2589254117941662,1.9443225958286416,-0.0986166276638869,1.0964434388194277e-07
1.584893192461111,1.932107822425886,-0.12155506224121382,1.0938545014216317e-07
1.9952623149688788,1.916216830497521,-0.14662307324351787,1.0925175303322376e-07
2.5118864315095766,1.8959752472629052,-0.17383067208629654,1.0911774150912379e-07
3.1622776601683795,1.8705530151511294,-0.20301656087576703,1.0908239156393051e-07
3.981071705534969,1.8389776065928738,-0.23369472746230713,1.0906928116227732e-07
5.011872336272715,1.800268100209374,-0.264881558848856,1.0915860609861383e-07
6.30957344480193,1.7537022599103338,-0.29499898891526755,1.0895698748791816e-07
7.943282347242805,1.6991561239164301,-0.32194790433800335,1.0905289188345435e-07
10.0,1.6373950881428878,-0.34339196669589,1.0899304703215762e-07
12.589254117941664,1.5701831116828093,-0.35720331467723554,1.0908066705450636e-07
15.848931924611108,1.500128116950615,-0.36193922665893297,1.0918328097186958e-07
19.95262314968879,1.4302799187465722,-0.3571861185719172,1.090855761831655e-07
25.118864315095767,1.3635978959490167,-0.3436463680111501,1.091518622153842e-07
31.622776601683796,1.3024597291739288,-0.3229401092748958,1.0921448972966985e-07
39.81071705534969,1.2483622688685545,-0.29720356501752576,1.092075220809896e-07
50.11872336272725,1.2018811837745547,-0.26863528649073487,1.0911390962986545e-07
63.09573444801929,1.1628503807551216,-0.23914060073434484,1.0920885434861916e-07
79.43282347242804,1.1306471000068488,-0.2101588897196507,1.0923176507748877e-07
100.0,1.1044563455080043,-0.18266697784883945,1.0912277664809622e-07
125.89254117941664,1.0834354248967746,-0.15728308321286022,1.0916609632927177e-07
158.48931924611125,1.0667717420196037,-0.13437968667733458,1.0913280551472226e-07
199.5262314968879,1.0536821199670212,-0.1141479384672266,1.0905876562938843e-07
251.18864315095797,1.0434138609644448,-0.09661116593315455,1.0898132435377406e-07
316.227766016838,1.0352795380906132,-0.08162468237890153,1.0909841346995464e-07
398.10717055349687,1.0287151594323078,-0.0689028388268298,1.0915387177456992e-07
501.187233627272,1.0233247890968347,-0.058086958383398724,1.0897183422287071e-07
630.957344480193,1.0188790287535512,-0.04883284660809295,1.0918380166646813e-07
794.3282347242813,1.0152630313157345,-0.040878729623500476,1.0896465058030103e-07
1000.0,1.012400449780219,-0.034064080256285934,1.0900345298603398e-07
1258.9254117941662,1.0101924103014075,-0.0282981817976804,1.0896174906793732e-07
1584.8931924611124,1.00849860353249,-0.023504663419160465,1.0900902325250428e-07
1995.2623149688789,1.0071606781416849,-0.019577567982906885,1.0899991920165775e-07
2511.8864315095802,1.0060443554239589,-0.01637198656055716,1.0908630521111462e-07
3162.2776601683795,1.0050700968519857,-0.01372805852886927,1.0904443614734305e-07
3981.0717055349687,1.0042144682853424,-0.01150742032962171,1.0904783143139696e-07
5011.8723362727205,1.0034854088831997,-0.009617276461909796,1.0922520587985929e-07
6309.57344480193,1.0028902322548492,-0.008009242803154848,1.0927577887009932e-07
7943.282347242814,1.0024164968834441,-0.006658126907382211,1.0938742855959305e-07
10000.0,1.0020342167311598,-0.005537630308310781,1.0938083644385088e-07
12589.254117941662,1.0017126107514809,-0.004608950030046799,1.0971865349596044e-07
15848.93192461114,1.001436127912687,-0.0038268996687236267,1.0987823473307401e-07
19952.623149688792,1.0012074797834813,-0.0031553660815575313,1.0978118564208827e-07
25118.864315095827,1.0010364251814334,-0.002578418429663998,1.1028040758365165e-07
31622.776601683792,1.0009237140671094,-0.002097569236525487,1.1073700056929425e-07
39810.71705534969,1.0008526407350498,-0.0017180491224735306,1.1102410857333211e-07
50118.72336272724,1.0007946077599943,-0.0014327811686030145,1.1108701541973076e-07
63095.7344480193,1.0007247542488193,-0.0012160916335233196,1.122806380093877e-07
79432.82347242821,1.0006364321513237,-0.0010330819024488846,1.1349508710623013e-07
100000.0,1.0005440128423924,-0.000856353382943098,1.1352322992763675e-07
125892.5411794166,1.0004715040882342,-0.0006787082743358042,1.1474085076512708e-07
158489.3192461114,1.0004342684123066,-0.0005146147580035176,1.1839283242665033e-07
199526.2314968879,1.0004262354432685,-0.0003853649274390136,1.200462573791583e-07
251188.6431509582,1.000422035427996,-0.000300655241971981,1.2063364418501976e-07
316227.7660168379,1.0003942299892394,-0.00024655699598952197,1.2899150997336406e-07
398107.17055349686,1.0003359231253988,-0.00019162691384622121,1.377480795539121e-07
501187.2336272725,1.0002745294143498,-0.00011128045142072551,1.3802578402444254e-07
630957.344480193,1.000266328120483,-2.033292065561909e-05,1.709650919168304e-07
794328.2347242822,1.000372023827138,4.216658254563299e-06,2.0412946494241524e-07
1000000.0,1.00062543231577,-0.00018057275299554476,3.8202904234507784e-07
