freq,Zreal,Zimag,sigma_im
0.01,2.9508564421105765,-0.004113411860657834,0.0016408076961695883
0.01258925411794166,2.962305001869801,0.005144573969801058,0.0008627229600257635
0.01584893192461111,2.972353649132652,0.010390318648887842,0.0005483111551818354
0.019952623149688792,2.980722142174989,0.012629837777581088,0.0004521974683662222
0.02511886431509577,2.9873014859708222,0.012794957441315091,0.00043728932939401943
0.031622776601683784,2.9921473904591744,0.011708897273592811,0.0004372452386256498
0.039810717055349686,2.9954607262155006,0.01005708794275506,0.00042785168966474885
0.05011872336272714,2.9975582030881394,0.008364455747255306,0.00040668725109327397
0.0630957344480193,2.9988361663794834,0.006980106473406522,0.0003798994235424402
0.07943282347242805,2.999730165087537,0.0060700784682694575,0.00035463237228583466
0.1,3.000672770080916,0.005618493304837102,0.0003355608280344313
0.12589254117941662,3.0020519660706366,0.005437087652012451,0.0003240991116904013
0.1584893192461111,3.004172275002757,0.005182747143408051,0.00031907583862533784
0.1995262314968879,3.0072205660480393,0.004382326501058742,0.000317963506237362
0.2511886431509577,3.011238255449445,0.002463681415179053,0.000318065626537134
0.31622776601683794,3.0161012939530156,-0.001208381021342575,0.00031734331507493607
0.3981071705534969,3.021508983557541,-0.007292839799333706,0.00031478112641281086
0.5011872336272715,3.026982267738082,-0.016431594082291667,0.0003103582863737131
0.6309573444801929,3.0318717132698936,-0.029208837543023947,0.00030475425138476453
0.7943282347242805,3.035374963442841,-0.04611249041317933,0.0002989513427777979
1.0,3.0365630097621725,-0.06749949053119053,0.0002938674968753219
1.2589254117941662,3.0344142208126916,-0.0935665570572155,0.0002901047568393267
1.584893192461111,3.0278547010661874,-0.12432782374071394,0.0002878468203597606
1.9952623149688788,3.0158032458938857,-0.15960047146506895,0.00028689615949062386
2.5118864315095766,2.9972189264673923,-0.19899912115772622,0.00028679764233174865
3.1622776601683795,2.9711491910709986,-0.24193939812778353,0.0002870088036672769
3.981071705534969,2.936776315368509,-0.28765063432274474,0.0002870489640791618
5.011872336272715,2.8934600769658005,-0.33519732113381906,0.0002866074015024367
6.30957344480193,2.840774668368192,-0.3835084283728065,0.00028558360111574643
7.943282347242805,2.7785380918829343,-0.43141353930263904,0.0002840710118086065
10.0,2.7068325906331085,-0.47768418627345,0.0002822951101997262
12.589254117941664,2.62601504823651,-0.5210787564687962,0.00028053587005771874
15.848931924611108,2.5367167191958178,-0.5603889847436676,0.00027905036229469715
19.95262314968879,2.4398321134650622,-0.594486108598062,0.0002780171277230181
25.118864315095767,2.3364973311981054,-0.6223646540825598,0.00027750666145820446
31.622776601683796,2.2280586058956837,-0.6431819756219284,0.0002774835470411574
39.81071705534969,2.1160322449641806,-0.6562918120368408,0.0002778258969975411
50.11872336272725,2.0020575363683526,-0.6612704141262498,0.00027836246897550154
63.09573444801929,1.887844501202541,-0.6579340825646796,0.00027890972101474176
79.43282347242804,1.7751186003673296,-0.646347333920744,0.00027930969789125015
100.0,1.6655646386977518,-0.6268213609845361,0.0002794553067957395
125.89254117941664,1.5607721457466888,-0.5999028266219284,0.0002793096028135267
158.48931924611125,1.4621844474974952,-0.5663534092243481,0.0002789095520512319
199.5262314968879,1.3710534807517323,-0.5271211352817318,0.00027836218369259313
251.18864315095797,1.2884021495086757,-0.48330453261519324,0.00027782598587933194
316.227766016838,1.2149956921463123,-0.4361112774877256,0.0002774836586176832
398.10717055349687,1.151323134995391,-0.3868130511243635,0.00027750669428172614
501.187233627272,1.0975894701288282,-0.33669851451315935,0.00027801700666785223
630.957344480193,1.0537187329416582,-0.2870263875410046,0.0002790506221863609
794.3282347242813,1.0193676893930048,-0.23898060499891471,0.00028053605259614756
1000.0,0.9939493945890424,-0.19362937295181837,0.0002822953199519418
1258.9254117941662,0.976665473630816,-0.15188978245123508,0.00028407111527073425
1584.8931924611124,0.966545620292575,-0.11449940482543752,0.0002855837865958222
1995.2623149688789,0.9624925243095966,-0.08199591745710677,0.00028660719815221114
2511.8864315095802,0.9633302355578259,-0.05470547377308321,0.000287048993012462
3162.2776601683795,0.9678538609691504,-0.032740175872731925,0.00028700865278707965
3981.0717055349687,0.974878471168028,-0.016004543212602584,0.0002867977513041353
5011.8723362727205,0.9832851677278448,-0.004210558928662067,0.00028689605339238256
6309.57344480193,0.992062423610882,0.0030995546924259543,0.00028784726421449136
7943.282347242814,1.0003410498703516,0.006523927862417622,0.0002901046015288955
10000.0,1.0074214487681123,0.006766409347847002,0.0002938676717541
12589.254117941662,1.0127921720746014,0.0045983019483628595,0.0002989513816409328
15848.93192461114,1.0161391964753879,0.000818079103510172,0.0003047540919816072
19952.623149688792,1.0173457375859343,-0.003788580143918807,0.00031035813476520957
25118.864315095827,1.0164828316817436,-0.008488637000027666,0.00031478094732406703
31622.776601683792,1.0137913020840301,-0.012636009749030563,0.000317343086468469
39810.71705534969,1.009656078794597,-0.015703900914331825,0.00031806566693859395
50118.72336272724,1.0045741411591942,-0.017309123689301487,0.0003179634178991364
63095.7344480193,0.9991175925187984,-0.01723112515946923,0.0003190755947848345
79432.82347242821,0.9938935447673465,-0.015422939477957698,0.0003240990159874002
100000.0,0.9895025852035276,-0.012014268895654823,0.00033556052717287344
125892.5411794166,0.9864976187167589,-0.007307757510716328,0.0003546321460525803
158489.3192461114,0.9853448329301091,-0.0017667471317963646,0.00037989924462777935
199526.2314968879,0.9863884422432496,0.0040034062899394485,0.0004066868785237432
251188.6431509582,0.9898207720131672,0.00926508255315639,0.0004278552375645006
316227.7660168379,0.9956592367500235,0.013257119803938622,0.0004372463571513663
398107.17055349686,1.0037320250067856,0.015036352403740239,0.0004372891045711924
501187.2336272725,1.0136751393799526,0.013773084010608727,0.0004521965194896893
630957.344480193,1.0249452364975842,0.008546243403088738,0.0005483109568977795
794328.2347242822,1.0368554344429295,-0.0014438279628166129,0.0008627239417435817
1000000.0,1.0486430043842436,-0.016945487732186848,0.0016408110628454153
