freq,Zreal,Zimag,sigma_im
0.01,2.9745091187177186,0.004976311530072053,0.0011211002973396944
0.01258925411794166,2.9661371154194605,-0.003702641055951972,0.0006560375969648646
0.01584893192461111,2.958048369907469,-0.009094909069517598,0.00042280436871422467
0.019952623149688792,2.9506796076578987,-0.011706875846925868,0.0003213829829924464
0.02511886431509577,2.9444025479499394,-0.012082098105338446,0.00028695269624634534
0.031622776601683784,2.9395050937147857,-0.010789837262223045,0.0002804085456737937
0.039810717055349686,2.936179146951061,-0.008413011032416762,0.0002805426421907953
0.05011872336272714,2.9345137200828484,-0.005535796125514025,0.00027784094084282174
0.0630957344480193,2.9344923820775817,-0.002731164100850947,0.00026978343235484203
0.07943282347242805,2.9359943532235295,-0.0005486121779085806,0.00025746530620551766
0.1,2.938798742157022,0.0004976205600542016,0.00024333788752528562
0.12589254117941662,2.9425915234723137,-6.0395308764782385e-05,0.00022984209540766187
0.1584893192461111,2.946974906640059,-0.0026342192363699724,0.00021871798513828367
0.1995262314968879,2.9514787656015127,-0.007570224025357675,0.00021078846944888596
0.2511886431509577,2.9555737970605254,-0.015142191669497151,0.0002060402838495179
0.31622776601683794,2.958686063887521,-0.025545545520344604,0.00020386277283179766
0.3981071705534969,2.960212564902169,-0.03889332400456169,0.00020333652954107606
0.5011872336272715,2.9595374582133074,-0.05521401868270459,0.00020349812528763778
0.6309573444801929,2.956048555377258,-0.07445131481108547,0.00020353807728312745
0.7943282347242805,2.94915369994525,-0.09646577465525752,0.0002029204727662659
1.0,2.938296647793117,-0.12103839857354615,0.00020141653618566124
1.2589254117941662,2.922972078660477,-0.1478760133392143,0.00019907639149252532
1.584893192461111,2.9027393888045854,-0.1766183528181955,0.00019615551673624054
1.9952623149688788,2.8772349434425806,-0.20684664380803497,0.00019301787637360235
2.5118864315095766,2.846182504234493,-0.2380935568470477,0.00019004308785852686
3.1622776601683795,2.809401590687603,-0.2698542038182268,0.00018754721397939988
3.981071705534969,2.7668135840411745,-0.30159800973967776,0.00018572979259445788
5.011872336272715,2.7184454367213258,-0.33278106580428357,0.00018465250430566016
6.30957344480193,2.6644309084833226,-0.36285881710676904,0.0001842450083984204
7.943282347242805,2.6050093104118996,-0.39129861521723797,0.00018433647804272368
10.0,2.540521798487351,-0.4175919610491974,0.00018469673386078966
12.589254117941664,2.471405317877884,-0.44126610760042695,0.00018508652392057456
15.848931924611108,2.3981843559383895,-0.461894712507501,0.0001853014352342086
19.95262314968879,2.321460714598031,-0.4791073480313912,0.00018520602334959335
25.118864315095767,2.2419015600262426,-0.4925976104043457,0.0001847511794395018
31.622776601683796,2.160226047948295,-0.5021296561259305,0.00018397697035510419
39.81071705534969,2.0771908556890413,-0.5075430222746036,0.00018299638983165778
50.11872336272725,1.9935749761205002,-0.5087556299412199,0.0001819708375201401
63.09573444801929,1.9101641435759382,-0.5057649113435332,0.00018107632102726257
79.43282347242804,1.827735267123209,-0.4986470681351989,0.00018046777157110228
100.0,1.7470412422796513,-0.48755449157533803,0.00018025253334030822
125.89254117941664,1.6687964984802712,-0.4727114154373453,0.00018046784835590302
158.48931924611125,1.5936636168193314,-0.4544080123702088,0.00018107632993746847
199.5262314968879,1.5222413214565824,-0.4329929356538287,0.00018197127911179223
251.18864315095797,1.4550541095206695,-0.40886472476506697,0.00018299648553821157
316.227766016838,1.39254373945794,-0.38246213396428175,0.0001839769926199608
398.10717055349687,1.3350627478324426,-0.35425372287193113,0.00018475120295846637
501.187233627272,1.282870110975907,-0.3247269600204845,0.00018520592472981434
630.957344480193,1.2361291120933473,-0.29437711233902064,0.00018530143056239012
794.3282347242813,1.1949074179708468,-0.2636962132538656,0.00018508642565961964
1000.0,1.159179313825291,-0.23316235874176527,0.0001846967212451034
1258.9254117941662,1.128829991553937,-0.20322962163118063,0.00018433644835624818
1584.8931924611124,1.1036617370705892,-0.17431878235584009,0.000184245012373907
1995.2623149688789,1.0834018178152618,-0.14680912631456522,0.0001846523577313519
2511.8864315095802,1.0677118329965791,-0.12103145715218488,0.0001857298521805717
3162.2776601683795,1.0561982575833648,-0.097262490541425,0.0001875471942973661
3981.0717055349687,1.0484238872049199,-0.0757207289670987,0.00019004303984004878
5011.8723362727205,1.0439198754211636,-0.05656387191811518,0.00019301767916957147
6309.57344480193,1.0421980475186587,-0.03988780597023833,0.00019615521351212806
7943.282347242814,1.042763176069528,-0.02572713830045359,0.00019907659276086065
10000.0,1.045124912711563,-0.014057242784929258,0.00020141655971173122
12589.254117941662,1.0488090874931844,-0.004797680010824479,0.00020292026686519193
15848.93192461114,1.0533681109820447,0.002183070888122529,0.00020353807510176125
19952.623149688792,1.058390244263517,0.007061795584149877,0.00020349793699736551
25118.864315095827,1.0635075368686921,0.010053764830900036,0.00020333673474937086
31622.776601683792,1.0684022713059707,0.011405227443447075,0.00020386279858897183
39810.71705534969,1.0728117937833723,0.011385385260609837,0.00020604001434421093
50118.72336272724,1.07653165226549,0.01027804897103124,0.0002107885120281594
63095.7344480193,1.0794170033431565,0.008373225124387318,0.00021871820187158164
79432.82347242821,1.0813822863370677,0.005958837029993447,0.00022984211992849168
100000.0,1.0823991940374011,0.0033127797878478304,0.0002433380197466306
125892.5411794166,1.0824929914238826,0.0006955221504085785,0.0002574653670421867
158489.3192461114,1.081737243047444,-0.001656585122418619,0.0002697833634961455
199526.2314968879,1.0802470028857782,-0.003537173354970946,0.0002778408218304662
251188.6431509582,1.0781704955122262,-0.004774690730528164,0.000280542413165108
316227.7660168379,1.0756792789820366,-0.005236244931211331,0.00028040850957467
398107.17055349686,1.0729568504321185,-0.004830211744547341,0.00028695247984700245
501187.2336272725,1.0701856971221333,-0.0035078022372090345,0.0003213829547412672
630957.344480193,1.0675330394917413,-0.0012633796311547485,0.0004228043321319319
794328.2347242822,1.0651361600597407,0.0018663404966900998,0.000656037556634459
1000000.0,1.0630893991494013,0.005803944081435475,0.001121101389756518
