freq,Zreal,Zimag,sigma_im
0.01,1.788649760912611,0.029939914815258817,3.49708093168033e-05
0.01258925411794166,1.800623962559964,0.03614767747876613,1.342256902603367e-05
0.01584893192461111,1.810309598126538,0.04173889928370045,1.3240879162879082e-05
0.019952623149688792,1.8190976555066456,0.04766093096623081,1.170517072068833e-05
0.02511886431509577,1.828296305137785,0.05412302220247511,9.640471574812182e-06
0.031622776601683784,1.8389110429141267,0.06073601857315225,8.872156200823156e-06
0.039810717055349686,1.8514952723536302,0.06671464004830341,8.82956114622857e-06
0.05011872336272714,1.866088666001842,0.07110896303674963,8.697860920392486e-06
0.0630957344480193,1.8822461938909472,0.07302887093828758,8.217261267873255e-06
0.07943282347242805,1.8991464297128673,0.07182804161675449,7.78199536455304e-06
0.1,1.9157556484381704,0.06722119629375811,7.5724990651337976e-06
0.12589254117941662,1.9310161168585172,0.059320430913430755,7.489422038986504e-06
0.1584893192461111,1.9440241114075705,0.0485899340492324,7.449984799734466e-06
0.1995262314968879,1.9541660409346797,0.035732132513658144,7.3747901723209e-06
0.2511886431509577,1.9611891575927578,0.02152961742831394,7.1666352710053616e-06
0.31622776601683794,1.9651953825612636,0.006674896012555109,7.020649803735068e-06
0.3981071705534969,1.9665607482087097,-0.008378956274100346,6.948694846187209e-06
0.5011872336272715,1.9657964959677439,-0.023517305260611465,6.917891191449144e-06
0.6309573444801929,1.963378636063425,-0.03899178449137253,6.908146886530631e-06
0.7943282347242805,1.9595788772853577,-0.05537035104862298,6.860535805230938e-06
1.0,1.9543301577380556,-0.07341569081836496,6.777524497181275e-06
1.2589254117941662,1.947154427527547,-0.09391200265963562,6.688896469597694e-06
1.584893192461111,1.9371697598513942,-0.11747060866764514,6.71802113316744e-06
1.9952623149688788,1.9231800948297713,-0.1443480619964248,6.639011559173014e-06
2.5118864315095766,1.903836330914636,-0.1743106239264307,6.669339818188291e-06
3.1622776601683795,1.877844619899482,-0.20657110392130562,6.6667293339151e-06
3.981071705534969,1.8441888572950007,-0.23981260107029811,6.618078145947948e-06
5.011872336272715,1.8023310638966,-0.27229911052199895,6.581208850775511e-06
6.30957344480193,1.7523562258927008,-0.3020579196854669,6.5691902975117955e-06
7.943282347242805,1.69503671503863,-0.3271085845444759,6.583697242490416e-06
10.0,1.6318041657652615,-0.34570294028162607,6.5456028295329816e-06
12.589254117941664,1.5646314329288706,-0.35653997679037275,6.601962809327233e-06
15.848931924611108,1.4958414543783798,-0.358924436270172,6.580869090555552e-06
19.95262314968879,1.4278710874806757,-0.35284512043290306,6.557282368646611e-06
25.118864315095767,1.3630244263495483,-0.33896391430243966,6.558465962314131e-06
31.622776601683796,1.3032507629871475,-0.31851926539457054,6.556918677347312e-06
39.81071705534969,1.2499772898963148,-0.29316172379185446,6.573728256853428e-06
50.11872336272725,1.2040169084511971,-0.26474829590370064,6.6002642142848345e-06
63.09573444801929,1.165558937859297,-0.23512745667176205,6.571664343368866e-06
79.43282347242804,1.1342373677683477,-0.20594621676355018,6.5288310864275445e-06
100.0,1.1092598192943428,-0.17850447322780383,6.5673318232484235e-06
125.89254117941664,1.089572426713963,-0.15367348473591846,6.555108960526468e-06
158.48931924611125,1.074032558860709,-0.1318822113898932,6.5851559654106495e-06
199.5262314968879,1.061562911537314,-0.11316603476007003,6.576744056019379e-06
251.18864315095797,1.0512663819858183,-0.09726137141842628,6.5936574173974805e-06
316.227766016838,1.0424899284975333,-0.08372510456683813,6.586384557749625e-06
398.10717055349687,1.0348355417644257,-0.07205573128157994,6.5858954769737466e-06
501.187233627272,1.0281256573066957,-0.061796126577974064,6.626630650430343e-06
630.957344480193,1.0223372429506743,-0.05260315503801394,6.584098471762445e-06
794.3282347242813,1.017522372478245,-0.04427803059479629,6.599699759135547e-06
1000.0,1.0137330164366958,-0.03675863435637439,6.594851029717574e-06
1258.9254117941662,1.0109644223595111,-0.03008243610020145,6.6262341817946435e-06
1584.8931924611124,1.00912577986497,-0.024332795797818108,6.617968651312367e-06
1995.2623149688789,1.0080401850668208,-0.019583020168283838,6.6318071958448854e-06
2511.8864315095802,1.00746962089242,-0.01585132339187112,6.705618410762781e-06
3162.2776601683795,1.0071559435750612,-0.013075325236059143,6.742596568187764e-06
3981.0717055349687,1.0068664865382582,-0.011110026757705782,6.734748211556507e-06
5011.8723362727205,1.0064331075499733,-0.009747460522703477,6.7219682620134336e-06
6309.57344480193,1.0057760259942794,-0.008751545522500237,6.755380482559303e-06
7943.282347242814,1.0049079034453112,-0.007899102003193548,6.7859536869718795e-06
10000.0,1.0039183354280654,-0.007017258692485484,6.824892977874697e-06
12589.254117941662,1.002943226181493,-0.006007375245644653,6.94434120873666e-06
15848.93192461114,1.0021265557118433,-0.004860600205120136,7.0038608157574345e-06
19952.623149688792,1.0015832846301518,-0.003637029617493681,7.000166547754816e-06
25118.864315095827,1.0013714453796816,-0.002439631441120582,7.023183279386558e-06
31622.776601683792,1.0014791061120483,-0.0014009414708198165,7.07273899536176e-06
39810.71705534969,1.0018284509631963,-0.0006320964948827168,7.2161359980782436e-06
50118.72336272724,1.0022954627826055,-0.00017564359040989075,7.439017103649803e-06
63095.7344480193,1.0027404032354164,-2.7267895347904414e-05,7.523242103957273e-06
79432.82347242821,1.003042105000388,-0.0001249786555490573,7.548653158551133e-06
100000.0,1.0031284122668225,-0.0003339033746669884,7.56449929184555e-06
125892.5411794166,1.0029960071414958,-0.0005194174336793367,7.80457003202173e-06
158489.3192461114,1.0027151120633087,-0.0005407873477452085,8.226184469606324e-06
199526.2314968879,1.0024176895942354,-0.0003245187990614795,8.71414531644632e-06
251188.6431509582,1.0022711605968948,0.00012491076995502226,8.841011748472738e-06
316227.7660168379,1.0024427048686873,0.0007490335515285551,8.88429108414357e-06
398107.17055349686,1.0030613706110885,0.0012576440381053544,9.636591286721341e-06
501187.2336272725,1.0041861559245446,0.001727861727886193,1.1644843368685542e-05
630957.344480193,1.0057877788543932,0.0019374366565898526,1.3173012625600222e-05
794328.2347242822,1.0077499428370833,0.0010562188044787035,1.3361378634613175e-05
1000000.0,1.0098923022275563,-0.0006423659051506547,3.485285865423293e-05
