freq,Zreal,Zimag,sigma_re,sigma_im
1000000.0,0.9977589569272125,0.00012040339014261856,0.004811945643333597,0.0017723225373773486
794328.2347242822,0.998095140565951,-0.0007127530932711421,0.0048133512806566815,0.0017723269694073357
630957.344480193,0.9984783823557919,-0.0014412865975909008,0.004814954543979788,0.0017723406842544268
501187.2336272725,0.9988954593377946,-0.0020870836745229223,0.004816699984221555,0.0017723604153969312
398107.17055349686,0.9993329096993477,-0.0026759308584675826,0.004818531144412581,0.0017723844049042678
316227.7660168379,0.9997801774104822,-0.0032375842829838373,0.00482040372990056,0.001772412298622097
251188.6431509582,1.0002313821754476,-0.0038046613020637976,0.004822293057603835,0.0017724450428900492
199526.2314968879,1.0006856886192599,-0.004411431820914633,0.004824195648897176,0.0017724848390694647
158489.3192461114,1.0011467320644765,-0.0050931966461613,0.004826126865085582,0.0017725352441151404
125892.5411794166,1.0016216647413532,-0.00588652334800576,0.004828116943133465,0.001772601496799524
100000.0,1.0021203082207177,-0.006830323215550199,0.004830207469521271,0.0017726911469916513
79432.82347242821,1.0026547564372192,-0.007967580839508834,0.004832449747976069,0.0017728150884734923
63095.7344480193,1.00323960608218,-0.009347467884642743,0.0048349058322978275,0.001772989143812818
50118.72336272724,1.0038928288414506,-0.011027586315146254,0.004837652320149985,0.0017732364187585021
39810.71705534969,1.0046371951124164,-0.013076183811899351,0.004840786542473083,0.0017735907356829274
31622.776601683792,1.005502164466622,-0.015574306160351534,0.004844434784618778,0.0017741015785045537
25118.864315095827,1.0065262563293544,-0.018617891731321355,0.004848762607536607,0.0017748411319226359
19952.623149688792,1.0077599832816928,-0.022319726218819856,0.004853987702005384,0.0017759141497549998
15848.93192461114,1.0092693631848468,-0.026811059381537654,0.004860395518260453,0.0017774715063612891
12589.254117941662,1.011139864473869,-0.03224268698497011,0.004868357251869107,0.001779728350216449
10000.0,1.0134805315607904,-0.038785467474103386,0.004878349220302126,0.0017829877871039762
7943.282347242814,1.01642811740607,-0.04663048824294438,0.0048909728593775825,0.001787670975786758
6309.57344480193,1.0201513637005137,-0.05598926984867952,0.004906975837768326,0.0017943543850183817
5011.8723362727205,1.024856080171576,-0.06709432883296697,0.004927277047061262,0.0018038145423107158
3981.0717055349687,1.0307922236832752,-0.08019992916910153,0.004953000694659899,0.001817079334371072
3162.2776601683795,1.0382644185203025,-0.09558191417510564,0.00498552572477749,0.0018354817879925583
2511.8864315095802,1.0476470663640602,-0.1135344541795095,0.00502655520437051,0.0018607063086789918
1995.2623149688789,1.0594046347906776,-0.13436058278374607,0.0050782072772338855,0.0018948081167559708
1584.8931924611124,1.0741169811954865,-0.15835198242317455,0.005143125264514392,0.0019401735815171967
1258.9254117941662,1.0925074450764278,-0.18575106785910114,0.005224594180834879,0.001999372171208474
1000.0,1.115465729386305,-0.21668634324252734,0.005326624942262138,0.0020748353081275323
794.3282347242813,1.144047576779027,-0.25107451196036973,0.005453923659902974,0.002168303866501531
630.957344480193,1.179422858545741,-0.2884951870354325,0.00561162102867433,0.002280049689421643
501.187233627272,1.2227423150775045,-0.3280678408295843,0.005804639666015121,0.00240802001073061
398.10717055349687,1.2749121453446666,-0.3683886979847579,0.00603667430183302,0.0025472382477558036
316.227766016838,1.336310445971437,-0.4075992725006799,0.006308965854379703,0.002689896700243403
251.18864315095797,1.4065376516128336,-0.4436333693406165,0.006619294338710289,0.002826441708677106
199.5262314968879,1.484326844292064,-0.4746148222739688,0.006961724577426888,0.0029475326136780998
158.48931924611125,1.5677060203162407,-0.4992837594566601,0.007327446890610675,0.0030462397884011678
125.89254117941664,1.6543998719079942,-0.5172792510100375,0.0077065894974512605,0.003119588302360164
100.0,1.7423398365264435,-0.529147756343408,0.00809040148288345,0.0031687824353043036
79.43282347242804,1.8300933347400372,-0.5360624641065692,0.008473009742969047,0.003198041948005885
63.09573444801929,1.917058922035486,-0.5393601326204959,0.00885213924875647,0.0032125750618943296
50.11872336272725,2.0033749540116714,-0.540065229556121,0.00922861739292303,0.0032164893750457123
39.81071705534969,2.089595759844763,-0.5385568560177988,0.009604919474554139,0.0032113378316487346
31.622776601683796,2.1762553973331364,-0.5344685427822271,0.009983277074995224,0.0031956787231358593
25.118864315095767,2.2634560547164,-0.5268341305376905,0.010363934780269198,0.0031656985914204363
19.95262314968879,2.350599834629428,-0.5144268216824408,0.010744057027690832,0.0031166820371112233
15.848931924611108,2.4363402588825993,-0.4961895554118367,0.011117597313365408,0.0030448998277923262
12.589254117941664,2.518769215399932,-0.47162929580637963,0.011476173808034751,0.0029493404970666126
10.0,2.59578544669467,-0.4410545006995478,0.011810695525084361,0.0028326998746971226
7.943282347242805,2.6655291759104944,-0.4055808115602663,0.012113229229196767,0.002701241357951633
6.30957344480193,2.7267408193606704,-0.3669104761417387,0.012378501507526991,0.0025635450206554994
5.011872336272715,2.7789339589020923,-0.32697655700410383,0.01260458619461476,0.0024286188773705152
3.981071705534969,2.822355740716981,-0.28758608822085596,0.012792687977659721,0.0023040877679877773
3.1622776601683795,2.8577938901860973,-0.250171603433697,0.012946291191964264,0.0021950510256439127
2.5118864315095766,2.8863295999763374,-0.21569134566857928,0.013070098656131337,0.0021038163050985065
1.9952623149688788,2.9091203429380093,-0.18465346931795446,0.013169110785402753,0.0020303351633912266
1.584893192461111,2.9272534396149283,-0.1572094771902814,0.013248010017840617,0.0019729795813659677
1.2589254117941662,2.9416718329419345,-0.1332659038364647,0.013310851638703419,0.0019293268769694876
1.0,2.953152928806357,-0.11258298718888546,0.013360978145584866,0.0018967620462356709
0.7943282347242805,2.9623179251673655,-0.09484858116812059,0.013401061533046493,0.0018728487590992245
0.6309573444801929,2.9696544851506967,-0.07972764404832097,0.013433201358864237,0.0018555056809026371
0.5011872336272715,2.975542655621795,-0.06689234204249953,0.013459036146788297,0.0018430524655918454
0.3981071705534969,2.98027903894205,-0.05603822589163856,0.01347984707559199,0.0018341836994089796
0.31622776601683794,2.9840970015657633,-0.04689101272771111,0.01349664456149706,0.0018279118207135381
0.2511886431509577,2.987182186106468,-0.039207630737772656,0.013510234601456585,0.0018235034623396745
0.1995262314968879,2.9896836398537703,-0.03277440845779736,0.01352126619044345,0.0018204213748755228
0.1584893192461111,2.9917215846666414,-0.027404341676563766,0.013530264214283052,0.0018182762703589988
0.12589254117941662,2.9933930216782136,-0.022934352813257505,0.013537653028995685,0.0018167887962852465
0.1,2.9947760435795416,-0.01922273453693301,0.013543774616920334,0.0018157602612988506
0.07943282347242805,2.995933276548742,-0.01614671483097989,0.013548903247904944,0.0018150504669388213
0.0630957344480193,2.996914604350052,-0.013600127632647483,0.01355325730926853,0.0018145611713980374
0.05011872336272714,2.9977592661637,-0.01149125090879739,0.013557008580735674,0.0018142239342240631
0.039810717055349686,2.9984974138778857,-0.009740881856849529,0.013560289154451665,0.0018139912981133025
0.031622776601683784,2.999151187097421,-0.0082807380200946,0.013563196142580815,0.0018138304695090653
0.02511886431509577,2.999735400695593,-0.0070523511406455,0.0135657945897623,0.0018137188507728217
0.019952623149688792,3.0002581157380366,-0.006006640031240647,0.013568119853666244,0.001813640926764769
0.01584893192461111,3.000721574926448,-0.005104152841970199,0.013570181639720829,0.0018135861154720176
0.01258925411794166,3.0011239937196494,-0.00431555835955306,0.013571971881216203,0.0018135472752915513
0.01,3.001462316367533,-0.003621561747956168,0.01357347693991368,0.0018135196383674385
