freq,Zreal,Zimag,sigma_re,sigma_im
1000000.0,0.9988185720519767,0.0002876317319046259,0.002261145662716849,0.002255266001053316
794328.2347242822,0.9990664871494963,-0.00042076543502314405,0.0022611499559699456,0.002255267419994374
630957.344480193,0.9993527693890314,-0.0010475377255247415,0.0022611553662974784,0.002255269500333008
501187.2336272725,0.99966927514419,-0.001611851128987214,0.002261161618813556,0.0022552720518398306
398107.17055349686,1.0000074440937488,-0.0021348707523535606,0.0022611684949139363,0.002255274950385925
316227.7660168379,1.0003603926125866,-0.002640132252359613,0.002261175859768015,0.0022552781433309447
251188.6431509582,1.0007240825863235,-0.0031531241769733463,0.002261183677948556,0.002255281651419753
199526.2314968879,1.0010975760167604,-0.0037008576112741295,0.0022611920192315317,0.0022552855692736192
158489.3192461114,1.0014827603515646,-0.004311902140395929,0.002261201063648114,0.0022552900703947396
125892.5411794166,1.001884010138053,-0.005017007361068402,0.002261211116282631,0.0022552954230895344
100000.0,1.0023081286228266,-0.005850161324952978,0.0022612226407560092,0.002255302023013792
79432.82347242821,1.0027646948228086,-0.006849826465477195,0.0022612363175855666,0.0022553104473223276
63095.7344480193,1.0032667406244398,-0.008060150013308077,0.002261253131976961,0.0022553215357399344
50118.72336272724,1.00383160186683,-0.009532106543805183,0.0022612744974161284,0.002255336506495941
39810.71705534969,1.004481853062741,-0.011324671296363284,0.0022613024271137057,0.002255357120219012
31622.776601683792,1.005246367081962,-0.013506151559426638,0.002261339773256367,0.0022553859114926795
25118.864315095827,1.0061616288525586,-0.01615573549989999,0.002261390562040494,0.002255426514763838
19952.623149688792,1.007273446935156,-0.019365244207465816,0.0022614604602569036,0.002255484118863488
15848.93192461114,1.00863921720047,-0.02324103567280007,0.0022615574184831873,0.0022555660934843133
12589.254117941662,1.0103309401481908,-0.027905943102429987,0.002261692546723977,0.002255682841126878
10000.0,1.01243919454639,-0.03350098164217197,0.0022618812863572876,0.0022558489364778228
7943.282347242814,1.0150781270119746,-0.040186431365788464,0.0022621449436534837,0.002256084619199601
6309.57344480193,1.0183913270724376,-0.048141992661562376,0.002262512649203412,0.00225641770719632
5011.8723362727205,1.0225585462359716,-0.057566006596598066,0.0022630238147903353,0.002256886000647092
3981.0717055349687,1.027803809347514,-0.06867381740662667,0.002263731165552766,0.002257540242598746
3162.2776601683795,1.0344062337706672,-0.08169468671265631,0.0022647043668843113,0.002258447632565492
2511.8864315095802,1.0427151020944538,-0.09686520203499824,0.0022660340212223625,0.002259695640109784
1995.2623149688789,1.053169962079814,-0.11441530441095694,0.002267835219097263,0.0022613952733260634
1584.8931924611124,1.066324573163965,-0.13454127221501228,0.002270248692283022,0.002263681820411528
1258.9254117941662,1.0828698861740025,-0.1573586316984907,0.002273435789668084,0.002266709263006748
1000.0,1.1036451601734447,-0.1828283768057808,0.0022775612885150916,0.002270632386624751
794.3282347242813,1.1296181648391466,-0.21065509392983414,0.002282756954541428,0.0022755696012235825
630.957344480193,1.1618091166629836,-0.24016916137891645,0.0022890618914056878,0.002281542771423543
501.187233627272,1.201137128029445,-0.27022690503842184,0.0022963464557269712,0.0022884013080162365
398.10717055349687,1.2481911949917206,-0.29918287026365364,0.002304244195664358,0.002295755629953904
316.227766016838,1.302968232101517,-0.32498932736409175,0.0023121317784443257,0.0023029605489492296
251.18864315095797,1.364659550326421,-0.34544663407649673,0.002319194934932274,0.0023091866723683606
199.5262314968879,1.431578326658732,-0.3585704481469099,0.002324589083870262,0.0023135875417236522
158.48931924611125,1.5012891274967965,-0.3629834769449031,0.0023276543314378778,0.002315520097531722
125.89254117941664,1.5709334074448482,-0.35821139531988605,0.0023281036705334844,0.00231473464667943
100.0,1.6376704697997255,-0.34478464841591033,0.00232610217105957,0.002311450292886899
79.43282347242804,1.6991088196564093,-0.3241140516711008,0.0023222019937710657,0.002306280979627372
63.09573444801929,1.7536100988939265,-0.2981864836145823,0.002317166024476131,0.002300047668229099
50.11872336272725,1.8003996073271082,-0.26918146817151345,0.0023117597910752487,0.002293560270877594
39.81071705534969,1.8394871004405031,-0.2391206443130633,0.0023065917543000406,0.002287452631723403
31.622776601683796,1.8714593103145831,-0.20963133260232034,0.002302042893098924,0.0022821123812112303
25.118864315095767,1.8972298341567653,-0.181851189499971,0.0022982782660652934,0.002277696872531944
19.95262314968879,1.917818938460539,-0.15645075592430294,0.002295304802188687,0.0022741968803367974
15.848931924611108,1.9342010962782425,-0.13372505279382618,0.0022930383515287105,0.0022715089172052234
12.589254117941664,1.9472239683421098,-0.11370654111460861,0.0022913575935960746,0.002269492719980563
10.0,1.9575826874291247,-0.09626786066494747,0.0022901381392207796,0.002268007195729606
7.943282347242805,1.9658282290355862,-0.08120015666907095,0.0022892696044617073,0.002266928064229848
6.30957344480193,1.9723917415348697,-0.06826471228206489,0.002288661457792643,0.002266153548311304
5.011872336272715,1.9776121215723452,-0.057221968774565396,0.0022882428657312027,0.0022656037771836644
3.981071705534969,1.9817595305014417,-0.047844751111580236,0.0022879600420924852,0.0022652176789593327
3.1622776601683795,1.9850522903157675,-0.039922683384125406,0.002287772998566674,0.0022649493731998586
2.5118864315095766,1.987667934521601,-0.03326303575069233,0.002287652514149931,0.0022647648856952145
1.9952623149688788,1.9897505621265092,-0.02769073698628152,0.002287577575768997,0.0022646393981995486
1.584893192461111,1.991416365747463,-0.023048291232857777,0.0022875333116911204,0.002264555020459966
1.2589254117941662,1.9927582643094217,-0.01919546166063697,0.0022875093650441577,0.002264499020212071
1.0,1.993849858964743,-0.016008584198719922,0.002287498637590982,0.002264462443402658
0.7943282347242805,1.9947487417294099,-0.013379627282882198,0.0022874963371416123,0.0022644390597587995
0.6309573444801929,1.9954992909602667,-0.011215189062788799,0.0022874992715123644,0.0022644245730812787
0.5011872336272715,1.996135159757584,-0.009435499542992292,0.002287505340156561,0.002264416042096929
0.3981071705534969,1.9966815918360066,-0.007973354870947628,0.002287513179785391,0.0022644114650095014
0.31622776601683794,1.9971575614125658,-0.006772873858978137,0.0022875219241628346,0.0022644094875016027
0.2511886431509577,1.9975776276429142,-0.0057880314275622945,0.002287531042944068,0.0022644092002404616
0.1995262314968879,1.9979533712009945,-0.0049810360514502775,0.0022875402316996462,0.002264409999073014
0.1584893192461111,1.998294347889737,-0.00432071119107923,0.002287549334758409,0.0022644114885850266
0.12589254117941662,1.9986086107438945,-0.0037810545481869523,0.002287558290853462,0.0022644134156954393
0.1,1.998902938440608,-0.0033400735782994876,0.002287567095639555,0.0022644156236318095
0.07943282347242805,1.999182907291703,-0.0029788950036579763,0.0022875757755724297,0.0022644180190734696
0.0630957344480193,1.999452886239128,-0.0026810970429776053,0.002287584367813166,0.002264420547670803
0.05011872336272714,1.999715986321319,-0.002432216422612668,0.0022875929025741914,0.0022644231752378978
0.039810717055349686,1.999973967950106,-0.002219398408086937,0.0022876013863280765,0.002264425872980795
0.031622776601683784,2.000227086486713,-0.0020311934307333246,0.0022876097856664034,0.0022644286058221223
0.02511886431509577,2.0004738770961676,-0.0018575708461797415,0.002287618013676589,0.0022644313241930478
0.019952623149688792,2.0007109876663396,-0.001690256391003159,0.00228762592404877,0.002264433961050061
0.01584893192461111,2.000933312903001,-0.0015234041904605587,0.002287633320360917,0.0022644364359804712
0.01258925411794166,2.0011347137607483,-0.001354368234323521,0.002287639985707846,0.002264438666641943
0.01,2.001309386027025,-0.001184081431851958,0.002287645729702871,0.002264440584995009
