freq,Zreal,Zimag,sigma_re,sigma_im
1000000.0,1.0030661875192206,0.002056946474922677,0.008183619344884239,0.0072473620897188385
794328.2347242822,1.0036266297702459,0.000362141740479713,0.008187724975388926,0.007250886073975748
630957.344480193,1.0042844208138495,-0.0010798321894860629,0.008192669452953199,0.007255167368309383
501187.2336272725,1.0050241918127703,-0.002307378102763079,0.008198297527863095,0.007260058329557356
398107.17055349686,1.0058273425281747,-0.003357923033552624,0.008204443158870506,0.007265406607584952
316227.7660168379,1.0066762078648142,-0.004269843199008047,0.008210957495600248,0.007271078429592059
251188.6431509582,1.007556964393073,-0.0050824007447718466,0.008217728359510748,0.007276974581551932
199526.2314968879,1.0084610799755267,-0.005834917422832499,0.008224689355756848,0.007283037462505604
158489.3192461114,1.0093856981199065,-0.006565972575833497,0.00823182148481406,0.007289251875293131
125892.5411794166,1.0103334483929878,-0.007312926517343678,0.00823915090411524,0.007295642844337294
100000.0,1.0113120328240655,-0.008111797083562864,0.008246745419802472,0.007302272663121322
79432.82347242821,1.0123337969064305,-0.00899744719613483,0.008254711280717452,0.007309238398011109
63095.7344480193,1.0134154578162249,-0.01000403561310153,0.008263191649460185,0.0073166709195760056
50118.72336272724,1.0145781814385992,-0.011165605050513366,0.008272368285440953,0.007324736736808375
39810.71705534969,1.0158481277648852,-0.012516519973148812,0.008282467343265073,0.007333643403042452
31622.776601683792,1.0172573437372705,-0.014091368179253553,0.008293768155617871,0.007343647502255266
25118.864315095827,1.0188445834526225,-0.015924059090986122,0.00830661131756301,0.00735506197801793
19952.623149688792,1.020655471308347,-0.01804617244720035,0.008321400991144812,0.007368258278967624
15848.93192461114,1.022741485107756,-0.020484986561700457,0.008338597050671828,0.007383659338091661
12589.254117941662,1.0251574947812703,-0.02326192389992041,0.008358695330378713,0.007401721783281897
10000.0,1.0279580147841652,-0.026392324658729344,0.008382198305375458,0.007422909661504304
7943.282347242814,1.0311928704588231,-0.029887384683504218,0.008409583281790835,0.007447666566789988
6309.57344480193,1.0349034568730007,-0.03375866526288918,0.008441278892045297,0.007476396540834544
5011.8723362727205,1.0391209114515505,-0.038024905793327846,0.00847766129619334,0.007509464380309807
3981.0717055349687,1.043867267740932,-0.042720269891821,0.008519078844127134,0.007547223113105142
3162.2776601683795,1.0491602642696882,-0.047902817777597625,0.008565910570550781,0.007590073068106744
2511.8864315095802,1.0550221603527068,-0.053661733380779904,0.008618661349828147,0.007638554657519328
1995.2623149688789,1.0614924433791662,-0.0601214143457997,0.008678092031172238,0.007693472796682055
1584.8931924611124,1.068643321209958,-0.06744022249942587,0.008745372570083058,0.007756041034030008
1258.9254117941662,1.0765955227069015,-0.07580211097466133,0.008822231901010901,0.007828019826385894
1000.0,1.0855308727115813,-0.08540069220423939,0.008911066659119886,0.007911812279357215
794.3282347242813,1.0956978568041653,-0.09641720231921118,0.009014966026995702,0.008010475885972342
630.957344480193,1.107407066435609,-0.10899593777533118,0.009137614622914047,0.008127613145764708
501.187233627272,1.121015414765373,-0.12322286130891975,0.009283058237771678,0.00826712685387121
398.10717055349687,1.1369018968688283,-0.13911417940143964,0.00945536721621879,0.00843287632539372
316.227766016838,1.1554428907951295,-0.15661988056944612,0.009658296582745089,0.008628334641410575
251.18864315095797,1.176999099296387,-0.1756411174662121,0.009895077030421588,0.00885637824781504
199.5262314968879,1.2019256689417248,-0.196050767582262,0.010168427197415687,0.009119289188656602
158.48931924611125,1.2306091347235133,-0.21769710760229458,0.010480741031532733,0.00941890696054646
125.89254117941664,1.2635196464379674,-0.2403665991786689,0.010834217431588238,0.00975668291338841
100.0,1.3012479277982365,-0.26368856631168086,0.011230557742339043,0.0101332685681219
79.43282347242804,1.3444804808444522,-0.28698543392343706,0.011669878832494946,0.010547329514926271
63.09573444801929,1.393863497818356,-0.30910706649143255,0.012148767525322434,0.010993599202482248
50.11872336272725,1.4497285102811341,-0.3283303011395634,0.01265794755886448,0.011460759011019691
39.81071705534969,1.511713478144802,-0.34243540356201363,0.013180690599254233,0.011930361339318175
31.622776601683796,1.5784068629983723,-0.3490516170990652,0.01369344514847227,0.01237822892606108
25.118864315095767,1.6472206982848074,-0.3462580955248339,0.014169584181691603,0.012778981990488382
19.95262314968879,1.7146754404678561,-0.33325408346668367,0.014585526922320602,0.013112526772973877
15.848931924611108,1.7771024149862549,-0.31078329703638136,0.014926676347737509,0.013369575728028642
12.589254117941664,1.8315138498896018,-0.2810515463141656,0.015190220872723073,0.013553238213687223
10.0,1.876249655990772,-0.24713580456256803,0.015383603070704428,0.013675965161433828
7.943282347242805,1.9111282925785866,-0.21217200019340127,0.015520076270964541,0.01375398054545951
6.30957344480193,1.9371248577990925,-0.17869520568258898,0.01561404090008891,0.013802347784683854
5.011872336272715,1.955829552336064,-0.14834312063095345,0.01567804012513938,0.013832474918945695
3.981071705534969,1.9689553589693976,-0.12189603525687975,0.015721679494216777,0.013851880215022313
3.1622776601683795,1.978030064292571,-0.09949629572710451,0.015751771578311778,0.013865085172418174
2.5118864315095766,1.9842717040432962,-0.08089786782965107,0.015772944260119295,0.013874675786107519
1.9952623149688788,1.9885836766590477,-0.06566590512003154,0.01578827312533659,0.013882110171184913
1.584893192461111,1.9916048447748178,-0.05330724952900209,0.01579978192940293,0.013888221781584132
1.2589254117941662,1.9937729310205938,-0.043343366408384335,0.01580879660564715,0.013893501274284936
1.0,1.995381577580794,-0.03534469834929389,0.015816183789766482,0.01389824706361253
0.7943282347242805,1.9966250398783285,-0.0289424454851534,0.01582250903629578,0.013902645946486967
0.6309573444801929,1.9976307488693892,-0.023828465343575186,0.015828141702524542,0.013906818138305868
0.5011872336272715,1.998482018204908,-0.019749630164732655,0.01583332437628441,0.013910843700419027
0.3981071705534969,1.9992333975877568,-0.016500155281752683,0.015838218341637185,0.013914778352406296
0.31622776601683794,1.9999208092649001,-0.013913729216371292,0.01584293281584982,0.01391866274516015
0.2511886431509577,2.0005681115256397,-0.011856307001114279,0.01584754332114273,0.01392252761483268
0.1995262314968879,2.001191284373899,-0.010219900830025712,0.015852102927674597,0.013926396452961088
0.1584893192461111,2.001801089199799,-0.008917416749473066,0.015856649074662353,0.013930286922873328
0.12589254117941662,2.0024047810653447,-0.00787841542970926,0.015861207868529868,0.013934211818958483
0.1,2.003007201577185,-0.007045603130745634,0.015865796775764267,0.01393817968434737
0.07943282347242805,2.003611384724898,-0.006371904210754867,0.015870425700136963,0.013942194610576983
0.0630957344480193,2.0042187299223633,-0.005818073921167097,0.01587509612571118,0.013946254708787461
0.05011872336272714,2.004828820100215,-0.005350883649362265,0.01587979837358788,0.01395034920033055
0.039810717055349686,2.0054390111209903,-0.004941919184887266,0.01588450757218852,0.01395445458189303
0.031622776601683784,2.006043951273429,-0.0045670113836006505,0.015889179351308992,0.01395853067063464
0.02511886431509577,2.0066352189837713,-0.0042062935116894875,0.01589374661356583,0.013962517653456382
0.019952623149688792,2.007201317696911,-0.0038448397315038597,0.015898119207239762,0.013966335727076703
0.01584893192461111,2.0077283476676193,-0.003473729079163799,0.015902188974945823,0.01396988952652253
0.01258925411794166,2.0082016956319597,-0.0030911063706223927,0.01590584277072226,0.01397307960908985
0.01,2.008608791977596,-0.0027024249238603425,0.015908983716650105,0.013975821134094206
