freq,Zreal,Zimag,sigma_re,sigma_im
1000000.0,0.0014611483352359833,-0.0013022360502551109,0.00026487944804300107,0.00026487761061078747
794328.2347242822,0.0016355582772492625,-0.0015025875239701935,0.0002648825313779643,0.0002648807733067948
630957.344480193,0.0018312664178734134,-0.001718835869148892,0.0002648863959602974,0.00026488470647403726
501187.2336272725,0.00205087600740042,-0.0019546674942955843,0.00026489124267403967,0.00026488960633088695
398107.17055349686,0.002297309096902796,-0.00221385490582716,0.0002648973250462544,0.0002648957230455999
316227.7660168379,0.0025738457548281483,-0.0025003404789143324,0.00026490496254738836,0.0002649033731505171
251188.6431509582,0.0028841681072764394,-0.002818314949551143,0.0002649145574532008,0.00026491295569534183
199526.2314968879,0.0032324099378641525,-0.0031722931224737066,0.00026492661614532033,0.00026492497287901773
158489.3192461114,0.00362321277531236,-0.0035671887562407564,0.00026494177597520996,0.00026494005615497604
125892.5411794166,0.004061789403948191,-0.0040083900635962755,0.00026496083911483514,0.0002649589990828848
100000.0,0.004553995563991239,-0.004501836976020926,0.00026498481517748417,0.000264982798525192
79432.82347242821,0.005106410537043751,-0.005054101379885453,0.00026501497483940976,0.0002650127061886259
63095.7344480193,0.005726427625197362,-0.0056724717107775185,0.00026505291726692983,0.0002650502930105901
50118.72336272724,0.006422356158001642,-0.0063650431959030385,0.00026510065489013615,0.0002650975294874495
39810.71705534969,0.007203537217342648,-0.007140814595414448,0.0002651607199853237,0.00026515688572480557
31622.776601683792,0.008080475683014274,-0.00800979190325679,0.0002652362986708337,0.00026523145576879434
25118.864315095827,0.009064992124421935,-0.008983099205909515,0.0002653313993844217,0.0002653251116723025
19952.623149688792,0.010170399943115076,-0.010073095593575079,0.000265451064826501,0.00026544269366515365
15848.93192461114,0.011411714453229353,-0.011293493249915037,0.0002656016387075887,0.0002655902434242194
12589.254117941662,0.012805898474041006,-0.012659466869714853,0.0002657911011427875,0.00026577528749272667
10000.0,0.014372143489112013,-0.014187742265539786,0.00026602948888265163,0.00026600717744151484
7943.282347242814,0.016132180384923547,-0.015896654420668805,0.0002663294187875761,0.00026629749260641814
6309.57344480193,0.018110613101067832,-0.017806170107283224,0.0002667067353821249,0.0002666605100278183
5011.8723362727205,0.020335273157766984,-0.01993787288168506,0.00026718130628254757,0.00026711374371944776
3981.0717055349687,0.022837599315202618,-0.022314903985709338,0.0002677779922469952,0.0002676785498365387
3162.2776601683795,0.025653046040595973,-0.02496184259933282,0.00026852781923751654,0.0002683807842402137
2511.8864315095802,0.02882151453171239,-0.0279045048280458,0.0002694693758179404,0.00026925148605424896
1995.2623149688789,0.03238779480318361,-0.03116965037177289,0.0002706504516736469,0.0002703275484015409
1584.8931924611124,0.03640202060628767,-0.03478459615904452,0.00027212992558879275,0.00027165232369868113
1258.9254117941662,0.04092016433483647,-0.038776729354870546,0.0002739799043021491,0.0002732760881915846
1000.0,0.04600461985281964,-0.04317288575232828,0.0002762881023161194,0.00027525625396431885
794.3282347242813,0.05172493060628394,-0.047998528369895696,0.00027916042908982273,0.000277657170520385
630.957344480193,0.05815874588820768,-0.05327663581678704,0.0002827237218695686,0.00028054931066760167
501.187233627272,0.06539317205440644,-0.05902612910517774,0.0002871285689637418,0.00028400756010388755
398.10717055349687,0.07352674918342518,-0.06525939159533944,0.00029255221017619986,0.0002881081156020583
316.227766016838,0.082672051059802,-0.07197795892107099,0.0002992014034570011,0.0002929230231584519
251.18864315095797,0.0929581102169497,-0.07916510074247025,0.000307314551886368,0.00029851077032690577
199.5262314968879,0.10453061680499151,-0.08677437894515756,0.0003171610421564079,0.00030490115247949783
158.48931924611125,0.11754685150092119,-0.09471477492569716,0.000329034063358757,0.0003120737350292843
125.89254117941664,0.13216261861122022,-0.1028352441270728,0.0003432324646315333,0.0003199320640656722
100.0,0.14851041441518473,-0.11091331381730354,0.0003600288275511788,0.00032827946478563907
79.43282347242804,0.16667083818918207,-0.11865245739046293,0.00037962489918403366,0.00033680484402577756
63.09573444801929,0.18664141257812544,-0.12569146026035058,0.0004021002413338941,0.000345086737368326
50.11872336272725,0.2083077525837892,-0.13162696803027424,0.0004273632897696568,0.0003526209263433921
39.81071705534969,0.23142208460773267,-0.13604903792194986,0.0004551151625312686,0.0003588727292679284
31.622776601683796,0.25559487275473064,-0.1385883481310594,0.00048483646853903726,0.00036335028671564035
25.118864315095767,0.2803065176619518,-0.13897079668677798,0.0005158065046350142,0.00036568880993870565
19.95262314968879,0.3049450473993123,-0.13706984723804352,0.0005471606868272144,0.00036572776791861497
15.848931924611108,0.32886970251243514,-0.13294175072915046,0.0005779834428189018,0.000363557182780408
12.589254117941664,0.3514897667138695,-0.12682857971976486,0.0006074205794934664,0.00035951202408518755
10.0,0.3723381206639737,-0.11912251984654015,0.0006347831007446023,0.0003541090377871122
7.943282347242805,0.39111746532943703,-0.11029984563085861,0.0006596129665189443,0.0003479434315761714
6.30957344480193,0.40770730744604083,-0.1008457171371406,0.0006816949495448141,0.0003415800480648203
5.011872336272715,0.42213611359739855,-0.0911927971825122,0.0007010205854225672,0.00033547301349235164
3.981071705534969,0.4345351902338643,-0.08168704504182396,0.0007177265696825026,0.0003299304017866959
3.1622776601683795,0.4450924961339243,-0.07258042142028547,0.0007320323731673466,0.0003251191984045419
2.5118864315095766,0.4540177299671747,-0.06404112350495357,0.0007441927887159229,0.00032109362414442044
1.9952623149688788,0.46152115739004923,-0.05617035684135276,0.0007544690491881879,0.0003178298117416603
1.584893192461111,0.4678027794623936,-0.0490182428149639,0.0007631139160892383,0.00031525658330754943
1.2589254117941662,0.4730469874679897,-0.04259631609776829,0.000770363967029423,0.00031327897705129193
1.0,0.47741944845792084,-0.0368872676518953,0.0007764345825552307,0.00031179492766982903
0.7943282347242805,0.4810652291510201,-0.031853261406656896,0.0007815164317733381,0.0003107063874492563
0.6309573444801929,0.4841082245557372,-0.027443306184772427,0.0007857737661473,0.0003099259119963072
0.5011872336272715,0.48665173976236936,-0.02359972164010859,0.0007893444455680812,0.0003093796578282241
0.3981071705534969,0.4887804055863331,-0.020264061873902388,0.0007923420286730628,0.0003090079516881907
0.31622776601683794,0.4905644952873165,-0.017381752523368803,0.0007948614557324237,0.00030876440857489646
0.2511886431509577,0.4920659222094903,-0.014902712217355979,0.0007969872252558369,0.00030861403209305756
0.1995262314968879,0.4933415410877733,-0.012777080200520353,0.000798797734615889,0.00030853060425395395
0.1584893192461111,0.4944400485518199,-0.010950541483474593,0.0008003604831600746,0.0003084939902051754
0.12589254117941662,0.495394878560725,-0.00936555714117514,0.0008017216193683436,0.0003084880959504789
0.1,0.4962203068826238,-0.007969835331806379,0.0008029002086168876,0.0003084998976708178
0.07943282347242805,0.4969160680403257,-0.006726388591773623,0.0008038948052364316,0.000308519399654495
0.0630957344480193,0.49747861764566237,-0.005617369829291642,0.0008046995812404264,0.00030853987076606167
0.05011872336272714,0.4979115054568606,-0.004638940364393196,0.0008053191505397056,0.00030855767792356016
0.039810717055349686,0.49822878766385115,-0.0037916527757813406,0.000805773384017037,0.00030857154917390193
0.031622776601683784,0.49845174376976936,-0.003072916983832041,0.0008060926280629381,0.0003085816051451074
0.02511886431509577,0.49860329919497026,-0.0024744374402193583,0.0008063096563888469,0.0003085885537857919
0.019952623149688792,0.4987038325248683,-0.001983374021615159,0.0008064536290078079,0.00030859320439728015
0.01584893192461111,0.4987693890383214,-0.0015847644375072375,0.0008065475150061062,0.00030859625223395064
0.01258925411794166,0.4988116457038673,-0.001263613510736532,0.000806608033695688,0.0003085982225329757
0.01,0.4988386763224138,-0.0010061648717041728,0.000806646746626274,0.0003085994850654765
