freq,Zreal,Zimag,sigma_re,sigma_im
1000000.0,1.0016211445446865,-0.0023087732685923737,0.0025675860100424753,0.002459786862158672
794328.2347242822,1.0020489439707134,-0.002894729878669569,0.0025677506044970433,0.00245986326628384
630957.344480193,1.0025446736031556,-0.003457518100561403,0.002567941297613873,0.002459952090708254
501187.2336272725,1.0030966812346902,-0.004002872258879671,0.0025681534387025783,0.00246005132081009
398107.17055349686,1.0036938483816855,-0.004543790142034175,0.0025683829036603563,0.0024601594261173462
316227.7660168379,1.0043292298125281,-0.00509932698664545,0.002568627548751155,0.0024602760213079497
251188.6431509582,1.005002019199238,-0.005692150211692037,0.0025688880133198453,0.0024604022096357415
199526.2314968879,1.005717865969059,-0.0063460655192845335,0.002569167889082981,0.002460540641993803
158489.3192461114,1.0064881112365085,-0.00708423260695227,0.0025694734903175444,0.002460695423209892
125892.5411794166,1.0073286072051193,-0.00792828212756479,0.0025698134979211325,0.0024608720045060702
100000.0,1.0082586541676128,-0.008898192008144436,0.0025701986757931967,0.002461077150743681
79432.82347242821,1.0093003670605791,-0.010012574266393136,0.002570641743002283,0.0024613190013479847
63095.7344480193,1.0104785101934972,-0.011288941263057186,0.002571157381641977,0.0024616071871701893
50118.72336272724,1.0118205376337,-0.012743596898255664,0.0025717622710191707,0.0024619529299417754
39810.71705534969,1.013356352606773,-0.014391081855133563,0.0025724749761629187,0.002462369037146737
31622.776601683792,1.01511732138487,-0.016243524710778248,0.0025733155527799733,0.002462869738516714
25118.864315095827,1.017134426788482,-0.018310594993729726,0.002574304910468811,0.002463470420002447
19952.623149688792,1.0194360108813372,-0.020600778039056567,0.0025754642442237206,0.002464187478297715
15848.93192461114,1.0220460594204361,-0.02312428001724993,0.0025768150675579958,0.002465038666085197
12589.254117941662,1.024984093378355,-0.025897135670146804,0.0025783804101727256,0.0024660443189752305
10000.0,1.0282672593529132,-0.028945405110373558,0.002580187477267653,0.0024672296732984565
7943.282347242814,1.0319143407624263,-0.03230818933657484,0.002582271583570293,0.002468628147741661
6309.57344480193,1.0359507249978623,-0.03603870152269064,0.0025846807700480355,0.002470285167565807
5011.8723362727205,1.0404132758960147,-0.04020334513647386,0.0025874804400602847,0.0024722620364579424
3981.0717055349687,1.0453543514426051,-0.04487914790402053,0.00259075754892314,0.002474639491255854
3162.2776601683795,1.050844414884504,-0.050150023401712804,0.0025946240914174272,0.002477520758098227
2511.8864315095802,1.056972790156518,-0.05610253108395351,0.0025992197650154714,0.002481034085199337
1995.2623149688789,1.063846418659985,-0.06282211595489605,0.002604713864320942,0.002485334888886161
1584.8931924611124,1.0715870921766641,-0.07039092097159008,0.002611306755732572,0.0024906078300062926
1258.9254117941662,1.0803283332679467,-0.0788879216369049,0.0026192316187284284,0.0024970693217429884
1000.0,1.0902135160595845,-0.08839133913942744,0.0026287573662384088,0.002504971102719123
794.3282347242813,1.1013966868517069,-0.0989822929588729,0.0026401934254705124,0.002514605279671781
630.957344480193,1.114046774255345,-0.11074787924888504,0.0026538959986670656,0.002526310235282434
501.187233627272,1.1283547390377888,-0.12378178307365832,0.0026702738941870125,0.0025404753386125893
398.10717055349687,1.1445424015083312,-0.13818133726178533,0.002689791276213741,0.002557541730582533
316.227766016838,1.1628719565984464,-0.15404108877202843,0.0027129654218530437,0.002577997192604153
251.18864315095797,1.183656628400594,-0.1714433220201989,0.0027403586000798066,0.0026023639041287475
199.5262314968879,1.2072748009271876,-0.19044464599012853,0.002772561881375588,0.0026311760736362736
158.48931924611125,1.234190973637049,-0.2110539468423159,0.0028101616490506473,0.002664936649608429
125.89254117941664,1.2649844038824978,-0.2331905463524617,0.002853663472826416,0.002704025675700462
100.0,1.3003762976404336,-0.25660486842174,0.0029033251755167253,0.00274851089308188
79.43282347242804,1.341226575806745,-0.28074480386280204,0.0029588383467041464,0.0027978025483754794
63.09573444801929,1.3884459809746414,-0.3045708538343024,0.003018830510209657,0.002850135463204873
50.11872336272725,1.4427557003059683,-0.32637286811108557,0.00308028363528124,0.0029019966025570403
39.81071705534969,1.5042592155048888,-0.3437165000814172,0.0031381907524353245,0.002947852375206639
31.622776601683796,1.571907342074516,-0.3537016696303561,0.003185982171206628,0.0029807335647095393
25.118864315095767,1.6431200634094167,-0.3536489281822102,0.003217133741072666,0.002994074987607508
19.95262314968879,1.713933044553986,-0.342068390413057,0.0032276419851260366,0.0029844023970913326
15.848931924611108,1.779847556100004,-0.3194326599063726,0.0032180423960261506,0.002953394158980677
12.589254117941664,1.8370808051419658,-0.2882209205735834,0.0031934514070227848,0.0029077013372369124
10.0,1.8835481484894052,-0.2521303369777929,0.003161397419551379,0.0028563604646878868
7.943282347242805,1.9190805935423059,-0.21492346078647048,0.003128891803573648,0.002807461582778288
6.30957344480193,1.9449353939276024,-0.17953850422864473,0.0031005155751827624,0.00276604054261789
5.011872336272715,1.9630406857288407,-0.14775963973683734,0.0030781417654726427,0.0027338575429335372
3.981071705534969,1.9753746367567198,-0.12034209256888717,0.0030617174120154108,0.002710387509175864
3.1622776601683795,1.9836262492353738,-0.09733078560524483,0.0030502507598258737,0.0026940334494061653
2.5118864315095766,1.9890914271277562,-0.07837380654958116,0.0030425215054200516,0.002682996267862915
1.9952623149688788,1.992700072139142,-0.06294926387878261,0.0030374391782186805,0.0026757095905201745
1.584893192461111,1.9950914567664475,-0.05050133198593838,0.0030341582797876947,0.0026709710256362365
1.2589254117941662,1.9966931216072137,-0.040509739625194933,0.0030320725586500345,0.0026679220175389816
1.0,1.997786020684966,-0.032518504925485074,0.003030767136117246,0.0026659760177350955
0.7943282347242805,1.9985527702083135,-0.026142630835271963,0.0030299661986540704,0.0026647432410361166
0.6309573444801929,1.9991113183149842,-0.0210642094751233,0.0030294897301483487,0.0026639691489464662
0.5011872336272715,1.9995376144717592,-0.017024264347445875,0.003029221633984458,0.002663489337937364
0.3981071705534969,1.999880529553252,-0.013813562652513899,0.0030290876177805743,0.0026631983270708455
0.31622776601683794,2.0001715342616864,-0.011263896928436533,0.003029040368894134,0.0026630286865296482
0.2511886431509577,2.0004309180569595,-0.00924042385042984,0.0030290498162221834,0.0026629373702593173
0.1995262314968879,2.0006717601076396,-0.007635204730848834,0.003029096814997797,0.002662896882655835
0.1584893192461111,2.0009024627268923,-0.006361890076387302,0.0030291690998119976,0.0026628896177030206
0.12589254117941662,2.0011283813053105,-0.005351398104325968,0.003029258728786834,0.0026629042526219496
0.1,2.0013528810018046,-0.004548406525577741,0.0030293604885287613,0.0026629334612219206
0.07943282347242805,2.001578007268775,-0.003908498601572585,0.003029470893767718,0.002662972469486529
0.0630957344480193,2.001804882032128,-0.0033958454269725985,0.0030295875395415896,0.002663018141296371
0.05011872336272714,2.002033897166929,-0.0029813276325519936,0.003029708652502584,0.0026630683845534843
0.039810717055349686,2.002264727765838,-0.0026410220818879116,0.0030298327375739968,0.0026631217339564634
0.031622776601683784,2.002496155261311,-0.002355046502013429,0.0030299582499982098,0.0026631770194720282
0.02511886431509577,2.002725737405987,-0.0021068380291000845,0.0030300832740787517,0.0026632330828724906
0.019952623149688792,2.00294948567211,-0.0018829540999298258,0.003030205264404386,0.002663288558352318
0.01584893192461111,2.0031618341517046,-0.0016733725170780859,0.003030320977463966,0.0026633417761715364
0.01258925411794166,2.003356205042444,-0.00147203822612259,0.003030426742457769,0.0026633908594752087
0.01,2.003526278482861,-0.001277145831272665,0.0030305191198934547,0.002663434032830332
