freq,Zreal,Zimag,sigma_re,sigma_im
1000000.0,0.9884884756964858,0.0025524476722784883,0.04732267751610881,0.0056050808841268404
794328.2347242822,0.989155200605386,0.0005822680636261681,0.04735412500012867,0.005602232060286847
630957.344480193,0.9899268717129408,-0.001076676425749959,0.04739064845392482,0.005602147053291389
501187.2336272725,0.9907816288219968,-0.002472561035301551,0.04743116440030293,0.005603695087470642
398107.17055349686,0.9916950761350546,-0.0036533529620100713,0.04747448577532476,0.005606147491150076
316227.7660168379,0.9926452737955304,-0.004668170944639134,0.04751955453036819,0.005609083296237603
251188.6431509582,0.99361559133642,-0.005566471815967101,0.04756557382581559,0.005612310623524535
199526.2314968879,0.9945953904009326,-0.006396826406150599,0.04761203808301232,0.005615803329156346
158489.3192461114,0.9955792846151553,-0.007206386861786897,0.04765869651519291,0.005619657899700499
125892.5411794166,0.9965658851688182,-0.008041419547926167,0.047705493373708475,0.005624073565231566
100000.0,0.9975567196522731,-0.00894876692206282,0.04775251728033502,0.00562935587769235
79432.82347242821,0.9985556508932101,-0.00997790685606421,0.04779997449295595,0.0056359436330853845
63095.7344480193,0.9995688497059497,-0.01118334188172032,0.04784818830722779,0.005644461528810125
50118.72336272724,1.0006052828888239,-0.012627194401391435,0.04789762348809763,0.0056558054745019844
39810.71705534969,1.0016776962891722,-0.014381974885664237,0.047948936439338834,0.0056712727789130675
31622.776601683792,1.0028041093742868,-0.01653352448005264,0.04800305364037054,0.00569275466940169
25118.864315095827,1.0040098794804193,-0.019184156814471456,0.04806128243229701,0.005723013373463594
19952.623149688792,1.005330475320935,-0.02245602785557435,0.048125461852258807,0.005766069000931591
15848.93192461114,1.0068152052927597,-0.026494696040662163,0.04819816653654077,0.005827718334030261
12589.254117941662,1.0085322188953283,-0.03147269442325165,0.04828298108190745,0.005916190181261271
10000.0,1.0105751192635626,-0.037592756038655334,0.04838486447560799,0.00604289941249619
7943.282347242814,1.0130714937134209,-0.04509012313959506,0.048510623498620876,0.006223186153046688
6309.57344480193,1.0161935784007365,-0.05423313162410425,0.048669508623898655,0.0064768268725386244
5011.8723362727205,1.020171106426428,-0.06532098461251967,0.04887393399553864,0.006828023114148401
3981.0717055349687,1.0253060777560834,-0.07867731146433128,0.04914030050254912,0.007304583874375463
3162.2776601683795,1.0319886532286169,-0.09463784398387112,0.049489862494905286,0.007936171622195863
2511.8864315095802,1.0407126426286848,-0.11353046641390495,0.049949523693576296,0.008751735047437004
1995.2623149688789,1.05208821243626,-0.13564603954615959,0.05055238019540347,0.009776451280967713
1584.8931924611124,1.0668484161651532,-0.16119870209887335,0.0513377512591016,0.011028504735057492
1258.9254117941662,1.0858445768920357,-0.19027498780702926,0.05235035212327435,0.012515856049576859
1000.0,1.1100231703632697,-0.2227730897898633,0.053638190958894154,0.014233007391833788
794.3282347242813,1.14037495741101,-0.2583386015237933,0.05524882065083458,0.016157899510807493
630.957344480193,1.1778491227396952,-0.29631099596873756,0.05722391069130328,0.018249526061740996
501.187233627272,1.22323392046176,-0.33570208668517304,0.05959274830120745,0.020447333625471645
398.10717055349687,1.2770192883116345,-0.3752280927146832,0.062365962180259915,0.022673577600975242
316.227766016838,1.3392705353417533,-0.41340779123192034,0.0655311075199282,0.024839322336117724
251.18864315095797,1.4095496078165146,-0.44872178577818767,0.06905157189856974,0.02685379282651351
199.5262314968879,1.4869166988285984,-0.4798059960510983,0.07286958929391124,0.028635550880027415
158.48931924611125,1.570026607301229,-0.5056337439098706,0.07691309962610127,0.030122926038518218
125.89254117941664,1.6573048641519779,-0.5256367801450764,0.08110506260111001,0.0312809230076783
100.0,1.7471623365613387,-0.5397316470779329,0.08537313443314523,0.032102738485640554
79.43282347242804,1.8381964509735025,-0.5482447904854691,0.08965759872687415,0.03260552496562288
63.09573444801929,1.9293314643997008,-0.5517553254974837,0.09391587658828049,0.03282144710988017
50.11872336272725,2.019863924833021,-0.5508950619247364,0.0981226311082658,0.03278624570149654
39.81071705534969,2.1094029256925872,-0.5461594382784342,0.10226550983911578,0.03252836680640644
31.622776601683796,2.197725385180764,-0.5377823509654425,0.10633778750216685,0.03206172848311119
25.118864315095767,2.2845921607908988,-0.525708659114775,0.11033004919104743,0.03138410926406799
19.95262314968879,2.369580287746107,-0.5096687550789996,0.11422322663523159,0.03048142763338806
15.848931924611108,2.451979686195765,-0.4893318874556278,0.1179848599473922,0.029336566485945962
12.589254117941664,2.5307845266790254,-0.4644949954839237,0.12156962399571684,0.027940259868757183
10.0,2.6047841440093986,-0.4352546283709364,0.12492405649612999,0.02630104311382773
7.943282347242805,2.672731443231398,-0.40211423601923946,0.12799430571790557,0.024451511429602973
6.30957344480193,2.733546309019335,-0.36599675982559615,0.13073496680089938,0.022449090342677884
5.011872336272715,2.7865025525468745,-0.32815692750550723,0.13311685978784435,0.020370887428303962
3.981071705534969,2.8313498775964767,-0.29001372675958936,0.13513184065445316,0.018303697178547615
3.1622776601683795,2.868338565614634,-0.2529470829569202,0.13679344283695033,0.016331645413275513
2.5118864315095766,2.8981442255908094,-0.2181148343218404,0.1381333505642143,0.014524763419059188
1.9952623149688788,2.9217230057444263,-0.1863366894439311,0.13919502863472594,0.012931358386972541
1.584893192461111,2.9401465536156906,-0.15806318250283735,0.14002658057980352,0.011575472658039999
1.2589254117941662,2.954461433264326,-0.1334161814727174,0.14067470468620388,0.010458920243103985
1.0,2.96559680908356,-0.11226971159743847,0.14118074491918148,0.00956628309073354
0.7943282347242805,2.974321899526991,-0.09433970566610413,0.14157889353837685,0.008871059752251859
0.6309573444801929,2.981241071231219,-0.07926186254154145,0.1418960186293822,0.008341538956454569
0.5011872336272715,2.9868109288735156,-0.06664910012838321,0.1421524373787375,0.007945521273543275
0.3981071705534969,2.991366664594249,-0.05612871316986348,0.14236308368764683,0.007653517306499696
0.31622776601683794,2.995149733042398,-0.0473631945641275,0.14253872928351377,0.007440443028949556
0.2511886431509577,2.998332815598386,-0.04005931048477892,0.14268708665794427,0.00728610105370863
0.1995262314968879,3.0010404085377895,-0.03396935957113027,0.1428137230951161,0.007174865677169045
0.1584893192461111,3.00336463105934,-0.028887645870666424,0.1429227670079362,0.007094976315804334
0.12589254117941662,3.00537646534892,-0.024644426745530267,0.1430174123148446,0.007037735537107204
0.1,3.007132975256048,-0.02109904646816711,0.143100241253213,0.0069967778282242305
0.07943282347242805,3.0086813178126186,-0.018133505614979315,0.14317340043972807,0.006967473295684391
0.0630957344480193,3.0100605170759294,-0.015647209695274108,0.14323867475123345,0.006946470114297726
0.05011872336272714,3.0113019073162115,-0.013553169909659832,0.1432975016752313,0.0069313536572410805
0.039810717055349686,3.0124289573932783,-0.011775639726224007,0.14335095902818806,0.006920395340065044
0.031622776601683784,3.0134570216177616,-0.010249041490772645,0.14339975041000236,0.006912368084269846
0.02511886431509577,3.0143934693651397,-0.0089179507154282,0.14344420875646355,0.006906410737293033
0.019952623149688792,3.015238579070244,-0.007737790238817384,0.1434843362927653,0.006901928116953768
0.01584893192461111,3.0159874776897326,-0.006675724640177676,0.14351989483674565,0.00689851640480547
0.01258925411794166,3.016633187636254,-0.005711056656768679,0.14355054960766056,0.0068959061006966535
0.01,3.0171704151800345,-0.004834315377539468,0.1435760486386532,0.00689391718781276
