freq,Zreal,Zimag,sigma_re,sigma_im
1000000.0,0.9974433633102818,0.003129610095079154,0.006563397875874098,0.006054069443098573
794328.2347242822,0.9978654852684511,0.0014300628920065643,0.0065648700304972475,0.006055206698030642
630957.344480193,0.9983669461978794,-2.00683049365177e-05,0.006567155215919798,0.006057146729397674
501187.2336272725,0.9989398253501562,-0.0012665264922881222,0.006570062625046904,0.006059689052155396
398107.17055349686,0.9995738503634388,-0.002350006920883704,0.006573442516257335,0.00606268059686178
316227.7660168379,1.0002587853966647,-0.0033082757935590577,0.006577183025499318,0.006066009636156837
251188.6431509582,1.0009858532209337,-0.004177033560219663,0.006581207175773009,0.006069601141545391
199526.2314968879,1.0017481900138343,-0.004990439536785811,0.006585468052230251,0.006073411226022121
158489.3192461114,1.0025407087867264,-0.00578183826883421,0.006589943406572799,0.006077421516096158
125892.5411794166,1.0033597774479939,-0.006584874195145057,0.006594631739691589,0.006081635200865027
100000.0,1.0042030100477215,-0.007434982301639082,0.006599551589372473,0.006086076341868732
79432.82347242821,1.0050693485197477,-0.008371160897375596,0.006604745204614681,0.006090793601404684
63095.7344480193,1.005959516064095,-0.00943792250001383,0.006610287459131946,0.0060958693147996346
50118.72336272724,1.0068768721206791,-0.010687343038684358,0.006616300994636896,0.006101435037792033
39810.71705534969,1.0078286840207893,-0.012181143262691216,0.006622979139808296,0.006107695279390706
31622.776601683792,1.0088278042430345,-0.013992728918014698,0.006630618806092527,0.0061149618030543924
25118.864315095827,1.0098946812832803,-0.01620914421429187,0.006639666186462748,0.006123701568549063
19952.623149688792,1.0110596069501732,-0.01893301267800827,0.006650779172346344,0.006134602582706361
15848.93192461114,1.0123652294397072,-0.022284695563051106,0.006664912708336452,0.006148664301155994
12589.254117941662,1.013869660330948,-0.02640492851306319,0.006683436775410545,0.006167322621589389
10000.0,1.0156508422232309,-0.031457971217207996,0.006708299838108798,0.006192622323205404
7943.282347242814,1.0178130268608334,-0.037634837177178034,0.00674225056507783,0.006227449002224929
6309.57344480193,1.020496125245961,-0.045155616784709834,0.006789123592948793,0.00627582399999935
5011.8723362727205,1.0238883891568986,-0.05426943118712444,0.006854176668486863,0.0063432448790803645
3981.0717055349687,1.0282425097045247,-0.06525014001410374,0.006944431936111405,0.006437016110961256
3162.2776601683795,1.0338947302258061,-0.0783853887274969,0.007068919386219947,0.006566457154621138
2511.8864315095802,1.0412856338381222,-0.09395586091669567,0.007238648105616154,0.006742803911024552
1995.2623149688789,1.0509794303122675,-0.11220099773458829,0.007466061709571603,0.0069785596204808365
1584.8931924611124,1.0636754891197366,-0.13326775604200522,0.0077637178039525545,0.007286053496536825
1258.9254117941662,1.0802018172950472,-0.15714166895275952,0.008142043142633256,0.007675098438720003
1000.0,1.1014771350430872,-0.18356615467735124,0.008606318107213597,0.008149949106313416
794.3282347242813,1.1284301240346297,-0.21196625480992506,0.009153494554445514,0.008706192494806574
630.957344480193,1.1618745854502501,-0.24140217006024994,0.009769834914063523,0.009328544443540818
501.187233627272,1.2023559290579988,-0.2705791299756561,0.010430385290902401,0.00999051268668822
398.10717055349687,1.2500003451086614,-0.2979294398245944,0.011100844556608523,0.010656431225824025
316.227766016838,1.304404859390749,-0.3217625983909801,0.011741651046159152,0.011285657171154147
251.18864315095797,1.3645994870435423,-0.34045796511365084,0.012313417524065859,0.011838063457188682
199.5262314968879,1.429093487936497,-0.3526614930096504,0.012782489487216948,0.012279624317154953
158.48931924611125,1.4959955752637724,-0.3574501496744876,0.013125497641214602,0.01258698915727213
125.89254117941664,1.5631846698406142,-0.3544412898255932,0.01333219262112744,0.012750350573925836
100.0,1.6285065872247686,-0.3438377052656681,0.013406287601606224,0.012774335478527554
79.43282347242804,1.6899747867754216,-0.3264053781983126,0.013364299246749077,0.012676893013816904
63.09573444801929,1.7459525070902833,-0.30338451707125186,0.013232545941441085,0.012486300787567814
50.11872336272725,1.79529136389771,-0.27634199423981115,0.013042705823212661,0.012236642461481442
39.81071705534969,1.8374038616318606,-0.24698471662052662,0.01282668929857277,0.011962470426714888
31.622776601683796,1.8722569029399811,-0.21696412836354295,0.012611900520970522,0.011693728325256078
25.118864315095767,1.9002893490347923,-0.18770700841427765,0.012418002845732221,0.011452120184504758
19.95262314968879,1.9222747998200664,-0.1603027712512447,0.012255874211099317,0.011249747428904314
15.848931924611108,1.9391636622730888,-0.13546203220085495,0.012128651074877357,0.011090041542310313
12.589254117941664,1.9519397254827373,-0.11354080577877146,0.012034047863396506,0.010970213293970778
10.0,1.9615153469255384,-0.09460860849132599,0.01196691191942701,0.010884095153973913
7.943282347242805,1.9686725388727457,-0.07853356380286064,0.0119212594883587,0.010824488809623766
6.30957344480193,1.9740433605266123,-0.06506282641206455,0.011891523584084684,0.010784649537864626
5.011872336272715,1.978116583003376,-0.05388649715703514,0.011873111226491343,0.010758973791602443
3.981071705534969,1.9812577719799787,-0.04468208144825067,0.011862510069882558,0.01074314842974397
3.1622776601683795,1.9837335025903635,-0.037141908283357845,0.011857168173352617,0.01073402023293954
2.5118864315095766,1.985734495626478,-0.03098784341136192,0.011855296420233261,0.010729364984071088
1.9952623149688788,1.9873954467627695,-0.025977388389879605,0.011855672442609468,0.010727653246547033
1.584893192461111,1.9888109035517398,-0.021904297283504574,0.011857477430930118,0.010727852968463264
1.2589254117941662,1.990047249677197,-0.018596021230576812,0.011860171686506864,0.010729277751566423
1.0,1.9911512662345046,-0.015909706955501493,0.011863404217951838,0.010731476128270903
0.7943282347242805,1.9921560301217611,-0.01372792295555081,0.011866949179040734,0.010734153464036741
0.6309573444801929,1.9930849899896705,-0.011954716810852676,0.011870662552115496,0.010737118467298015
0.5011872336272715,1.9939549000944803,-0.01051214911528806,0.011874453645186873,0.010740247659227539
0.3981071705534969,1.9947780086238258,-0.009337220921242688,0.011878266925339493,0.010743462418496589
0.31622776601683794,1.9955636594222408,-0.008379103366158368,0.011882070555678208,0.010746714322987565
0.2511886431509577,1.996319374779159,-0.007596663563460503,0.011885848953927827,0.01074997562742886
0.1995262314968879,1.9970515039905576,-0.006956324946812502,0.011889597636323404,0.010753232755359247
0.1584893192461111,1.9977655449856275,-0.006430278935903793,0.011893319287199491,0.010756481464152581
0.12589254117941662,1.9984662366841623,-0.00599503124187538,0.011897020414714443,0.010759722897809024
0.1,1.9991574947484227,-0.005630243483781979,0.011900708253229593,0.010762960145967245
0.07943282347242805,1.9998422241910483,-0.005317824392390633,0.011904387733426842,0.010766195111699633
0.0630957344480193,2.000522007367158,-0.005041257090585454,0.011908058421204576,0.010769425532281888
0.05011872336272714,2.001196679908599,-0.00478519764899659,0.011911711497289075,0.01077264213146902
0.039810717055349686,2.0018638511479847,-0.004535386364817448,0.011915327004060054,0.01077582606189502
0.031622776601683784,2.0025184358167305,-0.004278898079565207,0.011918871522695261,0.010778946796721194
0.02511886431509577,2.00315227887689,-0.004004795231374615,0.01192229652156193,0.010781960703413486
0.019952623149688792,2.003754090388479,-0.0037052770952498877,0.011925538425960926,0.010784811211918186
0.01584893192461111,2.0043101186754333,-0.003377243270301325,0.011928522601928086,0.010787432462136742
0.01258925411794166,2.0048059937322824,-0.003023745616239484,0.011931173354307541,0.010789758197883758
0.01,2.00522969493673,-0.0026543745175505663,0.011933429428331255,0.010791735352759905
