freq,Zreal,Zimag,sigma_re,sigma_im
1000000.0,0.9918758284689829,0.0016515196395702099,0.03252458108494933,0.0027948326523775683
794328.2347242822,0.9922395110752567,0.00040412528091104223,0.03253639743064728,0.0027939133578858584
630957.344480193,0.9926630713308294,-0.0006704081724981169,0.032550192628002156,0.002793987174401745
501187.2336272725,0.9931363317072366,-0.001606773100204354,0.03256562497277999,0.0027946982181667967
398107.17055349686,0.993648294662176,-0.002439247267737274,0.032582329841834054,0.0027958282596871886
316227.7660168379,0.9941900372839382,-0.0032026524045061858,0.03260001368780773,0.002797267342542901
251188.6431509582,0.9947564471093175,-0.003931991167410675,0.03261851040188199,0.0027989918268866935
199526.2314968879,0.9953466983482862,-0.004661729656438677,0.03263779635256183,0.0028010483573551056
158489.3192461114,0.9959637906764858,-0.005425385713861893,0.032657974514369754,0.0028035449979431867
125892.5411794166,0.9966135892684099,-0.006255751867675337,0.03267924225125258,0.0028066511551410496
100000.0,0.9973037738095197,-0.007185853267647711,0.032701856552405636,0.0028106079426192046
79432.82347242821,0.9980430384048116,-0.008250601341321884,0.032726108348085634,0.002815751105194853
63095.7344480193,0.998840814121299,-0.009488999853554522,0.03275231497852391,0.002822549594941125
50118.72336272724,0.9997076852488862,-0.010946676331397183,0.03278083633856213,0.0028316644668268894
39810.71705534969,1.0006565337424043,-0.012678486030838923,0.03281211573271005,0.002844034924508561
31622.776601683792,1.0017043203850096,-0.014750999639900701,0.032846742571676864,0.002861000553055836
25118.864315095827,1.002874371513671,-0.01724482493620046,0.032885533021847276,0.002884470060592019
19952.623149688792,1.004199146113465,-0.020256831396548852,0.0329296284668291,0.00291714549849019
15848.93192461114,1.005723644684127,-0.023902301644352465,0.03298061807747084,0.002962803278714857
12589.254117941662,1.007509688020136,-0.028316814470092058,0.033040694286558654,0.0030266146900988665
10000.0,1.0096411320804464,-0.03365748180564392,0.033112844773235096,0.0031154581632747225
7943.282347242814,1.01222986192036,-0.040103231442177235,0.03320107705270414,0.003238141701673056
6309.57344480193,1.015422434874691,-0.04785409629744466,0.03331067210607138,0.0034054358216803965
5011.8723362727205,1.0194076772643232,-0.05712959444351011,0.03344847649816427,0.0036298362473310597
3981.0717055349687,1.024426162359265,-0.06816584413290441,0.03362326017382316,0.003925032879536409
3162.2776601683795,1.0307827420218405,-0.08120993129074122,0.03384616981324912,0.004305121721944634
2511.8864315095802,1.038862642055075,-0.09650863367977658,0.03413127699103861,0.004783607995327398
1995.2623149688789,1.0491499936642428,-0.11428754726169511,0.034496154062806435,0.005372192548168668
1584.8931924611124,1.0622453084420147,-0.13471635948610627,0.034962318485724043,0.006079243806475483
1258.9254117941662,1.078875393122563,-0.1578567306263983,0.035555276515221466,0.006907798578902245
1000.0,1.099885547807766,-0.1835917174708481,0.03630378322158811,0.007852977707660714
794.3282347242813,1.1262004867439686,-0.21154128185264542,0.03723786933486827,0.008898910679051743
630.957344480193,1.1587400118072178,-0.24097805325646648,0.03838528088909738,0.010015660352816787
501.187233627272,1.1982822346421127,-0.27076931772260004,0.03976636550693127,0.01115713624955785
398.10717055349687,1.245283621254217,-0.29937896890826854,0.04138811752475999,0.012261324571380077
316.227766016838,1.299687578487192,-0.3249585891991939,0.043238784265343534,0.01325400752397106
251.18864315095797,1.3607710421697106,-0.3455365894599503,0.045284689867952935,0.014056348905463237
199.5262314968879,1.4270810854475755,-0.35928486101564633,0.04747052395351918,0.014595534590417354
158.48931924611125,1.4964987945249062,-0.3648153693445298,0.049723503423753576,0.014816557790774416
125.89254117941664,1.5664409636031353,-0.36144258048190486,0.05196097381285117,0.014692589009420717
100.0,1.6341770042331072,-0.3493442539246398,0.054100336904677776,0.014231282853856154
79.43282347242804,1.6972026752446778,-0.3295666039889745,0.05606956773341815,0.01347493829475304
63.09573444801929,1.753583645649503,-0.30385547791630446,0.057816090256634485,0.012493809688998216
50.11872336272725,1.802178508606846,-0.2743487710919209,0.05931185173393992,0.011373924281051414
39.81071705534969,1.8426849839992483,-0.24321490600284298,0.06055341276337331,0.010202699994151642
31.622776601683796,1.875514602583979,-0.21233925934575254,0.061557483393502435,0.009056361920985618
25.118864315095767,1.901558737187645,-0.18313284542728225,0.0623537699826657,0.007992109195641457
19.95262314968879,1.921932118788654,-0.15648228567866856,0.06297750532553269,0.007045824366932831
15.848931924611108,1.937763004732821,-0.13280983958894613,0.06346350233075962,0.006234144027840356
12.589254117941664,1.9500609776654225,-0.11218979418267251,0.06384250801104395,0.005558833011280765
10.0,1.9596587151157656,-0.09447313790669078,0.06413968927232075,0.005011630340315406
7.943282347242805,1.9672061560209237,-0.07939184227505054,0.0643746031668569,0.004578479051763686
6.30957344480193,1.9731932269562358,-0.06663285913602424,0.06456195896750663,0.004242745017359075
5.011872336272715,1.9779830339117628,-0.05588358915563866,0.0647126535582726,0.003987438862829828
3.981071705534969,1.9818446019564768,-0.04685539532918456,0.06483477090112441,0.003796617373394129
3.1622776601683795,1.9849798957843348,-0.03929249054621102,0.06493439870732286,0.0036561684404590056
2.5118864315095766,1.9875435726363948,-0.032972523378618224,0.06501622138663146,0.0035541570563470694
1.9952623149688788,1.989656166883333,-0.027703558556344866,0.06508391261524672,0.0034808704419574095
1.584893192461111,1.9914125262742925,-0.023320317150425023,0.0651403835090669,0.0034286667924652314
1.2589254117941662,1.9928874341869371,-0.019680863905391522,0.06518794583360044,0.0033917091678016325
1.0,1.994139762759016,-0.01666384582769426,0.06522843188397133,0.0033656499682405776
0.7943282347242805,1.9952157779961657,-0.014166039805907523,0.0652632904143274,0.0033473160542697245
0.6309573444801929,1.996151787144246,-0.012100068857042894,0.06529366440205417,0.0033344271922573533
0.5011872336272715,1.9969762217173468,-0.010392308642971462,0.06532045310623334,0.0033253632841833683
0.3981071705534969,1.9977112955230116,-0.008981036538208993,0.0653443621983949,0.0033189824686069317
0.31622776601683794,1.9983743872526287,-0.007814804126898651,0.06536594615641025,0.0033144844323471714
0.2511886431509577,1.9989792316474766,-0.0068509534605666516,0.06538564519985199,0.003311310320949107
0.1995262314968879,1.9995369210226146,-0.006054203132074454,0.06540381653510759,0.003309070590729605
0.1584893192461111,2.000056673675614,-0.005395283151961537,0.06542075829577934,0.003307493492621388
0.12589254117941662,2.000546333370285,-0.004849658210611471,0.06543672494428968,0.0033063886321868215
0.1,2.001012613416118,-0.004396407517005095,0.06545193466569349,0.0033056215242438475
0.07943282347242805,2.001461145550319,-0.004017303834873849,0.06546657079155402,0.0033050960245466767
0.0630957344480193,2.0018963886924506,-0.0036960874236433164,0.06548077888532117,0.0033047422269678484
0.05011872336272714,2.002321408925094,-0.0034179276621928594,0.06549465951398467,0.0033045081391186643
0.039810717055349686,2.0027375300849752,-0.003169115890336825,0.06550825648300572,0.0033043541204384195
0.031622776601683784,2.003143906611035,-0.0029370764483456434,0.06552154234863536,0.003304249464184468
0.02511886431509577,2.003537153059471,-0.0027107744137549296,0.06553440588548726,0.003304170635609215
0.019952623149688792,2.003911249564669,-0.002481535371713731,0.06554664885788261,0.0033041007080681197
0.01584893192461111,2.004258011335562,-0.0022441497489791625,0.06555800154524719,0.0033040294719241027
0.01258925411794166,2.0045683713500138,-0.0019978838802118025,0.06556816512004708,0.0033039534544465434
0.01,2.004834427838393,-0.001746770597059735,0.06557687915052805,0.003303874935964788
