freq,Zreal,Zimag,sigma_im
0.01,1.9960032807049684,-0.003763721647544571,5.287903321882226e-06
0.01258925411794166,1.9967739585240902,-0.0014297755297434378,2.301551778438604e-06
0.01584893192461111,1.9980728607323628,-5.4617982357285655e-05,2.2767655780686624e-06
0.019952623149688792,1.999412575715686,0.000387451988160592,1.8659169203627535e-06
0.02511886431509577,2.0004337991992367,0.0001318577286610889,1.6890376844380661e-06
0.031622776601683784,2.000981176860201,-0.0004906727639877317,1.6883897581143614e-06
0.039810717055349686,2.001098830009857,-0.0011846264376345061,1.6306936752585877e-06
0.05011872336272714,2.000953655823261,-0.0017849946203796208,1.5500624694353426e-06
0.0630957344480193,2.000724862344442,-0.00228223544490902,1.524227336180406e-06
0.07943282347242805,2.000511514322386,-0.002774296111226704,1.5240603364330418e-06
0.1,2.0002988603838663,-0.003376913769557177,1.5058976207682484e-06
0.12589254117941662,1.999993472957348,-0.0041418759495286395,1.481102214984098e-06
0.1584893192461111,1.9995018222056289,-0.005026297590177364,1.471951511067271e-06
0.1995262314968879,1.998805042575529,-0.00592722801417267,1.4719518690586852e-06
0.2511886431509577,1.9979860228189374,-0.006759895536958993,1.4665935812452346e-06
0.31622776601683794,1.997192007540168,-0.007533814400062511,1.4576524292597703e-06
0.3981071705534969,1.9965521967246964,-0.008381966721231038,1.453440259036043e-06
0.5011872336272715,1.9960956339230187,-0.009524001984118513,1.4533594953625162e-06
0.6309573444801929,1.995715769416744,-0.011180980188100875,1.451905751681526e-06
0.7943282347242805,1.9952037029862117,-0.013486690856893802,1.4485970801780823e-06
1.0,1.994335391343861,-0.016444031393916703,1.4465916361450226e-06
1.2589254117941662,1.9929688041877893,-0.019952454982103518,1.4464291785420968e-06
1.584893192461111,1.991100645071549,-0.02389620634153289,1.4460818884010074e-06
1.9952623149688788,1.9888518308249419,-0.028252107217383582,1.444899192737381e-06
2.5118864315095766,1.9863857847851378,-0.03316583497553438,1.4439719455139333e-06
3.1622776601683795,1.9837956276943216,-0.03896122468023577,1.443811443457843e-06
3.981071705534969,1.9810097493621879,-0.046079299764187454,1.4437562269598025e-06
5.011872336272715,1.977754391927965,-0.05497594238090642,1.4433473895514304e-06
6.30957344480193,1.9735833369522175,-0.06602382605811385,1.4429278278882407e-06
7.943282347242805,1.9679531084744963,-0.07945841378557361,1.4428273804600877e-06
10.0,1.9603022599835223,-0.09538336691903737,1.4428224906493092e-06
12.589254117941664,1.95009391875268,-0.1138197076970755,1.4426909933362708e-06
15.848931924611108,1.9368009820730068,-0.13475969212086625,1.4425278707097533e-06
19.95262314968879,1.9198441559647195,-0.158180918406714,1.4424592028050576e-06
25.118864315095767,1.8985213330056043,-0.18399146711095682,1.4424650890410007e-06
31.622776601683796,1.871980551895207,-0.21190754151825786,1.442422338293614e-06
39.81071705534969,1.8392810717878052,-0.24129980400806517,1.4423570393051754e-06
50.11872336272725,1.7995586472809095,-0.27106981042635425,1.442341076018927e-06
63.09573444801929,1.7522705016966724,-0.2996222907568722,1.4423431798915587e-06
79.43282347242804,1.697457062296971,-0.324977749220011,1.4423223597126444e-06
100.0,1.6359366962981534,-0.3450274813371834,1.4423151906695075e-06
125.89254117941664,1.5693571745974926,-0.3578831589937863,1.4423329585122602e-06
158.48931924611125,1.5000641866320916,-0.3622340401983024,1.4423417122877424e-06
199.5262314968879,1.4308020266956154,-0.3576128703507493,1.4423449537503963e-06
251.18864315095797,1.3643151713134838,-0.34449347735755964,1.442368886772627e-06
316.227766016838,1.302951549945461,-0.3241924450638862,1.4424228586551457e-06
398.10717055349687,1.2483664111846888,-0.29860616448991095,1.4424702641235854e-06
501.187233627272,1.2013909058118306,-0.2698610698506627,1.4424680658264855e-06
630.957344480193,1.162076114638298,-0.23997244580667143,1.4425325383649046e-06
794.3282347242813,1.1298721612068048,-0.2105917749001378,1.4427008539485975e-06
1000.0,1.1038714408017034,-0.18288356476796253,1.4428383031117598e-06
1258.9254117941662,1.0830427543297292,-0.1575275396499194,1.442842743892836e-06
1584.8931924611124,1.0664047579576406,-0.13480824180720674,1.442954045749456e-06
1995.2623149688789,1.0531195999990814,-0.11474107395591204,1.443355052532791e-06
2511.8864315095802,1.0425165449637923,-0.09719087735879839,1.4437710770254242e-06
3162.2776601683795,1.0340715187196887,-0.08195790316878515,1.4438294367313809e-06
3981.0717055349687,1.0273703468747113,-0.06882593842084361,1.4439817063727212e-06
5011.8723362727205,1.0220755965126027,-0.05758099210106593,1.4449123594828528e-06
6309.57344480193,1.0179059933556278,-0.04801407854026252,1.4461050629743788e-06
7943.282347242814,1.0146283484813015,-0.03992023234641806,1.4464438086725373e-06
10000.0,1.012056701790626,-0.033101287910056953,1.4466127964962716e-06
12589.254117941662,1.010051667040201,-0.027374694776426622,1.4486204044095174e-06
15848.93192461114,1.008513904024208,-0.022585912913029915,1.4519294324610854e-06
19952.623149688792,1.0073688081256575,-0.018618371524325994,1.4533808799788162e-06
25118.864315095827,1.0065444856695596,-0.015393800250393497,1.4534773994934191e-06
31622.776601683792,1.0059505192556575,-0.012858048004119382,1.4576761572238084e-06
39810.71705534969,1.0054683015076842,-0.010953419876955195,1.4666201418878089e-06
50118.72336272724,1.0049620080524664,-0.009586882138478359,1.4719676094121503e-06
63095.7344480193,1.0043115530927627,-0.008609996122075358,1.4719703491650193e-06
79432.82347242821,1.0034573983094837,-0.007825049302965681,1.481119630608596e-06
100000.0,1.0024371965231662,-0.007023225114807019,1.5059239798498325e-06
125892.5411794166,1.001391977152782,-0.0060469398181624,1.5240849423614478e-06
158489.3192461114,1.00052828529486,-0.004851366910415322,1.5242461167686017e-06
199526.2314968879,1.0000405742693124,-0.0035358662092050963,1.5500790168099243e-06
251188.6431509582,1.00001825600525,-0.0023199435906988697,1.63071354736255e-06
316227.7660168379,1.0003747787630257,-0.0014595905534982023,1.6884203637435036e-06
398107.17055349686,1.000834498188717,-0.001122313866769531,1.6890614731868148e-06
501187.2336272725,1.000995105204378,-0.001262031396571217,1.8659430233158858e-06
630957.344480193,1.000453930038529,-0.001539238584513214,2.2767793935174474e-06
794328.2347242822,0.9989557432490975,-0.0013234846590179927,2.3015641382184704e-06
1000000.0,0.9965005150117417,0.0002110077151158407,5.287918879826048e-06
