freq,Zreal,Zimag,sigma_im
0.01,3.0926551716071797,-0.013832699685709215,0.0009224803110987889
0.01258925411794166,3.07914559497524,-0.028037796855298724,0.0005160376477429465
0.01584893192461111,3.062172510206797,-0.035293649887790046,0.0003761154417453588
0.019952623149688792,3.044853768881583,-0.034718904627243585,0.00034927324538235743
0.02511886431509577,3.0305795045852317,-0.026927469287769235,0.0003489902100431985
0.031622776601683784,3.022248519177272,-0.014073042012390236,0.000344467919796157
0.039810717055349686,3.021535924068578,0.0005050296228641393,0.00033492674294682834
0.05011872336272714,3.028408419217853,0.01298412063896981,0.00032687971021862217
0.0630957344480193,3.0410512880787577,0.019940912890509477,0.0003232160317787336
0.07943282347242805,3.0562572178038065,0.01917442387700774,0.0003225606759012928
0.1,3.0701879546149566,0.010233310911146098,0.00032254511619603937
0.12589254117941662,3.079303569949441,-0.0055070402050643175,0.0003220481081013041
0.1584893192461111,3.0812021818760194,-0.02523845218325871,0.0003212352316789083
0.1995262314968879,3.0751441579978787,-0.04546604327568238,0.00032060507180320386
0.2511886431509577,3.0621371620180025,-0.06289067476310684,0.00032034198312037854
0.31622776601683794,3.044593086288196,-0.07518989744755045,0.0003203055167371738
0.3981071705534969,3.025685186496835,-0.08151418806258115,0.0003203000985501636
0.5011872336272715,3.0085945492293646,-0.08261823643954891,0.00032024702968742186
0.6309573444801929,2.9958275777720225,-0.0806541343344307,0.00032017191744157514
0.7943282347242805,2.988728235758418,-0.07872624774585768,0.0003201185839556142
1.0,2.9872347742263603,-0.08033066159331836,0.0003200986127366995
1.2589254117941662,2.98987203168966,-0.08878500936967582,0.0003200966479681086
1.584893192461111,2.993941153724858,-0.10672114288460866,0.0003200956226821691
1.9952623149688788,2.995863362672079,-0.13568548820012638,0.0003200900756951397
2.5118864315095766,2.9916374394794865,-0.17587922893205543,0.00032008316153533944
3.1622776601683795,2.977367772289861,-0.22606793583700724,0.0003200786707390005
3.981071705534969,2.9498065429059594,-0.28368599981187614,0.0003200771818093681
5.011872336272715,2.90683549686305,-0.3451445914043316,0.0003200770923415322
6.30957344480193,2.8478015926080156,-0.406319369168874,0.00032007693729921294
7.943282347242805,2.773628787953167,-0.46315148247412274,0.0003200763717417718
10.0,2.686661938513919,-0.5122561349373624,0.0003200757434453569
12.589254117941664,2.590254807845241,-0.5514139910474012,0.0003200753704599643
15.848931924611108,2.4881777986990317,-0.5798348153027901,0.0003200752627721473
19.95262314968879,2.383970743064543,-0.5981310946280263,0.0003200752603311416
25.118864315095767,2.2803832880592694,-0.6080088340811454,0.00032007524019544986
31.622776601683796,2.1790236251415367,-0.6117509393462841,0.00032007518410202135
39.81071705534969,2.0802840272725995,-0.6116148269438293,0.00032007512777450925
50.11872336272725,1.9835466009762457,-0.609279813744946,0.0003200750977627939
63.09573444801929,1.8876122461717675,-0.6054630862105888,0.00032007509267320544
79.43282347242804,1.7912510315859973,-0.5997839574975488,0.0003200750976277214
100.0,1.6937480514734327,-0.5909034753993776,0.0003200751006041183
125.89254117941664,1.5953183112274638,-0.576907766969756,0.00032007509762672914
158.48931924611125,1.4972899614845483,-0.5558477106926065,0.0003200750926723936
199.5262314968879,1.4020066149180752,-0.5263072007333771,0.0003200750977621278
251.18864315095797,1.3124678263127443,-0.48786114226683086,0.0003200751277757513
316.227766016838,1.2317942826753558,-0.44131026505957927,0.00032007518410313157
398.10717055349687,1.1626494213572962,-0.3886383685253807,0.00032007524019660866
501.187233627272,1.1067565866383136,-0.33271124691900056,0.00032007526033129424
630.957344480193,1.064618515420168,-0.27680150377153656,0.0003200752627719322
794.3282347242813,1.0354864411204217,-0.2240598259806641,0.0003200753704598047
1000.0,1.0175603749440572,-0.17705282599837302,0.00032007574344599526
1258.9254117941662,1.0083504671543744,-0.13745546932275476,0.00032007637174294445
1584.8931924611124,1.0051041739810687,-0.1059368680023336,0.0003200769372999346
1995.2623149688789,1.0052071026281413,-0.08222879077502632,0.00032007709234310733
2511.8864315095802,1.0064899120144708,-0.0653299668849473,0.0003200771818106518
3162.2776601683795,1.007407997799833,-0.05378257322557578,0.00032007867074067275
3981.0717055349687,1.0070934378854142,-0.04595945321086048,0.00032008316153705335
5011.8723362727205,1.0053018235096558,-0.04031574195938503,0.0003200900756977973
6309.57344480193,1.0022870688883363,-0.03557868806205877,0.00032009562268400793
7943.282347242814,0.9986365718910406,-0.030867326505253256,0.000320096647969767
10000.0,0.9950917996680366,-0.025744690878652277,0.0003200986127393987
12589.254117941662,0.9923713166620275,-0.02020847204829268,0.00032011858395882
15848.93192461114,0.9910094243983938,-0.01462409523572017,0.0003201719174445866
19952.623149688792,0.991225983284213,-0.009602433727794457,0.0003202470296897325
25118.864315095827,0.9928492690278206,-0.005828503069492008,0.00032030009855275876
31622.776601683792,0.9953173783992518,-0.0038602029011072236,0.0003203055167402824
39810.71705534969,0.9977770015199582,-0.003934380817046446,0.0003203419831224602
50118.72336272724,0.9992771801532558,-0.005832088063488339,0.000320605071805348
63095.7344480193,0.9990236405456877,-0.0088545843322958,0.00032123523168069157
79432.82347242821,0.9966283864167904,-0.0119393246992332,0.00032204810810296247
100000.0,0.9922751300318535,-0.013903652491853435,0.0003225451161969345
125892.5411794166,0.9867352927273386,-0.013756855571968929,0.000322560675902403
158489.3192461114,0.9812118750702549,-0.010988355469913724,0.00032321603177838665
199526.2314968879,0.9770461420326839,-0.005737726217581063,0.0003268797102191981
251188.6431509582,0.975372507566337,0.0012140860204696846,0.00033492674294774427
316227.7660168379,0.9768286926851536,0.008634241194444447,0.00034446791979495656
398107.17055349686,0.9814107103879133,0.015148950870369271,0.0003489902100436773
501187.2336272725,0.9885117327525692,0.019577801446855503,0.00034927324538203824
630957.344480193,0.9971208034718604,0.021191795684821102,0.00037611544174488004
794328.2347242822,1.0061064910066535,0.019829608002981836,0.0005160376477421832
1000000.0,1.0144898264318816,0.015859641171541927,0.0009224803110988999
