freq,Zreal,Zimag,sigma_im
0.01,1.8090624057525038,0.026034868809560407,0.00010915913244202713
0.01258925411794166,1.8118753407622767,0.035214488770378694,4.831704639407519e-05
0.01584893192461111,1.8177476172796947,0.04458504656582818,3.4211622834234845e-05
0.019952623149688792,1.826471497671796,0.05333593602824749,3.3195594854928956e-05
0.02511886431509577,1.837650044405109,0.06077453628938656,3.276032625043612e-05
0.031622776601683784,1.8507417332809915,0.06636503706533858,3.05767477881691e-05
0.039810717055349686,1.8651152830619404,0.06975097885936066,2.7784908392058938e-05
0.05011872336272714,1.8801086926148116,0.07075948066218984,2.5684239063128445e-05
0.0630957344480193,1.895086125149955,0.06938700869099534,2.469047923381318e-05
0.07943282347242805,1.9094865256822198,0.06576850486362673,2.447568722918625e-05
0.1,1.9228587444019838,0.06013358950082193,2.447498847257812e-05
0.12589254117941662,1.9348794204969757,0.052755052702821104,2.429017381033738e-05
0.1584893192461111,1.9453518321454029,0.04389588310948511,2.383043833420473e-05
0.1995262314968879,1.954186144618778,0.03376139916883858,2.3235221353612445e-05
0.2511886431509577,1.9613637478334258,0.022462632652434422,2.2707867880944477e-05
0.31622776601683794,1.9668904052242264,0.009995957559851831,2.2377949012053477e-05
0.3981071705534969,1.970744486634482,-0.0037578559386588495,2.225060705307591e-05
0.5011872336272715,1.9728274212463894,-0.01901423360880017,2.223771171583344e-05
0.6309573444801929,1.9729235460857748,-0.03604658950439443,2.222837723730997e-05
0.7943282347242805,1.9706756974527875,-0.05513327707598137,2.2150833351775034e-05
1.0,1.96558125585539,-0.07649569176845716,2.199724701323902e-05
1.2589254117941662,1.957011069741442,-0.10023493327844335,2.1809623784285748e-05
1.584893192461111,1.9442509957157976,-0.1262750225608329,2.164445824814898e-05
1.9952623149688788,1.9265630087092525,-0.15432033340721318,2.1539442650375662e-05
2.5118864315095766,1.9032602846747924,-0.18383362746601506,2.1498081156146043e-05
3.1622776601683795,1.8737886550903613,-0.21403901657708957,2.1495299268092793e-05
3.981071705534969,1.8378056359739912,-0.2439515032705799,2.1496065756965166e-05
5.011872336272715,1.795248014360435,-0.2724317907731688,2.147464476354166e-05
6.30957344480193,1.7463797895867774,-0.29826214000621576,2.1424857516549878e-05
7.943282347242805,1.6918140497236598,-0.3202365176076114,2.1358514102676196e-05
10.0,1.6325049317276457,-0.3372564586690032,2.1295484613270688e-05
12.589254117941664,1.5697088863661357,-0.34842315432138093,2.1252160358864458e-05
15.848931924611108,1.5049176997893656,-0.35311639405421147,2.123411441856682e-05
19.95262314968879,1.439768743485457,-0.35105220588832253,2.123550424371068e-05
25.118864315095767,1.3759403854058467,-0.3423131001565878,2.124387569413244e-05
31.622776601683796,1.3150421134426526,-0.32734761768878684,2.124707545525517e-05
39.81071705534969,1.2585095130293635,-0.3069390276835975,2.1238417892144312e-05
50.11872336272725,1.2075137393382183,-0.2821461686436919,2.121870569760098e-05
63.09573444801929,1.1628935955050212,-0.25422223493450247,2.11946479962144e-05
79.43282347242804,1.1251159550040515,-0.2245194584502599,2.1175253147820428e-05
100.0,1.0942673278683028,-0.19438888007951505,2.1167856400383656e-05
125.89254117941664,1.0700762064790887,-0.16508465816590956,2.1175257692851446e-05
158.48931924611125,1.0519627950298216,-0.13768157695771777,2.1194658205825334e-05
199.5262314968879,1.0391101602552237,-0.11301275819836576,2.121870114368818e-05
251.18864315095797,1.0305490079942141,-0.09163222215444478,2.1238410668145136e-05
316.227766016838,1.0252473645419202,-0.0738042087728843,2.124707367889833e-05
398.10717055349687,1.0221964855953356,-0.059518365134756834,2.124388201463212e-05
501.187233627272,1.0204852761685137,-0.04852734351987209,2.1235494235272157e-05
630.957344480193,1.0193572259997532,-0.04040131905992439,2.1234106464707025e-05
794.3282347242813,1.018246110791629,-0.034592626553987316,2.1252152255568646e-05
1000.0,1.016789196816129,-0.03050321203257056,2.1295472671267746e-05
1258.9254117941662,1.014819120823477,-0.027547936508785398,2.1358502749979635e-05
1584.8931924611124,1.0123377296518654,-0.02520782389802534,2.1424847811868375e-05
1995.2623149688789,1.0094767409399679,-0.02306897052639556,2.1474640247598487e-05
2511.8864315095802,1.0064509919292628,-0.020844775667953286,2.1496061782366738e-05
3162.2776601683795,1.0035102299665588,-0.018381195053862598,2.149528967043679e-05
3981.0717055349687,1.0008949060857346,-0.015646593813656295,2.149806875362259e-05
5011.8723362727205,0.9988003781938711,-0.012709290119929051,2.1539441718010366e-05
6309.57344480193,0.9973524852321675,-0.009706922635828619,2.164445359653655e-05
7943.282347242814,0.9965958212705106,-0.006812207723825736,2.180961035014306e-05
10000.0,0.9964944255243566,-0.0041995502817400165,2.1997233450532505e-05
12589.254117941662,0.9969431958953107,-0.0020163592055979507,2.215081529555185e-05
15848.93192461114,0.9977872730898871,-0.0003619135569579157,2.222836621967872e-05
19952.623149688792,0.9988460177245777,0.0007245722587896353,2.223769866138703e-05
25118.864315095827,0.999938041679298,0.0012663257104748027,2.2250588824990203e-05
31622.776601683792,1.000904027141757,0.0013426459849199546,2.2377936751638572e-05
39810.71705534969,1.001624693867334,0.0010755499823744685,2.2707840475533203e-05
50118.72336272724,1.002032144959557,0.0006118489525590576,2.3235196154436366e-05
63095.7344480193,1.002113805070449,0.00010333874413959165,2.3830422107185e-05
79432.82347242821,1.0019091340639488,-0.00031225438470983136,2.4290152067729665e-05
100000.0,1.0015001415734033,-0.0005273016050750812,2.447497533486498e-05
125892.5411794166,1.0009973588843986,-0.0004755963057760937,2.4475670273194083e-05
158489.3192461114,1.00052329438597,-0.00013800832810773045,2.4690454482945157e-05
199526.2314968879,1.0001954949728058,0.0004577340214666492,2.568422202964271e-05
251188.6431509582,1.0001111816857435,0.0012426538033309953,2.7784886796000663e-05
316227.7660168379,1.000335079259229,0.0021164432761509033,3.0576731085307784e-05
398107.17055349686,1.0008916001287294,0.002959967458423307,3.276033920718291e-05
501187.2336272725,1.0017620815645973,0.0036568840764772403,3.3194981827744385e-05
630957.344480193,1.002887425093063,0.004076375046764724,3.421113008861276e-05
794328.2347242822,1.004176306923639,0.00415320316216139,4.831672990657232e-05
1000000.0,1.0055189393020922,0.0037794559843575826,0.00010915857525573003
