freq,Zreal,Zimag,sigma_im
0.01,1.9541129382063591,-0.030498647985730543,0.0004651948206936818
0.01258925411794166,1.9471250504323847,-0.022329215534568903,0.00021157242653246922
0.01584893192461111,1.9429327720656575,-0.01279772760272202,0.00016492225247172199
0.019952623149688792,1.9418647097469661,-0.0028306500093275844,0.00016421083013201665
0.02511886431509577,1.943893531218145,0.006580764191470578,0.00015865753446997477
0.031622776601683784,1.9486348539706326,0.014523325388616115,0.00014740320475853386
0.039810717055349686,1.9554090359597867,0.020292498570734452,0.0001391312488409624
0.05011872336272714,1.9633539414439463,0.023482874956258115,0.00013640341222515007
0.0630957344480193,1.971563847220957,0.024019589856411727,0.00013631306551292743
0.07943282347242805,1.979223068946912,0.022126748816280184,0.00013575250153818885
0.1,1.9857054949444772,0.01824566302510533,0.00013409369987132935
0.12589254117941662,1.9906229519970908,0.012928529218521945,0.00013238092436801407
0.1584893192461111,1.9938226340469976,0.006737133661211203,0.0001314867400403763
0.1995262314968879,1.9953504297494362,0.00016905669196098927,0.00013132549058580967
0.2511886431509577,1.9954060267237246,-0.006382198443201759,0.00013131017898265762
0.31622776601683794,1.9943125198890104,-0.012645492105644252,0.0001310734994348084
0.3981071705534969,1.9925079349374122,-0.018494133323962103,0.00013068439053876002
0.5011872336272715,1.9905441362700655,-0.0239971458364181,0.0001303808290439301
0.6309573444801929,1.9890596787651236,-0.029509294767159133,0.00013026620957867774
0.7943282347242805,1.9886875954423089,-0.03578176566132285,0.00013025988358816853
1.0,1.9898734598954815,-0.044046038854624214,0.00013023977518888952
1.2589254117941662,1.9926125551083875,-0.05600587399060686,0.0001301660110186731
1.584893192461111,1.9961583504494158,-0.07367792185836919,0.0001300794276631878
1.9952623149688788,1.998792110205514,-0.09905480914756382,0.00013002739883866132
2.5118864315095766,1.9977584244104896,-0.13361988939289304,0.00013001477602914147
3.1622776601683795,1.9894520041331238,-0.17780463953427983,0.00013001471298595968
3.981071705534969,1.9698860517848944,-0.23052665571937325,0.0001300048275794663
5.011872336272715,1.9353935831843563,-0.2889584455166485,0.0001299848915290447
6.30957344480193,1.8834325495791644,-0.34864366177276196,0.00012996713290797102
7.943282347242805,1.8133099816078841,-0.4040011605081233,0.00012995917380576039
10.0,1.726631551486548,-0.44915637039301615,0.000129958311544498
12.589254117941664,1.6273300357439529,-0.47894257225743075,0.0001299577824517839
15.848931924611108,1.52122094400492,-0.48985233579569787,0.00012995432858847744
19.95262314968879,1.4151516369925252,-0.4807138053810682,0.0001299495371384629
25.118864315095767,1.3159178312031792,-0.4529236059812245,0.00012994624352452577
31.622776601683796,1.2291859861224326,-0.4101742598660625,0.0001299453010055185
39.81071705534969,1.1586612372767813,-0.3577396369234651,0.0001299454951596002
50.11872336272725,1.105676965282898,-0.30149076901918015,0.0001299453618848756
63.09573444801929,1.0692723951402685,-0.24687488676991487,0.00012994449659353702
79.43282347242804,1.0467013806805057,-0.198086408582272,0.00012994346525257994
100.0,1.0342146200823328,-0.15759360373634035,0.00012994301671193087
125.89254117941664,1.0279065410207833,-0.12608091644911745,0.00012994346520850408
158.48931924611125,1.0244278020561544,-0.10275711657780917,0.00012994449657321994
199.5262314968879,1.0214263583184051,-0.08589563022154323,0.00012994536192645345
251.18864315095797,1.0176707520430415,-0.07343694136545231,0.00012994549519113052
316.227766016838,1.0128987966970802,-0.06349852759984032,0.00012994530089588396
398.10717055349687,1.007497075803801,-0.054693551592635004,0.00012994624336221117
501.187233627272,1.0021374351297618,-0.046232711246275926,0.0001299495370174486
630.957344480193,0.9974766663034003,-0.03784923963510067,0.0001299543283826976
794.3282347242813,0.9939784273036334,-0.029626212857682077,0.00012995778229052402
1000.0,0.9918622791579482,-0.02181076918002134,0.00012995831133633118
1258.9254117941662,0.9911426395058915,-0.014676582591729215,0.0001299591737092265
1584.8931924611124,0.9917022172814157,-0.00845779453498352,0.0001299671327824603
1995.2623149688789,0.9933515691126702,-0.0033411902304223418,0.0001299848914196322
2511.8864315095802,0.9958509941499927,0.0005181168460275387,0.0001300048275093002
3162.2776601683795,0.9989000673360567,0.002993296946002033,0.0001300147129044693
3981.0717055349687,1.0021209393056667,0.004014172559859475,0.00013001477591589872
5011.8723362727205,1.0050662570604658,0.0036224918712086662,0.00013002739876355474
6309.57344480193,1.0072706550253194,0.0020285687805525754,0.00013007942762199853
7943.282347242814,1.0083425266953285,-0.00036419246502816804,0.00013016601093052138
10000.0,1.008070371590014,-0.00299224645130991,0.00013023977520237873
12589.254117941662,1.0065052627206559,-0.0052268957297236796,0.0001302598835521973
15848.93192461114,1.0039836081763707,-0.006510914275509094,0.00013026620966871683
19952.623149688792,1.001071889181739,-0.006497314425953249,0.0001303808290578634
25118.864315095827,0.998441081595155,-0.005145546917116661,0.00013068439061469928
31622.776601683792,0.9967033271526597,-0.002740946059066829,0.00013107349951280156
39810.71705534969,0.9962578539959535,0.00017285850407233738,0.0001313101790034743
50118.72336272724,0.9971917966685562,0.0029315872038129243,0.0001313254906407102
63095.7344480193,0.9992649010994302,0.004918693055403267,0.00013148673993090831
79432.82347242821,1.0019810838814152,0.005715955561066188,0.00013238092438994098
100000.0,1.0047235359984183,0.005194758970099578,0.0001340936997695219
125892.5411794166,1.0069123035238186,0.003525904879988495,0.00013575250151770524
158489.3192461114,1.0081393912825753,0.0011113239953219889,0.0001363130654803979
199526.2314968879,1.008246670637081,-0.0015366879600051675,0.00013640341218917884
251188.6431509582,1.0073317074872001,-0.003930545633734184,0.00013913124876790972
316227.7660168379,1.0056887954711213,-0.005718892036689738,0.00014740320481326785
398107.17055349686,1.0037097811739368,-0.00674815467183798,0.00015865753449090247
501187.2336272725,1.0017770231927825,-0.007065558568113417,0.0001642108301795342
630957.344480193,1.000178105928362,-0.00687211099332341,0.00016492225246894643
794328.2347242822,0.9990612405761927,-0.0064465339317525405,0.0002115724264696861
1000000.0,0.99843602466568,-0.006064693191497383,0.00046519482063223094
