freq,Zreal,Zimag,sigma_im
0.01,1.9841462274820252,-0.011588076103508094,7.977633576680687e-05
0.01258925411794166,1.9806760350201729,-0.009639803010696113,3.541735811061347e-05
0.01584893192461111,1.9780242303458624,-0.0066489900830175586,3.098063246053523e-05
0.019952623149688792,1.976570253100686,-0.0029214548797007467,3.0732716887499345e-05
0.02511886431509577,1.9765825111012911,0.0010903795689216622,2.8627305558269478e-05
0.031622776601683784,1.97815538004716,0.0048176799743790966,2.6958712123680006e-05
0.039810717055349686,1.9811428299955063,0.007640165964744483,2.657134213598228e-05
0.05011872336272714,1.9851173190357776,0.009003204304311119,2.656776449538878e-05
0.0630957344480193,1.989402126608463,0.008574230936726046,2.6350454015701408e-05
0.07943282347242805,1.99321151562147,0.006380536662615288,2.606878890169806e-05
0.1,1.995879622670721,0.0028454603050604987,2.5946776823541906e-05
0.12589254117941662,1.9970933268165993,-0.001333760134542672,2.5939842758788967e-05
0.1584893192461111,1.997013479135327,-0.005447747151219318,2.592353429766575e-05
0.1995262314968879,1.9962046791953156,-0.009073812070028886,2.587751871641064e-05
0.2511886431509577,1.9953856678244228,-0.01227218589421808,2.5844114933282203e-05
0.31622776601683794,1.9951096867085427,-0.015580174700977167,2.5836834866364844e-05
0.3981071705534969,1.9955278371219558,-0.019805309753293088,2.583659923852122e-05
0.5011872336272715,1.9963496831729857,-0.025724019646379936,2.5830787035947822e-05
0.6309573444801929,1.9970137665986094,-0.03384329312255385,2.5823533847127433e-05
0.7943282347242805,1.9969714463027093,-0.044351805107954334,2.5820439438418996e-05
1.0,1.9959268330135436,-0.05729252409758434,2.5820278909689798e-05
1.2589254117941662,1.9938895076456942,-0.07287985608428205,2.581982258761939e-05
1.584893192461111,1.9909724607064416,-0.09180903114133798,2.5818581273193142e-05
1.9952623149688788,1.9869705445339931,-0.11538769469500565,2.581769160187042e-05
2.5118864315095766,1.980851701430611,-0.14535898458470697,2.5817501889950634e-05
3.1622776601683795,1.970362286809419,-0.18337192927025825,2.5817494524620066e-05
3.981071705534969,1.951968967665953,-0.23017848352360026,2.581733523316504e-05
5.011872336272715,1.9213069938066045,-0.2847757507954718,2.5817139504870357e-05
6.30957344480193,1.8741599364289447,-0.3438187820151546,2.5817057167053237e-05
7.943282347242805,1.8077803940132813,-0.4016349807865094,2.5817053173858573e-05
10.0,1.7221532759280778,-0.45102598241308556,2.5817040437296768e-05
12.589254117941664,1.6207144861031348,-0.4847656817458059,2.5817006693316935e-05
15.848931924611108,1.5101493054174846,-0.4973967951363898,2.5816982837316427e-05
19.95262314968879,1.399196633911373,-0.48673924064884666,2.581697786820797e-05
25.118864315095767,1.2967635825175865,-0.45456285857824463,2.5816977640820415e-05
31.622776601683796,1.2099413651826638,-0.4061528221893327,2.5816973323884718e-05
39.81071705534969,1.142570930184735,-0.3489000374672231,2.5816968179791233e-05
50.11872336272725,1.09480196720826,-0.2904057656756235,2.581696610828854e-05
63.09573444801929,1.0637111265148134,-0.23674433646486936,2.581696601470368e-05
79.43282347242804,1.0446617210028277,-0.19142068808289991,2.5816965787253676e-05
100.0,1.0328598471218255,-0.15525236057588243,2.5816965503626388e-05
125.89254117941664,1.0245708812989114,-0.1270448628379386,2.581696579331133e-05
158.48931924611125,1.0176735637302514,-0.10466997532823052,2.5816966017194742e-05
199.5262314968879,1.011529828873615,-0.08608949302602342,2.5816966106970152e-05
251.18864315095797,1.0064011118055531,-0.06998704769097852,2.5816968178382638e-05
316.227766016838,1.002754009637136,-0.0558951601999631,2.5816973325418213e-05
398.10717055349687,1.0007533745413024,-0.04392334617544691,2.5816977640695515e-05
501.187233627272,1.0000899882867105,-0.034320138251977106,2.5816977854802026e-05
630.957344480193,1.0001164271381002,-0.027106273881376097,2.581698283403433e-05
794.3282347242813,1.0001441089047045,-0.021923478664927387,2.58170066965574e-05
1000.0,0.9997247422626179,-0.018113835864153494,2.581704043365385e-05
1258.9254117941662,0.9987915892610886,-0.014942134627581538,2.5817053175974936e-05
1584.8931924611124,0.9976269951552339,-0.011835408570235906,2.5817057174165603e-05
1995.2623149688789,0.9967020479552813,-0.008539245420518426,2.5817139505335263e-05
2511.8864315095802,0.9964706279766677,-0.00514880588757638,2.5817335229501304e-05
3162.2776601683795,0.9971927567993001,-0.0020268094793269853,2.5817494528762586e-05
3981.0717055349687,0.9988325048983956,0.00035030703316252243,2.5817501900532447e-05
5011.8723362727205,1.001047354188182,0.0015716411495683147,2.581769160424352e-05
6309.57344480193,1.0032682897064291,0.0014538272232975658,2.5818581276385033e-05
7943.282347242814,1.0048566739671994,0.0001449043791961202,2.5819822590172903e-05
10000.0,1.0053049124872198,-0.001868077429153736,2.5820278912729033e-05
12589.254117941662,1.0044233743110846,-0.00386943456209643,2.582043941988521e-05
15848.93192461114,1.002441300679269,-0.005127233473114501,2.582353384703029e-05
19952.623149688792,0.9999644148876996,-0.005142896476947989,2.5830787040138914e-05
25118.864315095827,0.99778292792312,-0.0038402314260492787,2.583659923688364e-05
31622.776601683792,0.9965920942006982,-0.0016056333080700647,2.58368348537083e-05
39810.71705534969,0.9967370080528399,0.0008512495923844732,2.5844114921867722e-05
50118.72336272724,0.9980921336092804,0.002766094749724335,2.587751870349042e-05
63095.7344480193,1.0001291429466104,0.003605246505058224,2.5923534280783422e-05
79432.82347242821,1.0021412278894193,0.0032463597218727047,2.5939842751454556e-05
100000.0,1.003522040743394,0.00198263031822532,2.5946776799117e-05
125892.5411794166,1.0039778588219495,0.0003611818958768609,2.6068788886488004e-05
158489.3192461114,1.0035898186329948,-0.001060984259579456,2.6350454004800405e-05
199526.2314968879,1.002716856457875,-0.001931235444637025,2.656776447680642e-05
251188.6431509582,1.0018012518146617,-0.0021988164015758205,2.657134212488005e-05
316227.7660168379,1.0011739210252064,-0.002070996183171747,2.6958712116081918e-05
398107.17055349686,1.0009430587261061,-0.001869112897804115,2.8627305545196602e-05
501187.2336272725,1.000999638419117,-0.0018636166557239875,3.073271687585588e-05
630957.344480193,1.001115307939986,-0.002162889354018427,3.098063245075833e-05
794328.2347242822,1.0010710239518243,-0.0026927825590754573,3.541735810581176e-05
1000000.0,1.0007525382750488,-0.0032564682195406203,7.977633576457255e-05
