freq,Zreal,Zimag,sigma_im
0.01,2.010923286830596,0.0030078925874477136,4.7376272931387575e-06
0.01258925411794166,2.0071101455081894,-0.00028332781766948756,2.2478988839225167e-06
0.01584893192461111,2.003724703285817,-0.001752563044647104,2.0531364199882773e-06
0.019952623149688792,2.001198347410331,-0.0019046648194489535,1.5167920679459712e-06
0.02511886431509577,1.9997259433796415,-0.0013475503892550478,1.2023236735103637e-06
0.031622776601683784,1.9992459827117,-0.0006669437934760936,1.2165218521431598e-06
0.039810717055349686,1.9994851299572218,-0.0003110768084297888,1.5080349555773864e-06
0.05011872336272714,2.000054015983612,-0.0005153233087185072,1.2042970638503903e-06
0.0630957344480193,2.000566925132718,-0.0012865541284554638,1.2763073158339466e-06
0.07943282347242805,2.0007509380381787,-0.0024516487701475853,1.0368522396220214e-06
0.1,2.0005128748559216,-0.003753472974494798,9.634809643443987e-07
0.12589254117941662,1.9999449345409523,-0.004965781212376896,9.310338811019392e-07
0.1584893192461111,1.9992689800527659,-0.0059905327689193655,1.2024375024566325e-06
0.1995262314968879,1.9987392742076302,-0.006906709571921965,1.0968006947109643e-06
0.2511886431509577,1.998537625993254,-0.00795658464448934,1.0923184561306698e-06
0.31622776601683794,1.9986981731688185,-0.009475517043028958,1.0317861764974623e-06
0.3981071705534969,1.9990894324351836,-0.011793376941568567,1.1587854800154673e-06
0.5011872336272715,1.9994610590566868,-0.015145371744438307,1.3803198442019493e-06
0.6309573444801929,1.9995381464455524,-0.01963288306069444,9.559769722500278e-07
0.7943282347242805,1.9991252203788834,-0.025254513529944234,1.111224349870099e-06
1.0,1.998173211045375,-0.03200502365507418,1.5830981823228285e-06
1.2589254117941662,1.9967702036900954,-0.04001074207917554,1.523440012363153e-06
1.584893192461111,1.995040022008024,-0.049648852847894887,1.115315264144101e-06
1.9952623149688788,1.992965455821659,-0.061594375592903816,1.3334588970792538e-06
2.5118864315095766,1.990184951891806,-0.07675296540401177,1.5223878335746122e-06
3.1622776601683795,1.9858316674008247,-0.09607033015709021,1.4064438715877259e-06
3.981071705534969,1.9784835570301122,-0.12024878517149773,1.4857867682849246e-06
5.011872336272715,1.9662701456578755,-0.1494378125989897,1.416655074137907e-06
6.30957344480193,1.947140632109381,-0.1829867873020703,1.7694267242518436e-06
7.943282347242805,1.919250107825437,-0.2193406471014896,1.2271180906964219e-06
10.0,1.8813802819767098,-0.256132867627457,1.4166178701202625e-06
12.589254117941664,1.8332912823641334,-0.2904770228196867,1.5359023777250513e-06
15.848931924611108,1.7759094369287545,-0.3194091623190616,1.6227696590931373e-06
19.95262314968879,1.7112917786971675,-0.340385065665032,1.3776030627354885e-06
25.118864315095767,1.6423622704379315,-0.35171999691374367,1.617025439770714e-06
31.622776601683796,1.5724724118650064,-0.35286802057453315,1.235579667024922e-06
39.81071705534969,1.5048835417426323,-0.34447644203464733,1.213202445171646e-06
50.11872336272725,1.4422869655657737,-0.32820785115109175,1.3745604334758355e-06
63.09573444801929,1.3864657980690551,-0.3063788650142669,1.1172758576094566e-06
79.43282347242804,1.3381630626277308,-0.28150798995193327,1.322079342003235e-06
100.0,1.2971659739155168,-0.2558814930380322,1.2855252009558171e-06
125.89254117941664,1.2625624042483716,-0.23123198092798702,1.3207993063701906e-06
158.48931924611125,1.2330873954799797,-0.2085883475810988,1.154251641821702e-06
199.5262314968879,1.207464893505712,-0.1883042099289014,1.3149015103408601e-06
251.18864315095797,1.1846641910945939,-0.17022597631876124,1.2924988226359346e-06
316.227766016838,1.164025267509874,-0.15393195392607595,1.319009392375392e-06
398.10717055349687,1.1452501376120088,-0.13896437883522594,1.1299442803647253e-06
501.187233627272,1.128294912402947,-0.1249951528479869,1.1462620079782937e-06
630.957344480193,1.1132189464095805,-0.11189350109634688,1.1395888463994197e-06
794.3282347242813,1.1000486895021413,-0.09970214057830162,1.2254197159222713e-06
1000.0,1.0886971037144921,-0.08855337601198698,1.2656699865942755e-06
1258.9254117941662,1.078952661323863,-0.07857042729301611,1.3529558771097072e-06
1584.8931924611124,1.070525245038349,-0.0697942217484524,1.3912175944597038e-06
1995.2623149688789,1.06311863310737,-0.06215789421185036,1.399361138965105e-06
2511.8864315095802,1.0564953842808986,-0.055510454421892064,1.1299005535647666e-06
3162.2776601683795,1.0505091924391625,-0.049669849540805444,1.6084735818822082e-06
3981.0717055349687,1.0450969525952083,-0.04447917604193208,1.5206692296487745e-06
5011.8723362727205,1.0402404297042296,-0.03984120100358268,1.4879970393621988e-06
6309.57344480193,1.0359187808225696,-0.03571974853184656,1.2533942665982067e-06
7943.282347242814,1.0320745560918685,-0.03211150665447349,1.4117079842890234e-06
10000.0,1.0286076595227363,-0.02900443696853472,1.385429193589971e-06
12589.254117941662,1.0253981829404,-0.026344140787841752,1.2451470539076581e-06
15848.93192461114,1.0223459364620664,-0.02402445118787,1.3113804726572198e-06
19952.623149688792,1.0194072212793994,-0.02190667843387928,1.1780799695770838e-06
25118.864315095827,1.0166106842601597,-0.019860588035953697,1.438304394696388e-06
31622.776601683792,1.0140432087982048,-0.01780760698602535,1.080101291961455e-06
39810.71705534969,1.0118098998077325,-0.015747459830890875,1.4051885344201764e-06
50118.72336272724,1.0099839595280835,-0.013754466584941838,1.489554350087019e-06
63095.7344480193,1.0085678257877273,-0.01194225486688083,1.1716486909563173e-06
79432.82347242821,1.0074839231857697,-0.010409467897261493,1.2537964977354932e-06
100000.0,1.006602600205279,-0.0091884980283794,1.3072525106849753e-06
125892.5411794166,1.0058001080638017,-0.008219452342018485,1.3991749128194897e-06
158489.3192461114,1.0050262558445975,-0.0073395218278164975,1.4688626848169406e-06
199526.2314968879,1.0043547884298214,-0.006554425825015642,1.3080264196219105e-06
251188.6431509582,1.0039926093282463,-0.005431181620224379,1.4871430522589435e-06
316227.7660168379,1.0042365302439569,-0.004362410698377062,1.5884451158854063e-06
398107.17055349686,1.005384806181369,-0.003537242708262056,1.6311245971678545e-06
501187.2336272725,1.0076294452557668,-0.003003849898959743,1.6549998846926428e-06
630957.344480193,1.0109673892413162,-0.003752797063498292,2.157398270696831e-06
794328.2347242822,1.0151680967643848,-0.005919176306633744,2.297714154053665e-06
1000000.0,1.0198183186494147,-0.009178420914395247,4.884585337094904e-06
