freq,Zreal,Zimag,sigma_im
999.0404050000001,0.11401605574668755,0.0027187250007910295,6.055093427836467e-08
891.425842,0.11381120179253214,0.002326039188898445,4.1487699758378986e-08
794.237671,0.11364908471692814,0.0019250673486657993,2.9455467436413207e-08
707.50946,0.11353227594338755,0.0015247899329715545,2.256016146147394e-08
631.009521,0.1134606549071113,0.0011343988404050277,1.906759573214715e-08
562.339172,0.11343110740154087,0.0007511931137187478,1.755234131463321e-08
500.80123899999995,0.11344219389671775,0.0003794754610639897,1.7079042016470778e-08
446.85879500000004,0.1134902554080999,3.059083768748236e-05,1.7018142863208695e-08
397.582581,0.11357449702732686,-0.00030721571060983097,1.7003177581505896e-08
354.659485,0.1136875895567059,-0.0006159922332092116,1.687377637502167e-08
316.315765,0.11382762755383224,-0.0009024640676422438,1.660023465387532e-08
281.894287,0.11399194363433901,-0.0011670646988550491,1.6221858919176688e-08
251.044281,0.11417706749021507,-0.0014088693271119192,1.5808381012656086e-08
223.640198,0.11437785255641925,-0.0016259817235443046,1.543137117227493e-08
199.29838600000002,0.11459071252923561,-0.001819342112239805,1.5137322079653855e-08
177.556778,0.11481374871648377,-0.0019912636470110073,1.4944075073918407e-08
158.629395,0.11503814893868038,-0.002139369033783654,1.4848626879880299e-08
141.31134,0.11527297612193012,-0.0022728398719539843,1.4824229684539799e-08
125.84568,0.11551129743485343,-0.0023898397982324952,1.484360631803657e-08
112.189957,0.11574882335111335,-0.0024911124006006657,1.4875228558375116e-08
99.9040375,0.11598889395908837,-0.002580492255873439,1.4894347870480926e-08
89.0031662,0.11622744144721892,-0.002658505134059252,1.4884350740299002e-08
79.3147354,0.11646421560560077,-0.002727065695701722,1.4838827858925898e-08
70.83874509999998,0.11669489177873625,-0.002786813599774871,1.4760935620993429e-08
63.004020700000005,0.11693225859997111,-0.0028423576738399047,1.4652088832030187e-08
56.2418137,0.11716018169561951,-0.0028911600138971532,1.452834289602293e-08
50.0801239,0.11739087666471089,-0.0029371057669499117,1.43925645403536e-08
44.614521,0.11761816396769807,-0.002980014480145492,1.4255826097441475e-08
39.7582626,0.11784211023186887,-0.0030210655058517995,1.4123644158454672e-08
35.419357299999994,0.11806367939680773,-0.0030616394148657395,1.3998852858366947e-08
31.5869217,0.11828000716369401,-0.0031025076708259876,1.3884809908881854e-08
28.1700668,0.11849280722098089,-0.003145410220839788,1.3781467484367727e-08
25.1044273,0.11870331957323005,-0.003192238379182313,1.3689104120962066e-08
22.3853874,0.11890915535987268,-0.003244243628337676,1.360983423668563e-08
19.929845800000002,0.11911436528042575,-0.0033044764630620694,1.3543729908814341e-08
17.755678200000002,0.11931556323821436,-0.003374038109022358,1.3493845189015794e-08
15.8361454,0.11951304980374684,-0.0034546855466022473,1.3461601797416193e-08
14.1189728,0.1197108025822295,-0.0035495891740901387,1.34477479210571e-08
12.573761900000001,0.11991209063862887,-0.003661867835428533,1.3453373327991603e-08
11.224855400000001,0.12011311369697038,-0.0037897586938264328,1.3478066369965156e-08
9.990410800000001,0.1203265564659101,-0.003941244839885675,1.3522380147957421e-08
8.89805984,0.1205492744264063,-0.004113319062918952,1.3583693340324493e-08
7.93953419,0.1207825968523535,-0.004304293605371139,1.3658117520703317e-08
7.07654047,0.1210364251284289,-0.00451879711622687,1.374358506553536e-08
6.30040264,0.12131564217966505,-0.00475665147513972,1.3835376795735975e-08
5.61242723,0.12162080918195065,-0.005012964493390749,1.3926148468969502e-08
5.00801229,0.12195217834776098,-0.005282136916539363,1.4008281463861568e-08
4.45918846,0.1223247992085439,-0.0055698486209232335,1.407716573431792e-08
3.98190546,0.1227254298579705,-0.005859488150695666,1.4123060015342102e-08
3.54791069,0.1231741288660654,-0.006159009162871441,1.4142046595201426e-08
3.16039586,0.12366629210513824,-0.006457941777501947,1.4128465317314449e-08
2.81430078,0.1242031295120193,-0.006750322862539454,1.408021392750924e-08
2.51044273,0.12477387710725751,-0.007024894749112248,1.4000241580110545e-08
2.23853803,0.1253867022584629,-0.007280732212250696,1.3892706345993897e-08
1.99095273,0.12605198295093376,-0.007515665166840903,1.3763417743019359e-08
1.77395499,0.1267411874523001,-0.007714821037842333,1.3628899695249805e-08
1.58083737,0.12745830379391804,-0.007876727779923712,1.3501100452944226e-08
1.41121697,0.12818679600978838,-0.00799585106874054,1.3395297043221485e-08
1.25805092,0.12894010384978777,-0.008072431412449385,1.3320997623711208e-08
1.11926901,0.12971552021140853,-0.008102687131649714,1.328926040604467e-08
0.998529792,0.13047393269028462,-0.008084871871208966,1.3306360682106033e-08
0.888996482,0.131239289786894,-0.00801896390560802,1.3372661979173036e-08
0.793953419,0.1319702909181459,-0.00791005050862191,1.347915369365734e-08
0.707013488,0.13269873692580184,-0.007755195982390817,1.3620625594273157e-08
0.63065052,0.1333889651488486,-0.007563630475054083,1.377732088449179e-08
0.561969399,0.13405158348818258,-0.007336013373139738,1.3935450670011151e-08
0.500801146,0.1346750950279996,-0.007079676510500293,1.4075755888424732e-08
0.44653058100000004,0.135253404024733,-0.006802115476427325,1.4181794645802941e-08
0.39697656,0.1357998043549153,-0.006501168697708931,1.424283461417423e-08
0.35459780700000004,0.13627818044207568,-0.006203598214661397,1.4248949431670235e-08
0.31532523,0.13672730619355275,-0.005892231854400136,1.4199881935822011e-08
0.281247705,0.13711822042542193,-0.005593665753737007,1.4103358938895476e-08
0.250400603,0.13746979049038613,-0.005301800186252757,1.3968048505791667e-08
0.22326526,0.13777443502156286,-0.005030879872490824,1.3814344858376542e-08
0.199491799,0.1380355877749942,-0.004786811415935749,1.3663274457846662e-08
0.177298903,0.13827292591087553,-0.004559263893953329,1.3526536956116891e-08
0.158038959,0.13847311294393452,-0.0043692356561972215,1.3434559854038177e-08
0.141060576,0.13864533821483363,-0.00421568610003175,1.3399764675906185e-08
0.125845671,0.13879750696589366,-0.004098442693100146,1.3430973333602409e-08
0.11197824,0.13893679148606133,-0.004018988554137603,1.3534048134157111e-08
0.09974589939999999,0.13906369013511488,-0.00398222530896924,1.3700709097400638e-08
0.0891024247,0.1391817896487406,-0.003987622534151943,1.3910403653753293e-08
0.0792889595,0.13930309563267634,-0.004036655915449166,1.415311881011352e-08
0.0707500353,0.13942561299920064,-0.00412737027180547,1.4388046364328635e-08
0.0630518198,0.13955837333296733,-0.004261959700201738,1.4594560062253955e-08
0.056078348300000004,0.1397075108785083,-0.0044426784190376096,1.4746664002370758e-08
0.0500288084,0.13987103269740972,-0.004660385321364939,1.482208043983615e-08
0.0445750952,0.14005929580411458,-0.004921323841256872,1.482210609222218e-08
0.039762307000000004,0.14027278323996348,-0.005218720677418083,1.4759047265483464e-08
0.0353750028,0.14052370944298212,-0.005561614147239412,1.4658501097785046e-08
0.0315259062,0.14080747126537826,-0.00593560497218754,1.456466776821196e-08
0.0281268004,0.1411284257593911,-0.006338977257626913,1.452166208963265e-08
0.0250390954,0.1415005828629097,-0.006781039108925496,1.4569547661010538e-08
0.022357193799999998,0.14191065244143142,-0.0072385311541106785,1.4728672232304583e-08
0.019913583999999998,0.14238161689559103,-0.007729506310153749,1.500427398294574e-08
0.0177685991,0.14289987940795276,-0.008232049436320993,1.5356221420187002e-08
0.0158327222,0.1434823002886963,-0.00875529113384365,1.5736577163902283e-08
0.0140958801,0.14413008037336927,-0.009291944664413836,1.607606749540781e-08
0.0125716031,0.14482960440513615,-0.009824354601741293,1.6321511927339246e-08
0.011199108300000002,0.14559909485069372,-0.010360148014843055,1.650056370092167e-08
0.009981217790000002,0.14642824113523428,-0.01088557140719633,1.675706761799672e-08
0.00889724959,0.14731796745435685,-0.011395881605554012,1.743199513569145e-08
0.00792663917,0.1482724449946766,-0.011887913718666692,1.914295881074662e-08
0.007064253559999999,0.14928199028518022,-0.012351719129351905,2.282465651750885e-08
0.0062955287300000004,0.15034605702228954,-0.012782966727932917,2.9812262797408596e-08
0.005612427370000001,0.15145667596971557,-0.013174925984427207,4.180568337520313e-08
0.00500083202,0.15261736194098927,-0.013525510612697746,6.106839379643305e-08
