freq,Zreal,Zimag,sigma_im
999.0404050000001,0.11644652141540747,-3.723881733054398e-05,1.973531194364769e-06
891.425842,0.11643603080971328,-9.150216088946186e-05,1.8959412655678983e-06
794.237671,0.1164294950384706,-0.00015002896929016728,1.821057812780436e-06
707.50946,0.11642740367726333,-0.00021224386748436118,1.7499950976203035e-06
631.009521,0.11643004518363706,-0.00027733136793921427,1.6837201627344976e-06
562.339172,0.11643775859287951,-0.0003463716583877119,1.6211781789056723e-06
500.80123899999995,0.11645095182718258,-0.00041932468533470804,1.5625814410492185e-06
446.85879500000004,0.11646954577681032,-0.0004944367632724613,1.509209572869782e-06
397.582581,0.11649470354500235,-0.0005748464863682414,1.4588537941102172e-06
354.659485,0.11652556347215294,-0.0006567237390356297,1.4138338626328354e-06
316.315765,0.11656295878154514,-0.0007418601154845154,1.3728358682054757e-06
281.894287,0.11660745109818708,-0.0008306554520502758,1.335565756581258e-06
251.044281,0.11665940754421597,-0.0009229810270331958,1.3019759426783283e-06
223.640198,0.1167186750686529,-0.0010179267688491282,1.2721930955446103e-06
199.29838600000002,0.11678541645846699,-0.0011152992943370124,1.245991029894554e-06
177.556778,0.11686022825738233,-0.0012154879948294392,1.2229992579250512e-06
158.629395,0.11694108130972775,-0.0013156010580224582,1.2034969180833341e-06
141.31134,0.11703226680540316,-0.0014205267255860707,1.1862649764287867e-06
125.84568,0.11713229090817422,-0.001527846744926814,1.1715547756929008e-06
112.189957,0.11724008896388716,-0.001636114505289541,1.1592659530408983e-06
99.9040375,0.11735787263686324,-0.0017471882319825948,1.1489227505755164e-06
89.0031662,0.11748428368758491,-0.0018593907333092938,1.1404442435063802e-06
79.3147354,0.11761954196263112,-0.0019726584734399816,1.1335740928110553e-06
70.83874509999998,0.11776118731791646,-0.002084842693338568,1.128169239811399e-06
63.004020700000005,0.1179176056424331,-0.0022021302613405686,1.1237544662213589e-06
56.2418137,0.11807845399677441,-0.0023164495120160875,1.1204526757899756e-06
50.0801239,0.11825239139801706,-0.002433775317421143,1.11790035685623e-06
44.614521,0.11843526337396401,-0.0025508883160223106,1.1160326410758096e-06
39.7582626,0.1186272317437414,-0.0026677023844092654,1.114705875611633e-06
35.419357299999994,0.1188293684917561,-0.002784628826508912,1.1137952609627245e-06
31.5869217,0.11903918617602821,-0.002900054542781653,1.1132081971016302e-06
28.1700668,0.11925836807110353,-0.003014767344446848,1.1128516467316523e-06
25.1044273,0.11948840563636104,-0.0031292854041600022,1.1126555805898468e-06
22.3853874,0.11972661594110978,-0.0032420611620711083,1.1125661602703973e-06
19.929845800000002,0.11997744636603125,-0.003354933108615258,1.1125375100719312e-06
17.755678200000002,0.12023605643314215,-0.003465473768546442,1.1125361322607973e-06
15.8361454,0.1205011289183031,-0.0035730780840510195,1.1125364602195777e-06
14.1189728,0.1207758039948688,-0.003678914306911401,1.1125214492339451e-06
12.573761900000001,0.12106188681564325,-0.0037834197069152504,1.1124800037325585e-06
11.224855400000001,0.12135023443880752,-0.0038832129322413965,1.1124086869806965e-06
9.990410800000001,0.12165450820011085,-0.003982854362687123,1.1123028200070507e-06
8.89805984,0.1219649256937073,-0.004078865518409028,1.1121671225310652e-06
7.93953419,0.12227798740697726,-0.004170249915040543,1.1120084583773012e-06
7.07654047,0.12260129272594361,-0.004259199573339672,1.1118292083218905e-06
6.30040264,0.12293474935688947,-0.004345475841461626,1.1116360840152387e-06
5.61242723,0.12327334034427095,-0.004427699299189422,1.1114394485710548e-06
5.00801229,0.1236131656573985,-0.004505051808635195,1.1112488704455479e-06
4.45918846,0.12396526037393521,-0.004580012704310293,1.111065279051869e-06
3.98190546,0.1243140458604749,-0.004649330978416829,1.1109029176869345e-06
3.54791069,0.12467467871496318,-0.004716101055865202,1.1107601623352384e-06
3.16039586,0.1250408757044333,-0.004779066168228864,1.1106450443650694e-06
2.81430078,0.125412462626386,-0.004838245276420974,1.1105616366121263e-06
2.51044273,0.12578239586082313,-0.0048927063348051655,1.1105135736041143e-06
2.23853803,0.12615705096263077,-0.004943592904817421,1.1105009735234747e-06
1.99095273,0.126543333176894,-0.004991833189868728,1.1105254714185007e-06
1.77395499,0.12692645424896482,-0.00503571549446215,1.1105858235536385e-06
1.58083737,0.12731150264455798,-0.005076118362592703,1.1106801322421554e-06
1.41121697,0.1276927101960769,-0.0051127361663069765,1.1108033564116312e-06
1.25805092,0.128080303415204,-0.005146797170282918,1.1109547801961389e-06
1.11926901,0.12847612585680956,-0.0051785784249479185,1.111131229982232e-06
0.998529792,0.12886384801090028,-0.005207061498192005,1.1113193771778e-06
0.888996482,0.12925947091885784,-0.005233728482823547,1.1115200895702495e-06
0.793953419,0.12964519446179296,-0.005257693105540904,1.111717157415414e-06
0.707013488,0.1300414142782588,-0.005280524599607346,1.1119133783359768e-06
0.63065052,0.13043234856056526,-0.00530158120599434,1.1120933201699985e-06
0.561969399,0.13082707676101313,-0.005321665183507597,1.1122540893643941e-06
0.500801146,0.1312218724651931,-0.005340870192715503,1.112387666827996e-06
0.44653058100000004,0.13161509952622116,-0.005359412554524509,1.1124891000314857e-06
0.39697656,0.13201866795641534,-0.0053781255137420126,1.112558136246202e-06
0.35459780700000004,0.13240631864912003,-0.005396058419532763,1.1125920924320108e-06
0.31532523,0.13280981461544247,-0.005414932995099646,1.1125993382165572e-06
0.281247705,0.1332035115884866,-0.005433775558939457,1.1125896241577105e-06
0.250400603,0.13360413150517117,-0.005453578837333211,1.112580508741292e-06
0.22326526,0.1340005530552255,-0.005473960729377477,1.1125975598567305e-06
0.199491799,0.13439070968186212,-0.005494905035374413,1.1126726360421702e-06
0.177298903,0.1348007328533856,-0.005517950804314733,1.1128595909830856e-06
0.158038959,0.1352020811013087,-0.005541582698289306,1.1132063901272738e-06
0.141060576,0.13560048397480534,-0.005566094794477384,1.1137779885678789e-06
0.125845671,0.1360025591540373,-0.005591857507190582,1.11466356255052e-06
0.11197824,0.13641617212959567,-0.005619347973036899,1.1159942698241828e-06
0.09974589939999999,0.13682853832128541,-0.00564762401096441,1.1178551798923361e-06
0.0891024247,0.13723346054080265,-0.005676069903076448,1.1203204226972363e-06
0.0792889595,0.1376551921739961,-0.005706204630613215,1.1236970207035825e-06
0.0707500353,0.13807015134525394,-0.005736123171272931,1.1279712730084453e-06
0.0630518198,0.13849298379595007,-0.005766610819522015,1.1334572636031899e-06
0.056078348300000004,0.13892676701516027,-0.00579758099939662,1.140446828508591e-06
0.0500288084,0.139352802484488,-0.005827373888330049,1.148832772403749e-06
0.0445750952,0.1397872285824928,-0.005856776380825635,1.1591230329030804e-06
0.039762307000000004,0.14022088443791694,-0.005884796014204467,1.1713349190053654e-06
0.0353750028,0.14066833667748366,-0.0059119449400337875,1.1861656338266575e-06
0.0315259062,0.1411128066810245,-0.005936772494978752,1.2033374526740441e-06
0.0281268004,0.14155639043566,-0.005959062732568413,1.223091189726514e-06
0.0250390954,0.1420118162237768,-0.005978995970640461,1.246283848409233e-06
0.022357193799999998,0.1424584944766555,-0.005995292404457714,1.2720769854537792e-06
0.019913583999999998,0.14291761264275815,-0.006008334597146998,1.3019095268435514e-06
0.0177685991,0.14337208277900368,-0.006017207978555785,1.334920892252174e-06
0.0158327222,0.14383412083759137,-0.00602178140599947,1.3721892180648046e-06
0.0140958801,0.14430118042970563,-0.006021520290256623,1.4138091846561873e-06
0.0125716031,0.14476233493270305,-0.006016133942705115,1.4589274833134776e-06
0.011199108300000002,0.14522882021440628,-0.006005197286013111,1.508753858184549e-06
0.009981217790000002,0.14569346574023706,-0.005988523640974519,1.5626714818209287e-06
0.00889724959,0.14615694313515892,-0.005965860578237831,1.6208024941365118e-06
0.00792663917,0.14662152149776034,-0.00593681918948351,1.6835002729275868e-06
0.007064253559999999,0.1470830137348081,-0.005901428438306637,1.7502242095894196e-06
0.0062955287300000004,0.14754220081289637,-0.005859473763900363,1.8210454825246904e-06
0.005612427370000001,0.14799692315971735,-0.005811036349144662,1.8955524193962551e-06
0.00500083202,0.14844995683290912,-0.005755695122472978,1.9741139063364607e-06
