freq,Zreal,Zimag,sigma_im
999.040405,0.11591616284371307,0.0009257330961341838,1.1282746812555107e-05
631.009521,0.11554295865088973,0.00047198032510316075,8.479149758561283e-06
397.582581,0.1153863860199596,-0.00012297483563310577,7.114795481857475e-06
251.044281,0.11549439215581421,-0.0007719287973654625,6.660805436764363e-06
158.629395,0.11585647051662436,-0.001393163884109109,6.578804906329343e-06
99.9040375,0.11642559466450655,-0.0019373275720338092,6.578360930208447e-06
63.00402070000001,0.11712882432209602,-0.0023899637018138234,6.572746292883249e-06
39.7582626,0.11791212319422706,-0.0027867939492533505,6.560677249614487e-06
25.1044273,0.11875670218617802,-0.0031867195709081083,6.552019869950941e-06
15.8361454,0.11968999425297223,-0.003648293097253186,6.548736912989945e-06
9.9904108,0.12076954804602308,-0.00420007675399758,6.548748309547694e-06
6.30040264,0.12206886469173625,-0.004825313479484701,6.550512185544834e-06
3.98190546,0.12363298542508598,-0.005451913818360575,6.553318450816508e-06
2.51044273,0.1254816888722659,-0.005980614436771489,6.556217444925634e-06
1.58083737,0.12754766988227925,-0.006298367172189238,6.558366862615082e-06
0.998529792,0.12968113299648684,-0.00633204185542202,6.559720919800293e-06
0.63065052,0.13173429298463138,-0.006086586863112118,6.559970854687011e-06
0.39697656,0.13357389573107775,-0.005646129221128197,6.558085078863334e-06
0.250400603,0.13509861246895316,-0.0051728474601923265,6.5550395303427925e-06
0.158038959,0.13633719296388933,-0.00484798325842058,6.555352436139674e-06
0.0997458994,0.13741522966386266,-0.004822455589024689,6.56172900788932e-06
0.0630518198,0.13852507738870098,-0.0051651040131479925,6.56759527900894e-06
0.039762307,0.1398913738281034,-0.005838577408768472,6.573080299570493e-06
0.0250390954,0.14168220841331186,-0.006690888730288875,6.661414020008689e-06
0.0158327222,0.1439286135596736,-0.007483203361872193,7.117780340190624e-06
0.009981217790000002,0.1465797588529554,-0.007994895725938134,8.479778864338101e-06
0.00629552873,0.14941365937205908,-0.00806010471862684,1.1290594580807507e-05
