Freq,Zreal,Zimag,Zmod,Zphz,sigma_re,sigma_im
1000000.0,1.0033190823991747,-0.0024171736291349155,1.003321994094954,-0.13803542839414865,0.0049999989392113505,0.0049999989392113505
794328.2347242822,1.0017924459887053,0.004097807936016588,1.0018008269461118,0.23436570265307227,0.0049999989392113505,0.0049999989392113505
630957.344480193,0.985315268981124,-0.0018475668403161113,0.9853170011679359,-0.10743531698493332,0.0049999989392113505,0.0049999989392113505
501187.2336272725,0.9965388737613111,-0.003742482454527297,0.9965459011467483,-0.2151721795576877,0.0049999989392113505,0.0049999989392113505
398107.1705534969,0.998755351728901,0.0006202525660619811,0.99875554432522,0.03558213694408122,0.0049999989392113505,0.0049999989392113505
316227.7660168379,0.9941159512482215,-0.0006728298625294758,0.9941161789379449,-0.038778480034038935,0.0049999989392113505,0.0049999989392113505
251188.6431509582,1.008521642012779,0.004254261215623146,1.008530614878221,0.24169016972848179,0.0049999989392113505,0.0049999989392113505
199526.2314968879,0.9963716213042902,0.003173782380826527,0.9963766760794538,0.18250592109278202,0.0049999989392113505,0.0049999989392113505
158489.3192461114,0.9940745475971862,0.003177287580015677,0.9940796252498673,0.1831296748938753,0.0049999989392113505,0.0049999989392113505
125892.54117941661,1.0013827478705215,-0.016109507292514116,1.001512318425452,-0.9216527521535204,0.0049999989392113505,0.0049999989392113505
100000.0,1.0077019703307222,0.0002990664048220957,1.0077020147092761,0.01700427585921051,0.0049999989392113505,0.0049999989392113505
79432.82347242821,0.9994155836851634,0.005085098314918625,0.9994285202742756,0.2915225281718389,0.0049999989392113505,0.0049999989392113505
63095.7344480193,0.9970082608578668,-0.004075058314561568,0.9970165887883186,-0.23418295683991455,0.0049999989392113505,0.0049999989392113505
50118.72336272725,1.0028188517193684,-0.007469953172826599,1.0028466730084697,-0.42678582818379124,0.0049999989392113505,0.0049999989392113505
39810.71705534969,1.0024276695119092,-0.0033524599955807345,1.00243327538101,-0.19161591250874663,0.0049999989392113505,0.0049999989392113505
31622.776601683792,1.0014745978326691,-0.002815350171033398,1.001478555087772,-0.16106974462599083,0.0049999989392113505,0.0049999989392113505
25118.864315095823,0.9989655577041894,-0.011269154304774114,0.9990291183534076,-0.6463161703361258,0.0049999989392113505,0.0049999989392113505
19952.62314968879,0.9963084455379142,-0.004334171009163879,0.9963178728139487,-0.24924825352796137,0.0049999989392113505,0.0049999989392113505
15848.93192461114,0.9886628321487121,-0.013554751793554691,0.9887557468700232,-0.785486608280626,0.0049999989392113505,0.0049999989392113505
12589.254117941662,0.9986542994356656,-0.015304592206741444,0.9987715656364846,-0.8780014279729997,0.0049999989392113505,0.0049999989392113505
10000.0,1.0011536368923752,-0.016562318268322156,1.001290624668608,-0.9477709971733033,0.0049999989392113505,0.0049999989392113505
7943.282347242814,0.999606173205512,-0.023949177316098275,0.9998930265806868,-1.3724648348459418,0.0049999989392113505,0.0049999989392113505
6309.57344480193,0.9974270182355519,-0.03142285701244095,0.9979218670061741,-1.8044446151869162,0.0049999989392113505,0.0049999989392113505
5011.87233627272,0.9982228902307989,-0.02847285466258692,0.9986288810330725,-1.6338356993873195,0.0049999989392113505,0.0049999989392113505
3981.071705534969,0.9940893046896491,-0.034012186498134304,0.994670988080347,-1.9595773152327367,0.0049999989392113505,0.0049999989392113505
3162.2776601683795,1.001470271151726,-0.053885898523726675,1.0029189369337987,-3.0799318410994343,0.0049999989392113505,0.0049999989392113505
2511.88643150958,1.0020629725313237,-0.06662309331177169,1.0042752797319774,-3.8037653486220044,0.0049999989392113505,0.0049999989392113505
1995.2623149688789,1.0085960937837426,-0.08763882521389431,1.0123964856125764,-4.966065619415209,0.0049999989392113505,0.0049999989392113505
1584.8931924611124,1.0104802885481565,-0.10884928217610107,1.0163260204159972,-6.148213482245687,0.0049999989392113505,0.0049999989392113505
1258.9254117941662,1.021873185616344,-0.13772451527674742,1.0311124330498156,-7.67587231042841,0.0049999989392113505,0.0049999989392113505
1000.0,1.0220731443886557,-0.17531141632783145,1.0369993274710376,-9.73296312370865,0.0049999989392113505,0.0049999989392113505
794.3282347242813,1.0410286914641036,-0.2090866186684983,1.0618182285860842,-11.35654179421967,0.0049999989392113505,0.0049999989392113505
630.957344480193,1.0642348610599366,-0.2576637967696107,1.0949824070098084,-13.61008461976651,0.0049999989392113505,0.0049999989392113505
501.18723362727195,1.099518130471095,-0.32205351292065854,1.145713133563192,-16.325531057709696,0.0049999989392113505,0.0049999989392113505
398.1071705534969,1.1288871722008167,-0.37679928503808285,1.1901108976749883,-18.45794780046831,0.0049999989392113505,0.0049999989392113505
316.22776601683796,1.2057052497677623,-0.45423542163786595,1.2884312040571169,-20.64331656222777,0.0049999989392113505,0.0049999989392113505
251.18864315095797,1.2934973182199965,-0.521718853083754,1.3947493946603278,-21.966178044655067,0.0049999989392113505,0.0049999989392113505
199.52623149688787,1.3985223137148282,-0.5691507875387773,1.5098997585648812,-22.144643323312774,0.0049999989392113505,0.0049999989392113505
158.48931924611125,1.5124811834811869,-0.6077591127248247,1.630021616263023,-21.891702261371474,0.0049999989392113505,0.0049999989392113505
125.89254117941663,1.6300765769662393,-0.6137009575603096,1.7417745296347666,-20.630651736164896,0.0049999989392113505,0.0049999989392113505
100.0,1.745423069221623,-0.6029442698891359,1.8466303049509325,-19.05711612695731,0.0049999989392113505,0.0049999989392113505
79.43282347242805,1.838212178863797,-0.5952254679451171,1.9321794358220645,-17.942302016709267,0.0049999989392113505,0.0049999989392113505
63.0957344480193,1.923504986167311,-0.5813808335119743,2.009446467409765,-16.81748159018319,0.0049999989392113505,0.0049999989392113505
50.11872336272725,2.012563583027417,-0.5782995488083904,2.0940015625304924,-16.031726096007983,0.0049999989392113505,0.0049999989392113505
39.81071705534969,2.0846490404095497,-0.5837015055040231,2.164825413101047,-15.642240702090659,0.0049999989392113505,0.0049999989392113505
31.622776601683793,2.1629773615229912,-0.5882166538342332,2.241532934915056,-15.21353493385172,0.0049999989392113505,0.0049999989392113505
25.11886431509577,2.257816589103461,-0.608757360939663,2.338444199575652,-15.08939493595599,0.0049999989392113505,0.0049999989392113505
19.952623149688787,2.368253070288043,-0.6139968454330036,2.4465515999321212,-14.534575426002394,0.0049999989392113505,0.0049999989392113505
15.84893192461111,2.4993506936651992,-0.5978992755669252,2.5698710928076074,-13.45356888722949,0.0049999989392113505,0.0049999989392113505
12.589254117941662,2.609540477729301,-0.5729312699079103,2.671694545591984,-12.382962860423794,0.0049999989392113505,0.0049999989392113505
10.0,2.7140771110502615,-0.5082056169687453,2.761247456104852,-10.605708632213885,0.0049999989392113505,0.0049999989392113505
7.943282347242805,2.7982224218770346,-0.44601598372325885,2.8335453022727557,-9.056341660989672,0.0049999989392113505,0.0049999989392113505
6.30957344480193,2.8691976951410885,-0.39220632243410236,2.895880041224121,-7.7838306697150825,0.0049999989392113505,0.0049999989392113505
5.011872336272715,2.917023917388403,-0.31891114199208087,2.9344050250609026,-6.239229026349699,0.0049999989392113505,0.0049999989392113505
3.981071705534969,2.9439435517249577,-0.26178055886514867,2.9555596249682914,-5.081474861666188,0.0049999989392113505,0.0049999989392113505
3.1622776601683795,2.9587014403042473,-0.20500192001593495,2.9657950030419578,-3.9635639759577743,0.0049999989392113505,0.0049999989392113505
2.511886431509577,2.976406890327243,-0.1735219744360611,2.9814606910706836,-3.3365182887421363,0.0049999989392113505,0.0049999989392113505
1.9952623149688788,2.9785955992192625,-0.1333491375003851,2.9815790675681324,-2.563370624229227,0.0049999989392113505,0.0049999989392113505
1.584893192461111,2.9935566288910174,-0.10392013441460227,2.99535985896755,-1.9882019184978714,0.0049999989392113505,0.0049999989392113505
1.2589254117941662,2.9950012152987147,-0.08928473423812053,2.996331764576271,-1.707553168036905,0.0049999989392113505,0.0049999989392113505
1.0,2.9992521007703172,-0.06839444012844925,3.000031827067114,-1.3063369063147068,0.0049999989392113505,0.0049999989392113505
0.7943282347242805,2.9896488614389938,-0.05540687380675081,2.9901622424825893,-1.0617356054329095,0.0049999989392113505,0.0049999989392113505
0.630957344480193,2.9875712267496093,-0.0483849033585234,2.987963007430845,-0.9278468038506245,0.0049999989392113505,0.0049999989392113505
0.5011872336272715,3.003151553088802,-0.030643285632881156,3.0033078866100396,-0.5846091936770261,0.0049999989392113505,0.0049999989392113505
0.3981071705534969,2.9968519418733326,-0.023513324046945533,2.9969441833170167,-0.44953391512165874,0.0049999989392113505,0.0049999989392113505
0.31622776601683794,3.0060394503899173,-0.012311811112650738,3.006064662976063,-0.2346645419086026,0.0049999989392113505,0.0049999989392113505
0.2511886431509577,2.9993780836639776,-0.018211355081279714,2.999433370191392,-0.34787910501975117,0.0049999989392113505,0.0049999989392113505
0.1995262314968879,2.9928915759408166,-0.01485665701831093,2.992928449795495,-0.2844128267358833,0.0049999989392113505,0.0049999989392113505
0.1584893192461111,2.996165522164955,-0.02276570294475676,2.996252011003174,-0.43534096675734013,0.0049999989392113505,0.0049999989392113505
0.12589254117941662,2.9959767526713943,-0.0055735127894521045,2.995981936960276,-0.1065890752392188,0.0049999989392113505,0.0049999989392113505
0.1,2.998615764247365,-0.01160548966824056,2.9986382224241805,-0.22174973700819914,0.0049999989392113505,0.0049999989392113505
0.07943282347242805,3.01164229248486,0.004125302135233031,3.01164511787182,0.07848284450160965,0.0049999989392113505,0.0049999989392113505
0.0630957344480193,2.9989325666402133,0.0033611249816406083,2.9989344501699935,0.06421558036068375,0.0049999989392113505,0.0049999989392113505
0.050118723362727144,2.9980136702215328,-0.0073889556585183805,2.9980227756808167,-0.14121187012863942,0.0049999989392113505,0.0049999989392113505
0.03981071705534969,3.0024147669296184,-0.001099498493279449,3.002414968250387,-0.02098198460909363,0.0049999989392113505,0.0049999989392113505
0.03162277660168379,3.002242928339303,-0.0016495904654407279,3.002243381525232,-0.031481317248300014,0.0049999989392113505,0.0049999989392113505
0.02511886431509577,3.002359294753222,0.00016163653703996214,3.0023592991041954,0.003084604629011829,0.0049999989392113505,0.0049999989392113505
0.01995262314968879,2.9998841239853697,0.006369526391758831,2.9998908860500118,0.12165350934986015,0.0049999989392113505,0.0049999989392113505
0.01584893192461111,2.9977546406659847,-0.0013131127794958045,2.9977549282587495,-0.02509738937847254,0.0049999989392113505,0.0049999989392113505
0.012589254117941661,3.0026241424419737,0.006653849216540029,3.0026315149356564,0.12696789058237717,0.0049999989392113505,0.0049999989392113505
0.01,2.999769919554612,-0.010048064616684312,2.99978674806514,-0.19191789941288845,0.0049999989392113505,0.0049999989392113505
