Freq,Zreal,Zimag,Zmod,Zphz,sigma_re,sigma_im
1000000.0,1.0092271857424344,0.006107126702622215,1.009245663571638,0.34670916420265796,0.009549231879555234,0.009549231879555234
794328.2347242822,0.9905015125329152,-0.0028912200288417613,0.9905057321809136,-0.16724278835507816,0.00954966481505181,0.00954966481505181
630957.344480193,1.0035634230351647,0.01382294098248465,1.0036586161397023,0.7891340802716519,0.009550209895091763,0.009550209895091763
501187.2336272725,0.9957144142479676,0.009048767689905625,0.9957555297048964,0.5206733167792117,0.009550896183957469,0.009550896183957469
398107.1705534969,1.0095435341123193,0.013933385921430366,1.0096396815256556,0.7907271916097661,0.009551760287316148,0.009551760287316148
316227.7660168379,1.0010443776845368,0.008692339205335697,1.0010821159398873,0.4975022537476831,0.009552848314166439,0.009552848314166439
251188.6431509582,1.005785539188426,0.008296267042240114,1.0058197546714764,0.47259608401284386,0.009554218352205204,0.009554218352205204
199526.2314968879,1.0062616734384988,-0.013700217112397514,1.0063549331027175,-0.780031817586142,0.009555943592712248,0.009555943592712248
158489.3192461114,1.0112276807927338,-0.024082276860030366,1.0115143985432014,-1.3642348670938025,0.009558116278126685,0.009558116278126685
125892.54117941661,1.0123734538652827,0.00043053080954182847,1.0123735454109315,0.02436610398647031,0.009560852693227696,0.009560852693227696
100000.0,1.0048690982921,-0.004595237805812809,1.0048796051830637,-0.26201014371472203,0.009564299482605707,0.009564299482605707
79432.82347242821,0.9982043549316275,-0.015210143466711514,0.998320230521622,-0.8729771459710486,0.009568641657507147,0.009568641657507147
63095.7344480193,1.0053374696579258,0.004904634659159759,1.0053494334505495,0.2795207033330356,0.009574112760471258,0.009574112760471258
50118.72336272725,1.0029162332955546,-0.005993037498642522,1.0029341391667768,-0.3423732279375178,0.009581007795226476,0.009581007795226476
39810.71705534969,0.9948598500438184,0.005332901572260015,0.9948741433308981,0.3071285126775617,0.009589699714387173,0.009589699714387173
31622.776601683792,1.0055342873279578,0.003931061575463854,1.0055419713951546,0.22399245124722558,0.009600660505993938,0.009600660505993938
25118.864315095823,1.0097187570560273,-0.02594134140083905,1.0100519400231076,-1.4716993951094546,0.009614488256611839,0.009614488256611839
19952.62314968879,1.0113490060209864,-0.005234518247216522,1.0113625522832639,-0.29654760472496605,0.009631942028776297,0.009631942028776297
15848.93192461114,0.9865873511929771,-0.012314930711895293,0.9866642078500738,-0.715148954008995,0.009653987024090958,0.009653987024090958
12589.254117941662,0.9839139125353324,-0.014629654256873468,0.9840226694869695,-0.8518587556248641,0.009681853380566333,0.009681853380566333
10000.0,0.9929405283695224,-0.023190711168596632,0.993211307810806,-1.3379334560901073,0.009717113170593357,0.009717113170593357
7943.282347242814,1.0080328436689114,-0.02330893442307889,1.008302296109243,-1.3246251140684586,0.009761781851974136,0.009761781851974136
6309.57344480193,0.9968562262997109,-0.03097299507300877,0.9973372861456113,-1.779645965780797,0.009818452733964395,0.009818452733964395
5011.87233627272,1.0116118011621251,-0.035393072925187584,1.0122307572196998,-2.00377939726961,0.009890476109079482,0.009890476109079482
3981.071705534969,1.0002950260916101,-0.05875877198653549,1.0020193274128901,-3.3617735812878977,0.009982198637726706,0.009982198637726706
3162.2776601683795,0.9928634969278136,-0.03684996847469641,0.9935471019072587,-2.1255479805817403,0.01009928310504127,0.01009928310504127
2511.88643150958,1.000363402816572,-0.07495569289554216,1.0031676298566465,-4.285077504299036,0.01024913267055139,0.01024913267055139
1995.2623149688789,1.0215246698273257,-0.09238344872157589,1.0256935958967077,-5.167590768652584,0.010441443953635995,0.010441443953635995
1584.8931924611124,1.0206765800578448,-0.10188674420243239,1.0257492820971166,-5.700537897751976,0.010688901752166814,0.010688901752166814
1258.9254117941662,1.014699699528031,-0.13547936695809373,1.023704126734694,-7.604966386087006,0.01100798707397788,0.01100798707397788
1000.0,1.028383212652723,-0.1780580380648642,1.04368419408624,-9.823013386516875,0.011419763375789215,0.011419763375789215
794.3282347242813,1.0464471553480743,-0.20536754444941943,1.0664086820957814,-11.103309662753121,0.011950269412694661,0.011950269412694661
630.957344480193,1.0478971925803606,-0.2690317141246229,1.081881042177297,-14.398843023749759,0.012629694228458672,0.012629694228458672
501.18723362727195,1.094042036790936,-0.3228451109948649,1.1406826657571976,-16.441007471436773,0.013488808296192116,0.013488808296192116
398.1071705534969,1.1124617908927048,-0.3933984799689069,1.1799718641722143,-19.47505890692177,0.014550474283208614,0.014550474283208614
316.22776601683796,1.2282223402803045,-0.4329541795652091,1.3022977534982587,-19.417794995217363,0.015814670232113144,0.015814670232113144
251.18864315095797,1.3025363548622062,-0.5057749972329562,1.397286407134815,-21.221196267820442,0.017239734159129258,0.017239734159129258
199.52623149688787,1.4019987187810592,-0.5860283230556341,1.5195491446107066,-22.68467911032492,0.01873162301985144,0.01873162301985144
158.48931924611125,1.463250837502308,-0.5742763107695212,1.571908487973221,-21.428322924113814,0.020159597192856663,0.020159597192856663
125.89254117941663,1.6188368139303562,-0.5936140054674417,1.7242419254916888,-20.13756718409323,0.02140422440261016,0.02140422440261016
100.0,1.7402987836795758,-0.6116478229586306,1.8446552295230247,-19.36460575558074,0.022411576646021912,0.022411576646021912
79.43282347242805,1.8216952145409027,-0.5674903406783403,1.908040550262086,-17.30273699677309,0.023213669815348833,0.023213669815348833
63.0957344480193,1.9409538741202446,-0.6060760596360019,2.0333789935784936,-17.341329508629553,0.02390472446565811,0.02390472446565811
50.11872336272725,1.9476471614165258,-0.5745200270654898,2.030616341624676,-16.435088056051764,0.024597825545104136,0.024597825545104136
39.81071705534969,2.0775575484343554,-0.6034053340483005,2.1634101239049683,-16.195398506013177,0.025387091407094872,0.025387091407094872
31.622776601683793,2.1412293077826963,-0.5969481777199819,2.2228832797496976,-15.577810902091077,0.02632116721815385,0.02632116721815385
25.11886431509577,2.2745296302983316,-0.6176318273865902,2.356895015333938,-15.191925368763462,0.027384789989085594,0.027384789989085594
19.952623149688787,2.3506673863023595,-0.5836297359266024,2.4220365046141072,-13.943592849919888,0.028492744629074584,0.028492744629074584
15.84893192461111,2.471505143924857,-0.5779623180888371,2.538184019644291,-13.162111890605065,0.02951032363001895,0.02951032363001895
12.589254117941662,2.5987090379161857,-0.59254722769841,2.6654082015331797,-12.844754018215232,0.03030472066082531,0.03030472066082531
10.0,2.676900118778563,-0.5351599868255591,2.729870044052613,-11.305403919844826,0.030801254916689357,0.030801254916689357
7.943282347242805,2.8322519118273415,-0.4438499210760066,2.8668194300459193,-8.906537787712622,0.031005177412191748,0.031005177412191748
6.30957344480193,2.8332666776394198,-0.39547320538657477,2.8607340181849565,-7.9461232917028415,0.03097982901401047,0.03097982901401047
5.011872336272715,2.974237429992,-0.29949094265287635,2.989278025660464,-5.750018717741258,0.030807540007154074,0.030807540007154074
3.981071705534969,2.948634439090424,-0.29260927893227817,2.963117487631459,-5.667222199669377,0.030560756215514656,0.030560756215514656
3.1622776601683795,2.917499922440929,-0.21653898323034804,2.9255247270705573,-4.244751800114986,0.030290907051483452,0.030290907051483452
2.511886431509577,2.9246851456928433,-0.16612630194870667,2.9293994520439717,-3.2509889454372285,0.030029144383794452,0.030029144383794452
1.9952623149688788,2.9467010679628847,-0.1266990460432446,2.94942364407046,-2.462025117685095,0.029791540471997217,0.029791540471997217
1.584893192461111,2.9524138083325377,-0.105391775517328,2.9542942849315694,-2.0444088814760133,0.02958447890067441,0.02958447890067441
1.2589254117941662,3.028959222753719,-0.09276571933254205,3.030379423733619,-1.7542076177076225,0.029408755337101956,0.029408755337101956
1.0,2.9953944765380345,-0.07252944464349298,2.996272449296769,-1.3870691277452498,0.029262278128799703,0.029262278128799703
0.7943282347242805,2.971289921609786,-0.07190930089940661,2.9721599462033885,-1.3863660062741718,0.02914169560696444,0.02914169560696444
0.630957344480193,3.040499080574105,-0.059139791682592674,3.041074180932165,-1.1143016833991368,0.029043309933560493,0.029043309933560493
0.5011872336272715,3.02888376979789,-0.03746093943991607,3.029115417564804,-0.7085924917082431,0.028963552528017654,0.028963552528017654
0.3981071705534969,3.0046734274532834,-0.0419022576865289,3.004965591291037,-0.7989776441240949,0.028899204066844,0.028899204066844
0.31622776601683794,2.9758496048189396,-0.054704183115687456,2.9763523679415704,-1.0531331377821427,0.028847472425984875,0.028847472425984875
0.2511886431509577,3.019881521437074,-0.04055210699233227,3.02015378365053,-0.7693430761830233,0.028805995804286548,0.028805995804286548
0.1995262314968879,3.0267044737580995,-0.036785201190997714,3.0269280008771196,-0.696312782472918,0.028772809632928324,0.028772809632928324
0.1584893192461111,3.0452249224652506,-0.061159787528358246,3.0458390220124905,-1.1505641629256658,0.028746298751671555,0.028746298751671555
0.12589254117941662,3.0466229648776846,0.034590673604802114,3.0468193259234337,0.6504954753022366,0.02872514633944695,0.02872514633944695
0.1,3.0285993382166896,0.00960122431512627,3.0286145570136385,0.18163769026903606,0.02870828537049804,0.02870828537049804
0.07943282347242805,3.0650663160420724,0.01358313142480834,3.065096413360439,0.25391000660179075,0.0286948551673454,0.0286948551673454
0.0630957344480193,3.019056723954857,0.00011955413791179138,3.019056726322019,0.0022689032199159458,0.02868416388249829,0.02868416388249829
0.050118723362727144,3.038802131666256,0.012905059164130907,3.038829533878367,0.2433198831097298,0.028675656838895402,0.028675656838895402
0.03981071705534969,2.9907967170333447,0.010539991304982593,2.9908152891869038,0.2019176075764015,0.028668890230016213,0.028668890230016213
0.03162277660168379,3.0518633281285323,-0.010321369536708562,3.051880781459996,-0.1937729822768011,0.028663509512777727,0.028663509512777727
0.02511886431509577,3.0234279206535115,-0.0436022828268022,3.023742308870735,-0.8262322362179041,0.028659231797687798,0.028659231797687798
0.01995262314968879,2.9879363953696614,0.010242030519861231,2.9879539491036025,0.1963973614043613,0.028655831581663283,0.028655831581663283
0.01584893192461111,3.057634419478191,-0.07048588828790409,3.058446746900372,-1.3205727723431535,0.02865312924040375,0.02865312924040375
0.012589254117941661,3.004993756461082,0.0160636471827344,3.0050366914783084,0.3062803103721047,0.028650981777949145,0.028650981777949145
0.01,3.013312943826737,0.007842234512576884,3.013323148631077,0.14911359472074837,0.02864927540997691,0.02864927540997691
