Freq,Zreal,Zimag,Zmod,Zphz
1000000.0,0.0014218690262863083,-0.0014218481308065942,0.002010811685611206,-44.99957899371409
794328.2347242822,0.0015953683295521245,-0.001595337406320162,0.002256169662712066,-44.99944470884282
630957.344480193,0.001790040193820805,-0.0017899944345128285,0.0025314667627841622,-44.99926765646355
501187.2336272725,0.0020084692542793113,-0.0020084015364788617,0.0028403565756988935,-44.999034087884475
398107.1705534969,0.0022535561060620978,-0.0022534558848463808,0.003186938742448394,-44.998725929132455
316227.7660168379,0.0025285561501309003,-0.0025284078111846796,0.0035758135108006545,-44.99831930865665
251188.6431509582,0.0028371233285866054,-0.0028369037471802565,0.004012143024915204,-44.99778268808572
199526.2314968879,0.0031833594251667935,-0.0031830343468673234,0.004501720213777768,-44.997074385402215
158489.3192461114,0.00357186973441638,-0.0035713884065486433,0.005051046282709137,-44.99613928899147
125892.54117941661,0.004007826079121729,-0.004007113280403435,0.005667417994331619,-44.994904470731356
100000.0,0.004497038425848433,-0.004495982593037595,0.006359026189634259,-44.99327314330441
79432.82347242821,0.00504603681589371,-0.00504447215316135,0.007135067403421991,-44.99111555517348
63095.7344480193,0.005662166158388605,-0.00565984492450692,0.008005870981640156,-44.98825324389403
50118.72336272725,0.006353697704582764,-0.00635024529099057,0.008983044571689946,-44.98442934424646
39810.71705534969,0.007129962361754557,-0.007124801015935867,0.010079640509299792,-44.97925442104791
31622.776601683792,0.008001511253868913,-0.007993727911671347,0.011310343419703241,-44.97211966519455
25118.864315095823,0.008980306538238858,-0.008968428235156258,0.012691674851251255,-44.96208220001878
19952.62314968879,0.010079939880819585,-0.010061571395814473,0.014242205129614204,-44.9477478943551
15848.93192461114,0.011315869076472225,-0.011287148651903547,0.01598276001340283,-44.927197410196385
12589.254117941662,0.012705659230550588,-0.01266049939037143,0.017936611198787544,-44.89799537443826
10000.0,0.014269217435225235,-0.014198318056189693,0.02012964981907182,-44.857303179930526
7943.282347242814,0.01602901917406938,-0.015918652432122524,0.022590550036185576,-44.80206622145983
6309.57344480193,0.018010336516666153,-0.017840910929117392,0.025350943261035843,-44.72923400061847
5011.87233627272,0.020241486655296792,-0.019985869641428414,0.02844561068672508,-44.63592986711543
3981.071705534969,0.02275411936294739,-0.022375678401170652,0.03191270800004087,-44.51955110015677
3162.2776601683795,0.025583562464306014,-0.025033837245256707,0.035794017315566154,-44.37776936636004
2511.88643150958,0.028769226917937107,-0.027985117011563258,0.04013521136865538,-44.20846005689938
1995.2623149688789,0.032355080486107864,-0.03125539274465262,0.04498611795748775,-44.0095783399954
1584.8931924611124,0.03639018640392565,-0.03487135823450487,0.050400965185516296,-43.779015092415705
1258.9254117941662,0.04092931120426461,-0.03886008887742178,0.056438595156299384,-43.51445006253948
1000.0,0.046033613886824545,-0.04324841745021303,0.06316264101056207,-43.213209721947074
794.3282347242813,0.051771452283814745,-0.04806207890766224,0.07064167821124905,-42.87212056969307
630.957344480193,0.05821938986660243,-0.053324547684950964,0.07894938088575526,-42.48732212360246
501.18723362727195,0.06546355066956436,-0.059055389568131944,0.08816470667625706,-42.0539665666938
398.1071705534969,0.07360148538313524,-0.06526772332269277,0.09837202020051965,-41.56570794388333
316.22776601683796,0.08274452654876217,-0.07196403971602955,0.10966074815552321,-41.01392752546347
251.18864315095797,0.0930200561103974,-0.0791293295669863,0.12212363258805485,-40.386800664676294
199.52623149688787,0.10457216852850484,-0.08672055214732372,0.13585209823735042,-39.6685451104673
158.48931924611125,0.11755821829553685,-0.09465239338239971,0.150927168733259,-38.83939600107286
125.89254117941663,0.13213821069040277,-0.10278080533427765,0.16740490037518002,-37.87677792656716
100.0,0.1484546219212702,-0.11088814313071979,0.1852969375266798,-36.757883356066344
79.43282347242805,0.16660222277943806,-0.11867549144766731,0.20454870546008075,-35.46334952512756
63.0957344480193,0.18659082563136484,-0.12576862325324775,0.22501973870043437,-33.98132285236068
50.11872336272725,0.20830792701348366,-0.13174274424639298,0.24647178970061734,-32.310991662176484
39.81071705534969,0.23149157197878756,-0.13616727861261366,0.26857005726993344,-30.464766305052397
31.622776601683793,0.2557250487896911,-0.13866538775610265,0.29090099748890547,-28.46849992407343
25.11886431509577,0.2804608234408099,-0.13897623586986452,0.3130058587657001,-26.359710720651083
19.952623149688787,0.3050739888991489,-0.1370035077773477,0.33442502873758684,-24.184032455806065
15.84893192461111,0.32893459018023297,-0.13283560943401584,0.3547439411050515,-21.990626766315437
12.589254117941662,0.35148147426122456,-0.12673132059304743,0.37363090660182496,-19.827443079996677
10.0,0.37227965586972533,-0.11907572443295168,0.39085952761025716,-17.737165158118085
7.943282347242805,0.39104988300841675,-0.1103200745779899,0.40631333950018145,-15.754424631663847
6.30957344480193,0.40766895260714897,-0.100921697965709,0.4199751945533113,-13.904480399045365
5.011872336272715,0.4221475832916469,-0.09129635542899545,0.4319069420530254,-12.20321784766295
3.981071705534969,0.4345963705082273,-0.08178878449115827,0.4422255199866529,-10.658108481517413
3.1622776601683795,0.4451896364588156,-0.07266095995244114,0.4510802894292131,-9.269710701139484
2.511886431509577,0.4541338009576632,-0.06409389597874318,0.458634425958179,-8.03334664814345
1.9952623149688788,0.461643323958045,-0.056197740981199736,0.465051335495795,-6.940700200029496
1.584893192461111,0.4679245761661742,-0.04902552212335206,0.4704858242282769,-5.981187214462352
1.2589254117941662,0.4731664505558929,-0.042587349557263295,0.4750791221196473,-5.1430491161900145
1.0,0.47753601038515264,-0.03686317623712901,0.4789567151391222,-4.414167657194961
0.7943282347242805,0.48117750428299266,-0.031813317158224004,0.48222803503800893,-3.782636963367017
0.630957344480193,0.48421340179981476,-0.027386583897132864,0.4849872611317781,-3.2371382036972194
0.5011872336272715,0.4867464787388825,-0.023526256431114483,0.4873147025345777,-2.767163308772551
0.3981071705534969,0.48886231750467135,-0.020174259875141837,0.4892784138274934,-2.363128424577733
0.31622776601683794,0.49063184999360093,-0.01727393765948648,0.4909358421936691,-2.016410233567236
0.2511886431509577,0.4921136458166261,-0.014771773110655615,0.4923352980233739,-1.71933089814915
0.1995262314968879,0.49335612571003656,-0.012618370452991202,0.49351746681197245,-1.4651116036832976
0.1584893192461111,0.49439922018614074,-0.010768890871692385,0.494516489038809,-1.247806266733838
0.12589254117941662,0.49527593370252865,-0.00918315325682842,0.4953610610541062,-1.0622273478608728
0.1,0.49601357798194023,-0.007825504749774144,0.49607530483489604,-0.9038688041205157
0.07943282347242805,0.49663479525177984,-0.006664553116075952,0.4966795104723108,-0.7688302363605789
0.0630957344480193,0.4971583919752513,-0.005672827955296585,0.4971907558356531,-0.6537453654004595
0.050118723362727144,0.4976000216281207,-0.00482641164466635,0.4976234276776667,-0.5557161053340305
0.03981071705534969,0.4979727409055497,-0.004104562071418147,0.497989656634336,-0.47225227099625355
0.03162277660168379,0.49828745986495315,-0.003489349876687877,0.49829967712334433,-0.4012177095163997
0.02511886431509577,0.4985533119017881,-0.0029653213735292396,0.49856213047030545,-0.3407828051097859
0.01995262314968879,0.49877795720311874,-0.0025191846346448933,0.49878431900265224,-0.2893821147628751
0.01584893192461111,0.4989678287551702,-0.002139528861410849,0.498972415787083,-0.24567760796117274
0.012589254117941661,0.49912833627402625,-0.0018165743069934804,0.4991316419682189,-0.20852669313342578
0.01,0.49926403535092945,-0.001541945960801745,0.49926641644741154,-0.17695389341019846
