Freq,Zreal,Zimag,Zmod,Zphz,sigma_re,sigma_im
1000000.0,1.0072238087951502,0.0003975168774704267,1.0072238872383226,0.022612688444069596,0.006430616375674,0.006430616375674
794328.2347242822,0.9987373946573038,4.371365564480789e-05,0.9987373956139536,0.002507774303169803,0.006435018474889613,0.006435018474889613
630957.344480193,1.0011871744911098,0.0010502256276427213,1.0011877253239578,0.06010212222322585,0.006439957711445448,0.006439957711445448
501187.2336272725,1.0125897164097575,-0.0003764301487004648,1.0125897863786943,-0.021299700618079332,0.006445499626008145,0.006445499626008145
398107.1705534969,1.0099877888736903,-0.012640270875578211,1.0100668839843103,-0.7170347719576461,0.006451717756414121,0.006451717756414121
316227.7660168379,1.004886148758159,-0.006565542064189181,1.0049075969006314,-0.3743434003098542,0.006458694613471038,0.006458694613471038
251188.6431509582,1.0044969954573795,-0.013285484881799908,1.0045848485774844,-0.7577502328051434,0.006466522775824425,0.006466522775824425
199526.2314968879,1.0111160884214012,-0.00930596206559542,1.0111589119394444,-0.5273156094088658,0.006475306118417072,0.006475306118417072
158489.3192461114,1.013716611803685,0.00302420989687452,1.0137211228401248,0.1709293774900368,0.006485161190841125,0.006485161190841125
125892.54117941661,1.0010029262367783,-0.008008807011924508,1.0010349640868432,-0.4584013072355988,0.00649621876387097,0.00649621876387097
100000.0,1.017340076421677,0.0015409161180125804,1.0173412433967997,0.08678309709427141,0.006508625564695214,0.006508625564695214
79432.82347242821,1.0089977207598697,-0.007219475851525979,1.0090235484517607,-0.4099498238493623,0.00652254622386761,0.00652254622386761
63095.7344480193,1.0091745527134366,-0.008433532952673625,1.0092097910357531,-0.47880180408010703,0.006538165459801583,0.006538165459801583
50118.72336272725,1.0250302056760539,-0.019458837652843418,1.0252148891384152,-1.0875536781746062,0.006555690529777322,0.006555690529777322
39810.71705534969,1.0045040963682197,-0.013688395815093322,1.0045973580497434,-0.7807223191133036,0.006575353979952712,0.006575353979952712
31622.776601683792,1.0151222341534174,-0.012733954398522011,1.0152021000112486,-0.7186952989082813,0.006597416730812185,0.006597416730812185
25118.864315095823,1.0223287453460295,-0.00734060899759857,1.0223550988287986,-0.4113928017612416,0.006622171538894182,0.006622171538894182
19952.62314968879,1.0046248582821953,-0.02245745241790211,1.0048758346420832,-1.280580477102234,0.006649946880552112,0.006649946880552112
15848.93192461114,1.0327421406905055,-0.01676393909416719,1.032878191662483,-0.9299694200619619,0.006681111308963664,0.006681111308963664
12589.254117941662,1.0171061530407945,-0.022866839008775244,1.017363169610389,-1.2879213107421925,0.006716078341633668,0.006716078341633668
10000.0,1.0158139765586893,-0.027860904301332028,1.0161959776344647,-1.5710673136256614,0.006755311942231798,0.006755311942231798
7943.282347242814,1.0270671278749046,-0.028156975292464446,1.0274530161612385,-1.570366550239986,0.006799332667704468,0.006799332667704468
6309.57344480193,1.0352156480376922,-0.031495596626651086,1.0356946512119136,-1.7426400819957888,0.006848724559026318,0.006848724559026318
5011.87233627272,1.0419652118236598,-0.03662456869300477,1.0426086809933404,-2.0130899116079104,0.006904142861331658,0.006904142861331658
3981.071705534969,1.0371938485169854,-0.044349920790544596,1.0381416063695756,-2.4484490620598436,0.0069663226657394346,0.0069663226657394346
3162.2776601683795,1.0514046770289522,-0.0453227364818206,1.0523810836957095,-2.4683120640638445,0.007036088569535174,0.007036088569535174
2511.88643150958,1.0579822205272056,-0.049683223836367224,1.0591481490719092,-2.688655070768463,0.007114365450876255,0.007114365450876255
1995.2623149688789,1.0627536736618874,-0.061319229819905355,1.0645212157714583,-3.3022159041386305,0.007202190444071785,0.007202190444071785
1584.8931924611124,1.0799806630629636,-0.06628834666278456,1.0820131133647153,-3.512362570572951,0.007300726173160439,0.007300726173160439
1258.9254117941662,1.0815163996265922,-0.07187813717429227,1.0839022969183676,-3.8023153313825238,0.007411275239579543,0.007411275239579543
1000.0,1.1073186241907902,-0.07096081235012133,1.109590001923762,-3.6666981341196934,0.007535295836758206,0.007535295836758206
794.3282347242813,1.097383555719107,-0.09983110495002229,1.101915113735288,-5.198000046198941,0.007674418131786722,0.007674418131786722
630.957344480193,1.0875987625258894,-0.10299919284451284,1.0924650575530859,-5.409964470287499,0.007830460625865695,0.007830460625865695
501.18723362727195,1.1236463593988437,-0.11661351528804301,1.1296813059168989,-5.925021098662044,0.008005444929834345,0.008005444929834345
398.1071705534969,1.1283567024516201,-0.15711981752046073,1.1392433826997446,-7.927268342655052,0.008201606005366784,0.008201606005366784
316.22776601683796,1.1481086316172395,-0.1570617512932817,1.158801891486773,-7.789733983493101,0.008421392473885993,0.008421392473885993
251.18864315095797,1.1797181946567987,-0.1774543490670582,1.1929899684436203,-8.55435291290266,0.008667447323562614,0.008667447323562614
199.52623149688787,1.2072848982433422,-0.18529423082513533,1.2214216215146658,-8.725673837300654,0.008942552020996574,0.008942552020996574
158.48931924611125,1.2381738878494157,-0.21301692945903553,1.2563641147327844,-9.761674367943675,0.009249504809358692,0.009249504809358692
125.89254117941663,1.2866210575122898,-0.2406632142278329,1.3089356471257534,-10.594777871939307,0.00959088446152829,0.00959088446152829
100.0,1.3012285715348457,-0.2730169053795627,1.329561591654049,-11.84961123452764,0.009968622042762706,0.009968622042762706
79.43282347242805,1.3426517184190383,-0.27151628218452933,1.369830182345573,-11.432399852363952,0.010383267643091462,0.010383267643091462
63.0957344480193,1.3967245765802825,-0.30796008795255914,1.4302723372124335,-12.434049320347158,0.010832813416274595,0.010832813416274595
50.11872336272725,1.4420980453792565,-0.3366659166442652,1.4808749818659896,-13.140667747362254,0.011310971850087663,0.011310971850087663
39.81071705534969,1.50763813782069,-0.33785740533426656,1.54503086731322,-12.631136938584799,0.01180502787702923,0.01180502787702923
31.622776601683793,1.5826098427717612,-0.3381214768183982,1.6183263105826073,-12.059820002496524,0.012293955122395358,0.012293955122395358
25.11886431509577,1.6358438284379389,-0.35156837121999557,1.6731961482984514,-12.129258429680014,0.01274841681026091,0.01274841681026091
19.952623149688787,1.7115471393023687,-0.33473574926687955,1.7439729447131287,-11.065941139123765,0.013134853102310948,0.013134853102310948
15.84893192461111,1.7782902427886567,-0.3190516980118041,1.806684857301227,-10.171496609363317,0.013424410909619345,0.013424410909619345
12.589254117941662,1.8525350353421137,-0.26304324727367967,1.8711167272798053,-8.081460998919583,0.013603269608011209,0.013603269608011209
10.0,1.910794327957159,-0.25861345708155203,1.9282157254666614,-7.7077717447148455,0.013677608168072312,0.013677608168072312
7.943282347242805,1.9000600573180353,-0.2294050936627932,1.913858646403608,-6.884324289258367,0.013669477175104708,0.013669477175104708
6.30957344480193,1.9438597846846322,-0.19827338722981147,1.9539455464771192,-5.824018449327752,0.01360708640061006,0.01360708640061006
5.011872336272715,1.9715435238221362,-0.1596609555867711,1.9779978480938463,-4.629864470140586,0.01351611346030022,0.01351611346030022
3.981071705534969,1.9761783553456072,-0.10195581852316765,1.9788066810750355,-2.953409188672437,0.013415497651266475,0.013415497651266475
3.1622776601683795,2.0002954708670604,-0.0932694987733551,2.0024687688382827,-2.669646008428757,0.013317117996463377,0.013317117996463377
2.511886431509577,2.0006977851585788,-0.07399869755566726,2.002065791820633,-2.118201622234943,0.013227318857065611,0.013227318857065611
1.9952623149688788,1.9679889220681466,-0.08713270248284696,1.9699168777450762,-2.5351147903226314,0.01314875649857755,0.01314875649857755
1.584893192461111,1.9922078653529471,-0.05445083319621561,1.992951848893974,-1.5656129413910516,0.013081901022918029,0.013081901022918029
1.2589254117941662,1.9910837613035226,-0.015545953893305021,1.9911444501113011,-0.4473440368186417,0.013026064272799079,0.013026064272799079
1.0,2.011204639470516,-0.05849341913238913,2.012055064333361,-1.6659078379360743,0.012980034759906556,0.012980034759906556
0.7943282347242805,2.0189758602955106,-0.032671852229197586,2.0192401972980045,-0.927101656314602,0.012942440776672738,0.012942440776672738
0.630957344480193,2.011743978128339,-0.03173254984463979,2.0119942316655077,-0.9036887556956784,0.012911942542222138,0.012911942542222138
0.5011872336272715,2.0202660534776453,0.003585816194840656,2.0202692357485237,0.10169547618345237,0.012887323221405527,0.012887323221405527
0.3981071705534969,1.973530582665634,-0.03245520884005043,1.9737974316776805,-0.9421586356132083,0.012867523049264926,0.012867523049264926
0.31622776601683794,1.980744801359533,0.013431534489632442,1.9807903408063061,0.3885197339936695,0.012851643146538022,0.012851643146538022
0.2511886431509577,1.995453874131182,-0.02896666919861804,1.9956641079374067,-0.8316660939500166,0.01283893442751055,0.01283893442751055
0.1995262314968879,2.0007660929953084,-0.03291668423326784,2.0010368479817218,-0.942547435482486,0.012828780231982065,0.012828780231982065
0.1584893192461111,2.0190046160318778,-0.000712582392173363,2.019004741780389,-0.020221826937607188,0.012820677333071021,0.012820677333071021
0.12589254117941662,1.9882633596340988,0.005833117952625964,1.9882719161443998,0.16809246099697753,0.012814217684159577,0.012814217684159577
0.1,2.0034612615115237,0.010232779519003093,2.003487393560047,0.29263854122321936,0.01280907198147284,0.01280907198147284
0.07943282347242805,2.003461122848452,0.016476283759444876,2.0035288714395163,0.471184705974229,0.01280497541568071,0.01280497541568071
0.0630957344480193,1.9916073836738308,-0.028258158916966192,1.9918078457144148,-0.8128934549052519,0.012801715618409166,0.012801715618409166
0.050118723362727144,1.9830359829937085,-0.0016043039729987329,1.9830366319458301,-0.046353080550851467,0.012799122632096364,0.012799122632096364
0.03981071705534969,2.0234016100480927,-0.0189478432910643,2.023490325232764,-0.5365221191561866,0.012797060659527596,0.012797060659527596
0.03162277660168379,2.000245560885546,-0.002489486509450406,2.0002471100805055,-0.07130974280710538,0.012795421333736009,0.012795421333736009
0.02511886431509577,1.9816841153772258,0.0244139558368345,1.9818344972217081,0.7058369477858913,0.012794118261827699,0.012794118261827699
0.01995262314968879,1.982205863163143,-0.010508568661992096,1.9822337183020735,-0.30374796262060816,0.012793082621976256,0.012793082621976256
0.01584893192461111,2.0079795823973847,0.0013030655311139696,2.007980005205369,0.03718172512101833,0.012792259622731601,0.012792259622731601
0.012589254117941661,1.9884915772552503,0.006026003120053333,1.9885007079527721,0.173630853229255,0.012791605663397142,0.012791605663397142
0.01,2.008421858389625,-0.009134739043719493,2.0084426316712736,-0.2605918587645093,0.012791086061377526,0.012791086061377526
