Freq,Zreal,Zimag,Zmod,Zphz,sigma_re,sigma_im
1000000.0,0.984709908368308,0.0023457635869390822,0.9847127023886344,0.13648902878858712,0.03278977288738162,0.0025004810891301825
794328.2347242822,1.0339414267643885,-0.0038983351703728744,1.0339487758088792,-0.21602490066057012,0.03278977289186921,0.0025006059110442387
630957.344480193,1.0294684350840364,0.0033843345888207818,1.0294739979984846,0.18835680944602526,0.03278977289898155,0.002500763052523703
501187.2336272725,0.994732089251461,0.002538134764219286,0.9947353273683698,0.14619423239744195,0.03278977291025387,0.002500960881925269
398107.1705534969,1.0059308465984953,-0.004260627414191038,1.0059398695172233,-0.24267523953308734,0.032789772928119264,0.0025012099343857445
316227.7660168379,1.0100879090759916,-0.00020626647033924138,1.0100879301364636,-0.011700167812161938,0.032789772956434024,0.002501523472856396
251188.6431509582,1.006477470962961,0.0024123970034139654,1.0064803620614264,0.13733034876879552,0.03278977300130989,0.0025019181944032558
199526.2314968879,1.0490805894775894,-0.00012134116359937717,1.0490805964950094,-0.006627075740586816,0.032789773072433345,0.0025024151193863507
158489.3192461114,1.0490962664262806,-0.0004325683496183483,1.0490963556055939,-0.02362446628845183,0.03278977318515643,0.0025030407108696776
125892.54117941661,1.0179277865872036,-0.0022521713979839803,1.0179302780555892,-0.12676705262148819,0.03278977336381047,0.0025038282838741738
100000.0,1.0066515741283768,-0.00042111513559271784,1.0066516622114605,-0.023968689039147534,0.032789773646958044,0.0025048197795206986
79432.82347242821,0.9872707624548434,-2.4603093785482196e-05,0.9872707627614017,-0.001427828606081446,0.0327897740957167,0.0025060679985409407
63095.7344480193,1.0354330542260646,-0.0010979339846792712,1.0354336363297028,-0.06075425125024295,0.032789774806951194,0.00250763941309552
50118.72336272725,0.9877414590043944,0.002310906558763255,0.9877441622835607,0.13404818627329562,0.03278977593418185,0.002509617706632188
39810.71705534969,0.9809799007635501,-0.00626631901591139,0.9809999146055385,-0.3659899139373722,0.03278977772072186,0.002512108230281225
31622.776601683792,0.9818181401835429,-0.0042446965395955315,0.9818273156936429,-0.24770542716989388,0.032789780552196536,0.0025152436130808347
25118.864315095823,0.9726701357361874,0.0026904079598263023,0.972673856566549,0.15847986124508945,0.03278978503978039,0.002519190824744659
19952.62314968879,1.039345645033056,0.00113729749948532,1.0393462672732228,0.06269552489579752,0.03278979215211877,0.002524160066984085
15848.93192461114,0.9607706896371488,0.003278920328308984,0.9607762847741205,0.19553840351514823,0.0327898034244086,0.002530415966670286
12589.254117941662,1.038299272761839,-0.002044195982499403,1.0383012850589075,-0.1128033641534072,0.032789821289766825,0.0025382916664928997
10000.0,1.0230789149526516,-0.0015262086325606415,1.023080053335752,-0.08547263281165329,0.0327898496044083,0.0025482065626567106
7943.282347242814,1.0456946770496791,-0.0025115427908741004,1.0456976931490396,-0.13761237236847718,0.03278989447998238,0.0025606886325421985
6309.57344480193,0.9856677690332387,-0.004444653963378952,0.9856777900814324,-0.25836107811004405,0.032789965602701865,0.002576402538024918
5011.87233627272,1.0302105479003716,-0.0010497131085948769,1.0302110826926654,-0.05838040595717159,0.032790078323931646,0.002596184994405272
3981.071705534969,1.0123852223942096,-0.0032972608563439157,1.0123905918425595,-0.18660729024675804,0.03279025697332284,0.002621089275200077
3162.2776601683795,1.0023355411213253,-0.005903043396586045,1.002352923334053,-0.3374274869803303,0.032790540109210106,0.0026524411963575055
2511.88643150958,0.9945660645489005,-0.005000554823248412,0.9945786355541869,-0.28807364594394347,0.03279098883850767,0.002691909508430451
1995.2623149688789,1.0413489328008416,-0.009154920150575492,1.0413891743284136,-0.5036974225133801,0.03279169999928236,0.00274159433996572
1584.8931924611124,1.0323108732034834,-0.010240275175901469,1.0323616624854957,-0.5683416886476165,0.03279282704474858,0.0028041381918531417
1258.9254117941662,0.9768941890445899,-0.011809546870420982,0.9769655684753541,-0.6926074928954058,0.03279461311963232,0.002882864974349436
1000.0,1.0021616960335085,-0.014387156818682453,1.0022649626112268,-0.8224887706510183,0.03279744342608827,0.002981953655481137
794.3282347242813,1.000707410584439,-0.020057308944135818,1.0009083960286742,-1.148233027638244,0.032801928076048675,0.0031066541035741206
630.957344480193,0.9904137887614661,-0.023666015404244522,0.9906964990621275,-1.368826677083502,0.03280903304697316,0.0032635533045373374
501.18723362727195,0.9728436929035427,-0.02840431603715652,0.9732582678774124,-1.6724014592023804,0.032820286839173464,0.00346089954328821
398.1071705534969,0.9971687630953805,-0.037135768583316485,0.9978600139305336,-2.13277837578881,0.03283810576752874,0.00370898874535091
316.22776601683796,0.9821543413299962,-0.05808161584049274,0.9838702273633455,-3.384356301009126,0.032866303917837264,0.004020607719120578
251.18864315095797,1.0147879741846815,-0.07587469877663505,1.0176205591792526,-4.275992749116303,0.032910887416966045,0.00441150711189772
199.52623149688787,1.0205043471528794,-0.0769416017689585,1.023400768340877,-4.311695673595407,0.03298127860850185,0.004900830279960522
158.48931924611125,0.985764206399607,-0.09268151664249753,0.9901115766143735,-5.371157775846102,0.03309217075011242,0.005511330717889335
125.89254117941663,1.0674471860852073,-0.11699649646702508,1.0738396878802654,-6.254880453417317,0.0332662588710415,0.006269032579312007
100.0,0.9765970499472225,-0.16617570764254203,0.9906342229986391,-9.656838231015511,0.03353806729584366,0.0072016714933077165
79.43282347242805,1.040904451366322,-0.2036035475672588,1.060630228428455,-11.067463213582212,0.033958847059845476,0.008334744774800305
63.0957344480193,1.0101920712388455,-0.23659275173580083,1.0375279037056049,-13.181415859118381,0.03460172622793403,0.009683346577413564
50.11872336272725,1.0431409568173977,-0.27876190374497395,1.0797459213951393,-14.961718251855006,0.03556444335156675,0.011237581339426567
39.81071705534969,1.1709604046656383,-0.3315161765252539,1.2169844882300838,-15.807600706502992,0.03696369596441053,0.012940571432447442
31.622776601683793,1.1264049332847508,-0.38129464352632725,1.1891903459539572,-18.70125996459613,0.038911588275970896,0.014663542092621098
25.11886431509577,1.3157346098112421,-0.4524981500216642,1.3913705973708694,-18.978756281695347,0.04146650451644496,0.01619417906409525
19.952623149688787,1.4710447124239832,-0.5263799773509653,1.5623854922862546,-19.688596719908336,0.04456805049913602,0.01726595790299207
15.84893192461111,1.5814742672320963,-0.4962883985111841,1.657517128844855,-17.422575397733414,0.04799813178382634,0.017644752940485044
12.589254117941662,1.658183873438661,-0.4827355647464506,1.7270226934244715,-16.23149607004437,0.0514217136774843,0.017237979049771982
10.0,1.6720930426517053,-0.45123099278757495,1.7319077781845944,-15.102097337677263,0.05450623223417499,0.01614485284640095
7.943282347242805,1.7589919898229152,-0.4273672510690535,1.810164519469846,-13.656062712606936,0.05703920724069021,0.014602677078710057
6.30957344480193,1.8823888020224728,-0.3736827233083585,1.9191212519480763,-11.22810648337128,0.05896558784582896,0.012877196465263495
5.011872336272715,1.8425689413753947,-0.2818402911913643,1.8639995315074722,-8.696585473898129,0.060346841707732385,0.011177864006407376
3.981071705534969,1.9047315290572877,-0.2319296155909951,1.918800027197493,-6.942443430341819,0.061295942098362005,0.009630478374523964
3.1622776601683795,1.9882877237637984,-0.19985332521230195,1.9983066391493176,-5.73982349943173,0.0619291694793134,0.00828975716302284
2.511886431509577,2.010115105014538,-0.1520265663634245,2.015855851068687,-4.325090313023177,0.062343389863657325,0.00716434232853903
1.9952623149688788,1.8678127694640798,-0.12018363735998484,1.8716753587260138,-3.6815978659984347,0.06261085943155756,0.006238550202360803
1.584893192461111,1.9823108493628228,-0.0917854137133335,1.9844346463595326,-2.6510289564519276,0.0627821266663632,0.005486690874996657
1.2589254117941662,2.027196880914736,-0.07540209415659675,2.0285986960938414,-2.130148843204554,0.06289120487049368,0.004881040840476832
1.0,2.012398280468053,-0.061646255651067725,2.013342270967997,-1.7546059854057416,0.0629604377363504,0.004395677793757573
0.7943282347242805,2.0311156290646677,-0.05103914533650979,2.0317567996656103,-1.4394612935195887,0.06300428482236844,0.0040079785616570504
0.630957344480193,2.111437328436343,-0.03960725269283323,2.1118087807328285,-1.074652923332276,0.06303201609864653,0.003698929130557485
0.5011872336272715,1.8225582495102979,-0.024375414153292436,1.8227212440944407,-0.7662444221082714,0.0630495395581463,0.0034528948796130254
0.3981071705534969,2.102338624547631,-0.02148407116215737,2.1024483959371096,-0.5854926238617726,0.06306060656628516,0.0032571879325334185
0.31622776601683794,2.039331083446733,-0.01843799936196744,2.0394144325596253,-0.5180084641588011,0.0630675935425288,0.003101594376148147
0.2511886431509577,1.9109825074698765,-0.019611104734136277,1.9110831324892044,-0.5879667060049591,0.06307200368632167,0.002977932799452512
0.1995262314968879,1.9218946891259117,-0.013368131206267701,1.9219411809476201,-0.39852607445369964,0.06307478696003227,0.0028796702065830536
0.1584893192461111,2.1008466762694833,-0.013438460515653318,2.1008896566487176,-0.36649822089167206,0.06307654335028585,0.002801600052298577
0.12589254117941662,2.0325613883140172,-0.004718736001255758,2.0325668657474605,-0.13301599318903404,0.06307765166244302,0.002739578000832512
0.1,1.9398964776960796,-0.004273175536112863,1.939901184134599,-0.12621009943199699,0.06307835100187582,0.0026903077614392518
0.07943282347242805,1.9523256941781006,-0.008259362356257745,1.9523431648187608,-0.2423897727507218,0.06307879227184436,0.0026511688274176693
0.0630957344480193,2.063321709122595,-0.0037965878643161934,2.063325202050321,-0.10542622350974407,0.06307907070098763,0.0026200785685185557
0.050118723362727144,2.0002551641864112,-0.0012602894009967744,2.0002555612180615,-0.03610002132719022,0.06307924638053432,0.002595382147463578
0.03981071705534969,2.085421912341647,-0.0028358750833973765,2.0854238405327057,-0.0779140050212401,0.06307935722788315,0.0025757648069703624
0.03162277660168379,2.011430023550193,-0.0011669002676445482,2.011430362029808,-0.03323926369070046,0.06307942716824946,0.0025601820612206837
0.02511886431509577,2.073215222427318,-0.0002672877330597153,2.0732152396572543,-0.0073868157871044985,0.06307947129780345,0.0025478041769795567
0.01995262314968879,1.9573215438502574,-0.005698678784259268,1.9573298395927654,-0.16681434974180231,0.0630794991417358,0.0025379720392993918
0.01584893192461111,1.9802312443308039,-0.0009769060086947114,1.980231485298947,-0.028265682050350724,0.06307951671009576,0.002530162077320393
0.012589254117941661,1.948550832621959,-0.001665299549855575,1.9485515442333878,-0.048966960986628096,0.063079527794992,0.0025239583952816873
0.01,2.0571593983336482,0.0015040445030361188,2.0571599481572465,0.04189047622596014,0.06307953478909287,0.002519030631105394
