Freq,Zreal,Zimag,Zmod,Zphz
1000000.0,1.000000000253303,-1.591549430515809e-05,1.0000000003799543,-0.0009118906522420759
794328.2347242822,1.0000000004014582,-2.0036420219060357e-05,1.0000000006021872,-0.0011480023144882468
630957.344480193,1.0000000006362684,-2.5224358569238637e-05,1.0000000009544026,-0.001445249285715937
501187.2336272725,1.0000000010084173,-3.1755585987204645e-05,1.000000001512626,-0.0018194610505852357
398107.1705534969,1.0000000015982335,-3.9977914142127115e-05,1.0000000023973503,-0.002290565749199105
316227.7660168379,1.0000000025330296,-5.032921197700166e-05,1.0000000037995442,-0.002883651422762303
251188.6431509582,1.0000000040145813,-6.33607238195505e-05,1.000000006021872,-0.0036303020423220787
199526.2314968879,1.0000000063626826,-7.976642513880457e-05,1.0000000095440238,-0.0045702794685274165
158489.3192461114,1.0000000100841724,-0.00010041997924150614,1.0000000151262582,-0.005753640911968698
125892.54117941661,1.000000015982336,-0.00012642126297332168,1.0000000239735036,-0.00724340465472947
100000.0,1.0000000253302952,-0.00015915493906045364,1.0000000379954421,-0.009118905988846368
79432.82347242821,1.000000040145812,-0.00020036419422725786,1.000000060218716,-0.011480022080261639
63095.7344480193,1.0000000636268225,-0.0002522435698034231,1.000000095440229,-0.014452490732961683
50118.72336272725,1.000000100841714,-0.000317555828169398,1.0000001512625598,-0.01819460626752118
39810.71705534969,1.0000001598233368,-0.00039977907816617515,1.0000002397349765,-0.0229056490354099
31622.776601683792,1.0000002533028949,-0.0005032919935595191,1.00000037995427,-0.02883649735452957
25118.864315095823,1.0000004014579744,-0.0006336069863724934,1.0000006021867802,-0.03630298675698665
19952.62314968879,1.0000006362678613,-0.0007976637489351998,1.0000009544013364,-0.04570272751234825
15848.93192461114,1.0000010084162265,-0.0010041987898902096,1.0000015126231958,-0.057536275092213186
12589.254117941662,1.00000159823107,-0.0012642106294343518,1.0000023973437313,-0.07243377912775036
10000.0,1.0000025330231748,-0.001591545399487361,1.000003799527544,-0.09118852631766317
7943.282347242814,1.0000040145652385,-0.002003633978958802,1.0000060218297264,-0.11479915619313877
6309.57344480193,1.000006362642177,-0.0025224198091720273,1.0000095439177221,-0.14452278316783124
5011.87233627272,1.0000100840707447,-0.00317552657936516,1.0000151259917192,-0.18194182445757834
3981.071705534969,1.0000159820808117,-0.003997727527576564,1.0000239728338691,-0.2290480341320209
3162.2776601683795,1.000025329654303,-0.005032793728294309,1.0000379937596915,-0.28834810158730506
2511.88643150958,1.00004014420193,-0.006335818050821568,1.0000602144900026,-0.3629962049262436
1995.2623149688789,1.0000636227784885,-0.00797613506847033,1.0000954296143272,-0.456960113550952
1584.8931924611124,1.0001008315563145,-0.010040985475126453,1.0001512358983233,-0.5752287593469243
1258.9254117941662,1.000159797823001,-0.012640106315090176,1.000239668014123,-0.7240704852346811
1000.0,1.0002532388129652,-0.01591146388830292,1.0003797861007067,-0.9113520512003092
794.3282347242813,1.000401297031559,-0.02002837967114396,1.0006017644870895,-1.146928086659133
630.957344480193,1.000635863686154,-0.025208319331657177,1.000953341099605,-1.443107254081132
501.18723362727195,1.0010074013625196,-0.031723595398604185,1.0015099620510814,-1.8151913487138178
398.1071705534969,1.0015956833494812,-0.039914122113975624,1.0023906673789635,-2.2820598597312025
316.22776601683796,1.0025266295636082,-0.05020204882927072,1.0037827895968452,-2.866721769484767
251.18864315095797,1.0039985289354587,-0.06310737438533616,1.0059799137191439,-3.59665429018655
199.52623149688787,1.0063224548863157,-0.07926210601874142,1.009439133706905,-4.503554174574231
158.48931924611125,1.0099834971277128,-0.09941743766972623,1.0148647650712574,-5.621783181951511
125.89254117941663,1.0157309193993929,-0.12443254226384158,1.0233243660727416,-6.984243377131201
100.0,1.0247045230318577,-0.15522309613464763,1.036394504566467,-8.613726072375169
79.43282347242805,1.038596332387887,-0.19263087892155484,1.056309139013604,-10.507382735244025
63.0957344480193,1.0598206297664337,-0.23715421569261813,1.0860303353494787,-12.613192791126272
50.11872336272725,1.0916041989621075,-0.2884664099936389,1.1290759925205753,-14.802558093955652
39.81071705534969,1.1377997439989842,-0.3446896786281809,1.1888646819537338,-16.853873104910658
31.622776601683793,1.202108322864378,-0.4015725945496361,1.2674087614472036,-18.472252937180635
25.11886431509577,1.2864574583735102,-0.4521057209499775,1.3635880518398988,-19.36324206698037
19.952623149688787,1.3888532701177225,-0.48748990188154256,1.471923846655515,-19.341161604928214
15.84893192461111,1.5020954917241724,-0.49999560889515215,1.583125539928062,-18.410815624282478
12.589254117941662,1.6151231395586017,-0.4865661956385491,1.6868222842599054,-16.765264384715874
10.0,1.7169568003248976,-0.45047724336838857,1.7750691256891076,-14.701313144830182
7.943282347242805,1.8005815582254363,-0.3995631700429466,1.844381922129012,-12.511641625578282
6.30957344480193,1.864179940094449,-0.3425973894132931,1.8953996465873224,-10.41356819047751
5.011872336272715,1.9097812664019551,-0.2864948755318496,1.931150900164424,-8.531577932025998
3.981071705534969,1.9411152867478172,-0.23540880144419185,1.9553377867374864,-6.914778926167957
3.1622776601683795,1.9620209357541625,-0.19114563799586973,1.9713099216669325,-5.5643573373825825
2.511886431509577,1.9756961908471387,-0.1539906945679597,1.981688313671304,-4.456765701757896
1.9952623149688788,1.9845265495375668,-0.12342618358038802,1.9883610458396885,-3.5588852661289345
1.584893192461111,1.9901808418263092,-0.09860396699144966,1.9926220227325924,-2.836413199220445
1.2589254117941662,1.993781997932933,-0.07860876870528419,1.9953310486730764,-2.2578291324179447
1.0,1.9960676824071726,-0.0625847782705717,1.9970485840914132,-1.7958656057065379
0.7943282347242805,1.9975152695106657,-0.04978510423540035,1.9981355831204242,-1.4277167156323234
0.630957344480193,1.9984308021389245,-0.03958200953903547,1.998822755127821,-1.1346830702354949
0.5011872336272715,1.9990093293863227,-0.031459325889354885,1.9992568589750963,-0.9016155100235328
0.3981071705534969,1.9993747004910178,-0.024998170123155146,1.999530970371065,-0.7163314690809776
0.31622776601683794,1.9996053716169975,-0.019861335590585946,1.999704006809756,-0.569078929393092
0.2511886431509577,1.9997509700560014,-0.015778717567837126,1.9998132188201987,-0.45207387101152197
0.1995262314968879,1.9998428582860952,-0.012534632838121408,1.9998821402418407,-0.35911429336881545
0.1584893192461111,1.999900844531264,-0.009957190212550902,1.9999256320157988,-0.28526427325681963
0.12589254117941662,1.999937434839334,-0.007909566755942092,1.9999530755790251,-0.22659830363781622
0.1,1.9999605231408797,-0.0062829372667583885,1.9999703921365033,-0.17999585487485698
0.07943282347242805,1.9999750914229169,-0.004990787176993847,1.9999813184799378,-0.1429770047464613
0.0630957344480193,1.9999842836058788,-0.0039643596098776985,1.999988212669674,-0.11357128078163956
0.050118723362727144,1.9999900835681848,-0.0031490210351108115,1.99999256266231,-0.09021318020232355
0.03981071705534969,1.9999937431316177,-0.0025013654738920985,1.999995307343208,-0.0716590291541424
0.03162277660168379,1.9999960521738251,-0.0019869098091537018,1.9999970391281772,-0.056920866799570646
0.02511886431509577,1.9999975090864512,-0.0015782608606553195,1.999998131813966,-0.045213890069752016
0.01995262314968879,1.999998428338357,-0.0012536583158083738,1.9999988212534203,-0.035914688742711344
0.01584893192461111,1.999999008347968,-0.000995816774527353,1.9999992562608375,-0.028528060961837683
0.012589254117941661,1.9999993743096383,-0.000791005670097078,1.9999995307321736,-0.022660649141469542
0.01,1.9999996052159799,-0.0006283182826678432,1.999999703911963,-0.017999995854767244
