Freq,Zreal,Zimag,Zmod,Zphz,sigma_re,sigma_im
1000000.0,1.0000392991628793,0.0002248584168433075,1.0000393244425392,0.012882931767563582,0.0016827919973165786,0.0016827919973165786
794328.2347242822,0.9973100535358981,-0.0030599140368963674,0.9973147476888573,-0.17579248222185417,0.00168279893211667,0.00168279893211667
630957.344480193,0.999049999022784,0.0009761017095936274,0.9990504758629427,0.055979671282071444,0.0016828076625939928,0.0016828076625939928
501187.2336272725,0.998654064353707,-0.0011436879681980426,0.9986547192460197,-0.06561678097419865,0.0016828186537425416,0.0016828186537425416
398107.1705534969,0.9999252611467135,-0.000334016926684909,0.9999253169345351,-0.01913918991426048,0.0016828324909828679,0.0016828324909828679
316227.7660168379,0.9983559021621284,5.840977046049493e-05,0.9983559038707882,0.00335214457955129,0.0016828499113598352,0.0016828499113598352
251188.6431509582,1.0009011643033296,0.00025638660548187947,1.0009011971407829,0.01467664402881021,0.0016828718428277645,0.0016828718428277645
199526.2314968879,0.9989802091197126,-0.0011494916185449762,0.9989808704594126,-0.06592822226080436,0.0016828994537225728,0.0016828994537225728
158489.3192461114,1.0012817249707773,-0.0021719178852147728,1.0012840805624323,-0.12428223745249975,0.0016829342150673735,0.0016829342150673735
125892.54117941661,0.9994473488171404,0.0014994110405371528,0.9994484735548297,0.08595736436420026,0.0016829779790484033,0.0016829779790484033
100000.0,1.0021952441511939,-5.012413360255249e-05,1.0021952454046565,-0.0028656105898944395,0.0016830330778702975,0.0016830330778702975
79432.82347242821,1.0009806916004258,-0.0004693232967036133,1.0009808016246982,-0.02686389695972623,0.0016831024483024584,0.0016831024483024584
63095.7344480193,1.0041838956923483,0.0025299296176763113,1.0041870826254098,0.14435003736922064,0.001683189788624074,0.001683189788624074
50118.72336272725,1.0011741291928031,-0.0008468069842890774,1.0011744873132935,-0.048461554565970295,0.0016832997564444805,0.0016832997564444805
39810.71705534969,0.9979713100179426,0.0021045234356340337,0.9979735290266067,0.12082524897888215,0.00168343821812165,0.00168343821812165
31622.776601683792,1.0025635503531347,-0.001296742664196346,1.0025643889737055,-0.07410786110723923,0.0016836125633591104,0.0016836125633591104
25118.864315095823,1.0001805364916385,-0.0015699817892114252,1.000181768689832,-0.08993701964006567,0.0016838321022062037,0.0016838321022062037
19952.62314968879,0.9995181122453708,-0.002734871667467012,0.9995218538029006,-0.1567717593999031,0.0016841085663494148,0.0016841085663494148
15848.93192461114,1.0003415072489652,-0.00404872003958362,1.0003497004843307,-0.23189411053676784,0.0016844567425703053,0.0016844567425703053
12589.254117941662,1.0017469659366065,-0.001117436029419033,1.0017475891792684,-0.06391268851640312,0.0016848952739692412,0.0016848952739692412
10000.0,1.0004193855094785,0.0009315947832140275,1.0004198192618952,0.05335405794749277,0.0016854476745695344,0.0016854476745695344
7943.282347242814,0.9970636179596299,-0.0014494872755300699,0.9970646715595277,-0.08329402792774894,0.0016861436159839552,0.0016861436159839552
6309.57344480193,1.0037558500585697,-0.0036594829782439628,1.003762520889513,-0.20888745094012087,0.001687020561995189,0.001687020561995189
5011.87233627272,1.0010775930339246,-0.001275873421311619,1.0010784060839506,-0.07302343311010473,0.0016881258496401963,0.0016881258496401963
3981.071705534969,1.0008189545438129,-0.0024107792617516447,1.0008218580900496,-0.13801418254045045,0.001689519345761641,0.001689519345761641
3162.2776601683795,0.9987285465210317,-0.004444722078927201,0.9987384368243627,-0.25498633823705064,0.0016912768489307903,0.0016912768489307903
2511.88643150958,0.9975753293759458,-0.006993862484214573,0.9975998455753564,-0.4016861943487191,0.0016934944623402631,0.0016934944623402631
1995.2623149688789,1.000407107878833,-0.0080005792409684,1.000439098977385,-0.4582031137995048,0.0016962942396908161,0.0016962942396908161
1584.8931924611124,0.9998383663344996,-0.008286462995894318,0.9998727040295796,-0.4748452376841776,0.0016998315117660188,0.0016998315117660188
1258.9254117941662,1.0018443496682583,-0.01370546432761535,1.0019380922565282,-0.7837707333021712,0.0017043044482871316,0.0017043044482871316
1000.0,1.00143206592757,-0.018659681286921893,1.0016058937394938,-1.0674685962897597,0.0017099666142642235,0.0017099666142642235
794.3282347242813,0.9983996798892788,-0.020149553561012827,0.9986029868329668,-1.1561779279714592,0.0017171435641560782,0.0017171435641560782
630.957344480193,1.0008060117115878,-0.025978571979790574,1.001143126271246,-1.486929875935472,0.0017262549070387288,0.0017262549070387288
501.18723362727195,1.0002068868872231,-0.031728004738145264,1.0007099893881815,-1.8168954924499614,0.0017378437976471272,0.0017378437976471272
398.1071705534969,1.0012050717330612,-0.03947706226996036,1.0019830508094787,-2.25797695587134,0.0017526164715592368,0.0017526164715592368
316.22776601683796,1.0050559055202015,-0.05221910964439047,1.00641155032774,-2.974209410478387,0.001771495200674692,0.001771495200674692
251.18864315095797,1.0039233165992039,-0.06381757478325302,1.0059496550338698,-3.6372941746552225,0.0017956886946694651,0.0017956886946694651
199.52623149688787,1.010092258995286,-0.08251097884356373,1.0134566755969014,-4.669927505594886,0.0018267839368693883,0.0018267839368693883
158.48931924611125,1.00722522598566,-0.1003070120599835,1.0122075639562598,-5.687189981770964,0.0018668613023993536,0.0018668613023993536
125.89254117941663,1.0140341773874242,-0.12517740667649155,1.0217312249569561,-7.03727302236373,0.001918627412530007,0.001918627412530007
100.0,1.0230906823631325,-0.15618172950079473,1.0349431274075496,-8.679579937200563,0.001985541153574333,0.001985541153574333
79.43282347242805,1.04092320178587,-0.19616441424932532,1.0592457644163267,-10.672358138815454,0.002071866322768466,0.002071866322768466
63.0957344480193,1.0561278217461083,-0.23358046425687162,1.0816495777970956,-12.47117208140041,0.0021825041544741223,0.0021825041544741223
50.11872336272725,1.089100737540212,-0.28728381408248366,1.1263535885078064,-14.77693359387709,0.002322334814787774,0.002322334814787774
39.81071705534969,1.1343899971660063,-0.342677039072297,1.185018235630848,-16.808540157204792,0.0024946816317802547,0.0024946816317802547
31.622776601683793,1.1971205854709686,-0.40300048806857297,1.2631338367496385,-18.6053695707835,0.0026986184635432557,0.0026986184635432557
25.11886431509577,1.2856728243172415,-0.4539052963183464,1.3634458658904351,-19.445519894328882,0.0029255936419848236,0.0029255936419848236
19.952623149688787,1.3876696959965118,-0.48844995966133486,1.4711256058815003,-19.391709464190885,0.0031574450209619275,0.0031574450209619275
15.84893192461111,1.505126429450673,-0.5023786792005739,1.5867545197497452,-18.457895736686783,0.0033690492610832217,0.0033690492610832217
12.589254117941662,1.6165489893852787,-0.4877013498616359,1.6885150996480391,-16.78818980961686,0.0035366497056912717,0.0035366497056912717
10.0,1.7194402039112595,-0.44967940937175904,1.7772693059970759,-14.656116847181806,0.003647282614209031,0.003647282614209031
7.943282347242805,1.797453435462829,-0.4010077270183411,1.8416422154657357,-12.576599484397647,0.003702327016365938,0.003702327016365938
6.30957344480193,1.8607095209582174,-0.34004855168272596,1.8915266159602615,-10.356634587485093,0.0037134881270155036,0.0037134881270155036
5.011872336272715,1.9081144075343033,-0.2805226957653806,1.9286247885681294,-8.363465278036974,0.0036958170938514653,0.0036958170938514653
3.981071705534969,1.9400085237854214,-0.23750977803847245,1.9544932762800629,-6.979826983989247,0.003662579024892921,0.003662579024892921
3.1622776601683795,1.9671967955188017,-0.18950668065563323,1.9763036240194871,-5.502515648239572,0.003623273812084603,0.003623273812084603
2.511886431509577,1.9691531058577092,-0.15818231755219453,1.9754962920479617,-4.5927153203484625,0.0035837630092990535,0.0035837630092990535
1.9952623149688788,1.9824292469654878,-0.11721246805332036,1.9858913570211494,-3.383712348727161,0.0035471895338391652,0.0035471895338391652
1.584893192461111,1.9987664112500008,-0.09171979797294742,2.000869732911517,-2.6273572054212146,0.003514934417585915,0.003514934417585915
1.2589254117941662,1.9908019720362014,-0.08223878205475654,1.9924998642752973,-2.3655078110988352,0.0034873470936753964,0.0034873470936753964
1.0,1.997346268334317,-0.06045186978724948,1.9982608799127795,-1.733590230385485,0.0034642287502941443,0.0034642287502941443
0.7943282347242805,1.9962536145009024,-0.050642001333488076,1.9968958675171267,-1.4531974867608128,0.0034451258532895612,0.0034451258532895612
0.630957344480193,1.9984306882047298,-0.03807614875418417,1.9987933881875788,-1.0915258193680444,0.003429497066910591,0.003429497066910591
0.5011872336272715,1.994954951571548,-0.026681698958775493,1.995133371947641,-0.7662617119125283,0.003416802022941441,0.003416802022941441
0.3981071705534969,1.997818577412751,-0.024267388782587856,1.9979659592730388,-0.6959343526983655,0.003406544248555844,0.003406544248555844
0.31622776601683794,1.9999913664310256,-0.017647143013953474,2.0000692206659236,-0.5055424703758249,0.0033982883274368647,0.0033982883274368647
0.2511886431509577,1.9944211769553575,-0.018443643165178127,1.9945064550061495,-0.5298343210070313,0.003391663247831155,0.003391663247831155
0.1995262314968879,2.000703305006528,-0.007555283404192951,2.000717570515979,-0.21636581160753984,0.0033863588412112186,0.0033863588412112186
0.1584893192461111,2.00531835532299,-0.012314327458822437,2.005356165087904,-0.35183945752081575,0.0033821191876539465,0.0033821191876539465
0.12589254117941662,1.999883733311288,-0.00782952535762614,1.9998990595103596,-0.22431127330969453,0.003378735091025675,0.003378735091025675
0.1,2.0063042393702,-0.0026323343249292086,2.00630596622221,-0.07517382338308634,0.0033760367076945386,0.0033760367076945386
0.07943282347242805,1.9974914961427914,-0.0004543394386713126,1.9974915478136805,-0.01303221160317984,0.0033738868374693694,0.0033738868374693694
0.0630957344480193,1.9994629516428535,0.000202290496361196,1.9994629618759625,0.0057967523869516995,0.0033721750691495995,0.0033721750691495995
0.050118723362727144,2.004156386136561,0.0005942812754614018,2.004156474246009,0.016989596303542687,0.0033708128057324724,0.0033708128057324724
0.03981071705534969,2.005510755411403,-0.0031849677968279104,2.005513284446324,-0.09099181280210931,0.003369729111668896,0.003369729111668896
0.03162277660168379,1.9960657307196892,0.00017964870387006263,1.9960657388040062,0.00515670017301817,0.003368867289147598,0.003368867289147598
0.02511886431509577,2.0019526298083394,-0.0033127331079632373,2.0019553706806676,-0.09481016167501916,0.0033681820805538678,0.0033681820805538678
0.01995262314968879,1.9952777163112472,0.00192527083651045,1.99527864517115,0.05528546638642196,0.0033676373975678785,0.0033676373975678785
0.01584893192461111,2.000538394770136,0.0012644785074908062,2.0005387943889934,0.036214887105152506,0.003367204486811265,0.003367204486811265
0.012589254117941661,2.0017091624307946,-0.010181829403437303,2.0017350575461763,-0.2914363546438267,0.003366860453636683,0.003366860453636683
0.01,1.9967822886804725,-0.0005608460480938974,1.9967823674442629,-0.016092946561830208,0.0033665870775213824,0.0033665870775213824
