Freq,Zreal,Zimag,Zmod,Zphz,sigma_re,sigma_im
31622.776601683792,1.234781211096444,0.9230227995890974,1.5416405961955257,36.77882413522579,0.004405124697275414,0.003374201600566688
25118.864315095823,1.1610874151955377,0.7307721448828933,1.3719154177507444,32.18573602082327,0.0041941898407096435,0.0027443838418480413
19952.62314968879,1.1278950588572012,0.5740740655347458,1.2655861474092078,26.975104689451193,0.004065562804384781,0.0022227355346718207
15848.93192461114,1.0994814656423242,0.4449921357970244,1.1861186678457558,22.034611564446738,0.003991753156717936,0.0017951209898697006
12589.254117941662,1.0864234628936325,0.33812457303301957,1.1378243131584742,17.28756455394536,0.003954347961143377,0.001446301660573985
10000.0,1.0919683672269183,0.2528603583818433,1.1208627372989148,13.037833560955798,0.003941344978011086,0.0011620419330598411
7943.282347242814,1.0911563272799958,0.1833628601790952,1.106455633568842,9.539117496696491,0.003945076839089336,0.0009299351600949599
6309.57344480193,1.0946583822589266,0.1256124915272691,1.101841854295533,6.546081859020581,0.003960731866217383,0.0007395794647623722
5011.872336272725,1.098861266974567,0.07807862809188712,1.1016316790205618,4.064271035295735,0.003985348497611778,0.000582458313091658
3981.0717055349733,1.1145162343710167,0.039316466181776165,1.1152094965474306,2.020368805744865,0.0040171489420131904,0.00045171021960950666
3162.2776601683795,1.1243193342379616,0.005612061510567978,1.1243333405070277,0.28599060666467896,0.004055102947852937,0.00034187637312992265
2511.88643150958,1.1378189751810641,-0.022127844715806217,1.138034121541992,-1.1141247779016528,0.004098642712178447,0.00039646014001815794
1995.2623149688789,1.1586596286375228,-0.04620318130952453,1.159580471117707,-2.2835398827639035,0.00414747501623108,0.00047638046248818744
1584.893192461114,1.1595508201234621,-0.06678143555286392,1.1614722831748914,-3.2961662962668843,0.004201455073368161,0.0005455535158195178
1258.9254117941662,1.1908822214853967,-0.08529072455238833,1.1939325664143117,-4.096516552742954,0.004260499350658566,0.0006058820238254727
1000.0,1.2046434254760736,-0.10107762429059909,1.2088765316089811,-4.796263640116106,0.004324523282510475,0.0006587500032410815
794.3282347242813,1.2242802435660052,-0.11642833351083562,1.2298039159273104,-5.432457491319965,0.004393395610778442,0.0007051275807473211
630.957344480193,1.2518543168799694,-0.1278029543852939,1.2583611666928634,-5.829182956023046,0.004466904970305495,0.0007456627569418554
501.18723362727246,1.273523979032197,-0.1383286783382348,1.2810144996918664,-6.199097398328321,0.0045447368721254185,0.0007807637213661908
398.1071705534969,1.2905421300526605,-0.14829265200048683,1.2990341412288577,-6.554951736087909,0.004626460756820371,0.0008106740092517213
316.22776601683796,1.3288166188045631,-0.15428918948817477,1.337743906883567,-6.622969092212394,0.004711527486813207,0.0008355414254223419
251.18864315095797,1.3524784066265254,-0.16122273511569185,1.362053820782868,-6.797888498344997,0.004799277644871661,0.0008554804148212336
199.52623149688787,1.3744552431356576,-0.1650887791266237,1.3843343239176795,-6.849108030405257,0.004888960441909521,0.0008706266172229056
158.48931924611125,1.4088853547267832,-0.1677879429340054,1.4188413359349377,-6.79152069459899,0.004979762100031986,0.0008811818735621852
125.89254117941663,1.4317524221470566,-0.17046649416062243,1.4418647037622416,-6.789754957599608,0.005070841519473923,0.0008874480530062165
100.0,1.4568832165003627,-0.17284877622480443,1.4671010210489444,-6.766105989411556,0.005161370143835327,0.0008898487296899679
79.43282347242814,1.482447565288155,-0.1695014556828356,1.4921064061612292,-6.522810973700664,0.005250572457747912,0.0008889388115585982
63.0957344480193,1.5110186209653016,-0.16914370944428977,1.5204561379232406,-6.38711080778525,0.0053377636358062416,0.0008854034626701668
50.118723362727195,1.5253202685296916,-0.1685182356215083,1.5346010287121785,-6.304501879746691,0.0054223815197863125,0.0008800487775994425
39.81071705534969,1.5646473528087244,-0.16691268478420118,1.5735250817807827,-6.0891424834409325,0.005504011201711091,0.0008737874167200428
31.622776601683793,1.5828375152074896,-0.1627778606166867,1.591185479903322,-5.8716151762209785,0.00558240181049276,0.0008676226536102169
25.118864315095795,1.612102649978355,-0.16232591249405545,1.6202545034451417,-5.749849109695739,0.005657476398603717,0.0008626340085412479
19.952623149688787,1.6258159335641003,-0.16117426833174037,1.6337853575678718,-5.661484101459673,0.0057293369121455846,0.0008599669398458934
15.848931924611126,1.6516721769450597,-0.1625979574488267,1.6596563125722636,-5.622335549943584,0.00579826700443595,0.0008608280871293613
12.589254117941662,1.6710091764151052,-0.164127262704386,1.6790501558995559,-5.609623900947577,0.005864735917965461,0.0008664864491630495
10.0,1.6856878408305769,-0.16734453525207033,1.6939739343339328,-5.669390505678748,0.005929406880447497,0.0008782797206690852
7.943282347242813,1.7038361143282998,-0.17165588248289,1.7124611664152676,-5.752949718656191,0.005993153531389596,0.0008976238065305257
6.30957344480193,1.722201965960406,-0.1816387837830343,1.7317540989794329,-6.020665889302391,0.00605708788436436,0.000926022186373142
5.01187233627272,1.7499419443595094,-0.19300455698747312,1.7605531993230625,-6.293827022951663,0.006122603225564582,0.0009650701382345694
3.981071705534969,1.7674731481890549,-0.20860004181004033,1.779740235824453,-6.731003603317571,0.0061914349973149,0.0010164466037559882
3.1622776601683795,1.7933274657896292,-0.22935820243575802,1.807934895005906,-7.288295578915833,0.0062657417350741535,0.0010818834259805625
2.511886431509577,1.8063312003220613,-0.2540459014317232,1.8241084741021285,-8.005679912803572,0.006348205793746058,0.0011630976330534414
1.9952623149688788,1.850791935064578,-0.28494370226822935,1.8725981150162496,-8.752406500954013,0.006442148706532476,0.0012616675003426303
1.584893192461114,1.8700775740620794,-0.31726150099701167,1.896798616887093,-9.628638529976241,0.006551646784756426,0.0013788281790223958
1.2589254117941662,1.9191733802679967,-0.3603387905402289,1.9527085055115838,-10.633895515549264,0.006681616799742737,0.001515160167203354
1.0,1.9665022817706728,-0.4069055725708009,2.008159199166847,-11.690571465699836,0.006837817590696002,0.001670148978517704
0.7943282347242805,2.0236431209763555,-0.4596900976966004,2.0751979344137834,-12.79810621078698,0.007026682457773688,0.0018416159897724838
0.630957344480193,2.0815976264514946,-0.5137679688899552,2.1440630131378615,-13.864322453430146,0.007254868235059876,0.0020250707407453786
0.5011872336272715,2.1609408085372412,-0.5696398934499775,2.2347605657455314,-14.767644524718527,0.007528403357783703,0.002213123283230027
0.3981071705534969,2.267447122282805,-0.6247908622729934,2.3519523961867095,-15.405445755553721,0.007851379669059853,0.002395212443173591
0.31622776601683794,2.393214455374388,-0.6721190051684515,2.4858035695769605,-15.6870583348954,0.008224304552279883,0.0025580000601027
