Freq,Zreal,Zimag,Zmod,Zphz,sigma_re,sigma_im
50118.72336272725,1.4842022396156842,1.4110782101566128,2.047925292401801,43.553229008054785,0.020868764578248544,0.020868764578248544
39810.71705534977,1.3353385704413216,1.1244574942616579,1.7457186927192705,40.099949942818455,0.0178928219787284,0.0178928219787284
31622.776601683792,1.2271779994560772,0.9201107108751458,1.5338088416149471,36.8617455779688,0.015541619175878759,0.015541619175878759
25118.864315095823,1.1800269390291032,0.7190468746714603,1.381843690440127,31.355950731599908,0.013710067713680897,0.013710067713680897
19952.62314968879,1.1265399943823424,0.5795164118521953,1.2668589623746644,27.222264585037358,0.012293464619538015,0.012293464619538015
15848.93192461114,1.11857297692862,0.4637069977582291,1.210879715118271,22.516563870517054,0.011201128781144896,0.011201128781144896
12589.254117941662,1.0927286267051481,0.35442848879505146,1.1487712589068648,17.97056375190371,0.01035975156696457,0.01035975156696457
10000.0,1.094392618156303,0.2543278884407446,1.12355590760484,13.082852070491299,0.009712174690671182,0.009712174690671182
7943.282347242822,1.075312022775126,0.1860684776324658,1.0912916313677095,9.81706478487786,0.009214667580742342,0.009214667580742342
6309.573444801937,1.0942902575558016,0.12476786042060437,1.1013801281916602,6.504612287176354,0.00883408801609986,0.00883408801609986
5011.872336272725,1.1066650740561428,0.06850668145653044,1.1087834556575393,3.5423015468683117,0.008545431348909095,0.008545431348909095
3981.0717055349733,1.1094395857348867,0.05059768050634737,1.1105927785053435,2.611251784351074,0.00832987720365846,0.00832987720365846
3162.2776601683795,1.1227744825376236,-0.004504179500954917,1.1227835170996256,-0.2298494445638386,0.00817328937409589,0.00817328937409589
2511.886431509582,1.1502083697459058,-0.010303324966998664,1.1502545163305857,-0.5132298302695942,0.008387048206127299,0.008387048206127299
1995.2623149688789,1.153544468982773,-0.04503213800914607,1.1544231180006845,-2.2355808775912873,0.008667531498218665,0.008667531498218665
1584.893192461114,1.1757397450972975,-0.07507016021224606,1.178133896106784,-3.653336266084073,0.008935816431803236,0.008935816431803236
1258.9254117941675,1.186952873220905,-0.0818171483251152,1.1897693763950288,-3.943184255255609,0.009195866053394022,0.009195866053394022
1000.0,1.212377154576172,-0.0905414283507286,1.2157533118137105,-4.270972612008299,0.009450511173859932,0.009450511173859932
794.3282347242822,1.2426945867414196,-0.10631495271067237,1.2472340217803153,-4.889859357683272,0.009701579240258398,0.009701579240258398
630.957344480193,1.2593844657392803,-0.12189960359093853,1.2652702264342746,-5.528607817489259,0.009950021448298261,0.009950021448298261
501.18723362727246,1.2805966745420503,-0.13784460194412584,1.2879941681286031,-6.143715001615673,0.01019604192154995,0.01019604192154995
398.1071705534973,1.2823829244149407,-0.15265620804896718,1.2914371384960652,-6.788603376855229,0.010439233234076362,0.010439233234076362
316.22776601683796,1.3279530847927152,-0.1546629313846518,1.3369293241435696,-6.643147692400669,0.010678721095892931,0.010678721095892931
251.18864315095797,1.3389594952399289,-0.15421689828257398,1.34781133012342,-6.570186622984464,0.010913318303088794,0.010913318303088794
199.52623149688787,1.376079321710917,-0.13764012026123537,1.3829458060046695,-5.711920079659756,0.01114168477345566,0.01114168477345566
158.48931924611142,1.4112088726669099,-0.18080231076461423,1.422743813155283,-7.300890165223829,0.01136248742278607,0.01136248742278607
125.89254117941675,1.438005788664105,-0.159997426869307,1.4468793401096975,-6.348811239079907,0.011574551555251252,0.011574551555251252
100.0,1.4601646346958876,-0.1959321127580469,1.4732515580261256,-7.642579531201763,0.011776994930527225,0.011776994930527225
79.43282347242814,1.4508850002687084,-0.17346382484001577,1.4612176369496974,-6.817764668624512,0.011969336962718624,0.011969336962718624
63.0957344480193,1.5126995924625672,-0.15891173959784685,1.5210236678035063,-5.997025663603765,0.012151578389568861,0.012151578389568861
50.11872336272725,1.5502721333938152,-0.1761397140410229,1.5602464184992908,-6.482067594071742,0.012324250618262178,0.012324250618262178
39.810717055349734,1.5491115827943451,-0.15995099034387547,1.5573474292076215,-5.895091812276507,0.012488437985752391,0.012488437985752391
31.622776601683793,1.6101260908676156,-0.16178853805534932,1.6182340867559046,-5.737929616967575,0.012645779575708659,0.012645779575708659
25.118864315095795,1.6394495969265632,-0.16049510684013493,1.647286757119809,-5.591196079920631,0.012798459459332506,0.012798459459332506
19.952623149688787,1.5990810582967256,-0.1567805272386423,1.6067483825181224,-5.5996187958438846,0.0129491950654778,0.0129491950654778
15.848931924611142,1.6397709327811054,-0.18021118830603616,1.6496438356155823,-6.271649874395564,0.013101232947449555,0.013101232947449555
12.589254117941675,1.671333242320092,-0.15646085312726335,1.6786407612844096,-5.348123139446697,0.013258359805719789,0.013258359805719789
10.0,1.6722335126786942,-0.1510600069484564,1.6790425982163146,-5.161762816024553,0.013424934582914287,0.013424934582914287
7.943282347242813,1.7105802943308919,-0.164480121920525,1.7184698582925892,-5.4923659581319475,0.013605944974938031,0.013605944974938031
6.30957344480193,1.7307926739027903,-0.1876561605432565,1.7409359880895698,-6.18795655876423,0.013807088746275797,0.013807088746275797
5.011872336272725,1.7443877870785693,-0.18519960663614815,1.7541914507849627,-6.0603235008467164,0.01403487638418222,0.01403487638418222
3.981071705534969,1.7892410262865206,-0.1959672581505825,1.7999407258056856,-6.250427063696361,0.014296746009968397,0.014296746009968397
3.1622776601683795,1.791532829463853,-0.24010144655519758,1.8075504373833273,-7.633302581554902,0.014601172683127814,0.014601172683127814
2.5118864315095824,1.8085048880150276,-0.22011367905141282,1.8218506968683785,-6.939355890048599,0.014957740312540954,0.014957740312540954
1.9952623149688788,1.8398934024944589,-0.303765201769018,1.8648005336626243,-9.37492638471196,0.015377122967354318,0.015377122967354318
1.584893192461114,1.8716237264992637,-0.3307706063868166,1.9006274142094481,-10.022350285269729,0.015870891491031776,0.015870891491031776
1.2589254117941662,1.9134622262606404,-0.38616953239891305,1.9520411366258452,-11.410009131946243,0.016451021501239633,0.016451021501239633
1.0,1.9492748938292104,-0.41731858874782735,1.9934461157070078,-12.083988321520803,0.017128937645290176,0.017128937645290176
0.7943282347242805,2.0033710578855537,-0.5222038039032975,2.0703121524022787,-14.609767956068286,0.017913908594697298,0.017913908594697298
0.630957344480193,2.0984215926758765,-0.49195105932837124,2.1553164559717604,-13.19406593424393,0.018810653722487088,0.018810653722487088
0.5011872336272725,2.1619877506810234,-0.5971999067959437,2.2429531343235585,-15.441602575305991,0.019816207018160246,0.019816207018160246
0.3981071705534969,2.3061602888553865,-0.6375977853872542,2.3926776242996652,-15.45483996074039,0.020916475260567304,0.020916475260567304
0.31622776601683794,2.411778197972104,-0.6673017595472485,2.5023919985702525,-15.465944066592145,0.022083507030826986,0.022083507030826986
