EXPLAIN
TAG	EISPOT
TITLE	LABEL	Potentiostatic EIS	Test Identifier
DATE	LABEL	8/31/2020	Date
TIME	LABEL	16:39:19	Time
NOTES	NOTES	1	Notes...
	
PSTAT	PSTAT	IFC5000-07522	Potentiostat
VDC	POTEN	-5.00000E-001	T	DC Voltage (V)
FREQINIT	QUANT	1.00000E+005	Initial Freq. (Hz)
FREQFINAL	QUANT	1.00000E-001	Final Freq. (Hz)
PTSPERDEC	QUANT	1.00000E+001	Points/decade
VAC	QUANT	1.00000E+001	AC Voltage (mV rms)
AREA	QUANT	1.00000E+000	Sample Area (cm^2)
SPEED	SELECTOR	1	Optimize for:
ZGUESS	QUANT	1.00000E+000	Estimated Z (ohms)
EOC	QUANT	1.05498	Open Circuit (V)
SEQUENCER	TOGGLE	TRUE	Run as Sequence
PSTATMODEL	IQUANT	53	Pstat Model
PSTATSECTION	LABEL	IFC5000-07522	Pstat Section
PSTATSERIALNO	LABEL	07522	Pstat Serial Number
CTRLMODE	IQUANT	1	Control Mode
ELECTROMETER	IQUANT	0	RE=0 or CS=1
IESTAB	IQUANT	0	I/E Stability
CASPEED	IQUANT	3	Control Amp Speed
CONVENTION	IQUANT	1	Current Convention
ICHRANGE	IQUANT	2	Ich Range
ICHRANGEMODE	TOGGLE	F	Ich Auto Range
ICHOFFSETENABLE	TOGGLE	T	Ich Offset Enable
ICHOFFSET	QUANT	0	Ich Offset (V)
ICHFILTER	IQUANT	4	Ich Filter
VCHRANGE	IQUANT	2	Vch Range
VCHRANGEMODE	TOGGLE	F	Vch Auto Range
VCHOFFSETENABLE	TOGGLE	T	Vch Offset Enable
VCHOFFSET	QUANT	0	Vch Offset (V)
VCHFILTER	IQUANT	4	Vch Filter
IERANGELOWERLIMIT	IQUANT	7	I/E Range Lower Limit
IERANGEMODE	TOGGLE	F	I/E AutoRange
IERANGE	IQUANT	10	I/E Range
ACHSELECT	IQUANT	0	Ach Select
ACHRANGE	IQUANT	2	Ach Range
ACHOFFSETENABLE	TOGGLE	F	Ach Offset Enable
ACHOFFSET	QUANT	0	Ach Offset (V)
ACHFILTER	IQUANT	1	Ach Filter
SENSECABLEID	IQUANT	14	Sense Cable ID
PWRCABLEID	IQUANT	7	Power Cable ID
DCCALDATE	LABEL	10/28/2019	DC Calibration Date
ACCALDATE	LABEL	10/14/2019	AC Calibration Date
FRAMEWORKVERSION	LABEL	7.8.1	Framework Version
INSTRUMENTVERSION	LABEL	4.40	Instrument Version
ZCURVE	TABLE
	Pt	Time	Freq	Zreal	Zimag	Zsig	Zmod	Zphz	Idc	Vdc	IERange
	#	s	Hz	ohm	ohm	V	ohm	°	A	V	#
	0	3	100195.3	0.6641507	0.1476726	1	0.68037	12.53568	-0.3350581	0.555284	11
	1	4	79570.31	0.6694432	0.1019441	1	0.6771609	8.658587	-0.3350196	0.5552833	11
	2	5	63164.06	0.6762531	0.0640128	1	0.679276	5.407393	-0.3348324	0.5552869	11
	3	7	50273.44	0.6842549	0.0325235	1	0.6850274	2.721294	-0.33476	0.5552834	11
	4	8	39960.94	0.6933419	0.0058721	1	0.6933667	0.4852414	-0.3347142	0.5552803	11
	5	10	31757.81	0.703876	-0.0168888	1	0.7040786	-1.374488	-0.3346767	0.5552953	11
	6	11	25195.31	0.7156746	-0.0366181	1	0.7166108	-2.929034	-0.3345574	0.5552838	11
	7	12	20039.06	0.728474	-0.0536876	1	0.7304496	-4.215008	-0.3342542	0.5552777	11
	8	14	15663.11	0.7437372	-0.0700049	1	0.7470246	-5.377169	-0.3342007	0.5552996	11
	9	15	12461.89	0.7592233	-0.0829386	1	0.7637401	-6.234346	-0.3343961	0.5552934	11
	10	16	9946.65	0.7752672	-0.0946342	1	0.7810217	-6.959472	-0.3340533	0.5553071	11
	11	18	7888.72	0.792876	-0.1052514	1	0.7998314	-7.561598	-0.3340591	0.5553194	11
	12	19	6288.11	0.8109619	-0.1142976	1	0.8189769	-8.022469	-0.3340679	0.5552971	11
	13	20	5039.063	0.8293515	-0.1226739	1	0.8383752	-8.413924	-0.3341184	0.555297	11
	14	22	4001.524	0.8491324	-0.1304689	1	0.8590972	-8.735162	-0.3340373	0.5552965	11
	15	23	3164.063	0.8697201	-0.1380401	1	0.8806067	-9.018637	-0.3338662	0.5552981	11
	16	25	2507.267	0.8903231	-0.145604	1	0.9021506	-9.287966	-0.3338819	0.5552949	11
	17	26	1979.167	0.9115335	-0.1537045	1	0.9244016	-9.57129	-0.3340202	0.5552995	11
	18	27	1598.011	0.9311564	-0.1616405	1	0.9450819	-9.8479	-0.3339108	0.5552962	11
	19	28	1257.622	0.953777	-0.1719371	1	0.96915	-10.21894	-0.3338772	0.5552964	11
	20	30	1004.464	0.97611	-0.183001	1	0.993116	-10.61854	-0.333944	0.555302	11
	21	31	800.3049	0.9998	-0.1957328	1	1.018779	-11.07682	-0.3338525	0.5552917	11
	22	32	631.0096	1.026937	-0.2113446	1	1.048459	-11.62916	-0.3337781	0.5552887	11
	23	34	498.6702	1.055412	-0.2290018	1	1.079971	-12.24219	-0.3339004	0.5552823	11
	24	35	397.2458	1.087145	-0.2488015	1	1.115251	-12.89059	-0.3341113	0.5552753	11
	25	36	319.6023	1.120591	-0.2697083	1	1.152591	-13.53278	-0.3338573	0.5552761	11
	26	37	251.1161	1.163357	-0.2944288	1	1.200037	-14.2025	-0.3341031	0.555284	11
	27	38	200.8929	1.208972	-0.3196543	1	1.250517	-14.81019	-0.3337148	0.5552755	11
	28	40	158.0056	1.267603	-0.3436602	1	1.313362	-15.16885	-0.3337755	0.5552812	11
	29	41	125.558	1.331262	-0.3626984	1	1.379786	-15.24017	-0.3337476	0.5552878	11
	30	42	99.734	1.401433	-0.3767353	1	1.451187	-15.04663	-0.333773	0.555277	11
	31	43	79.44915	1.478542	-0.3760628	1	1.525617	-14.27042	-0.333453	0.5552901	11
	32	45	63.34459	1.55182	-0.3650643	1	1.594182	-13.23808	-0.3337345	0.5552931	11
	33	46	49.86702	1.622783	-0.3300297	1	1.656002	-11.49562	-0.33347	0.555291	11
	34	47	39.72458	1.681009	-0.3112821	1	1.709587	-10.49095	-0.3336407	0.5552914	11
	35	48	31.88775	1.723022	-0.2722009	1	1.744391	-8.977324	-0.3337287	0.5552877	11
	36	50	24.93351	1.764254	-0.2378411	1	1.780214	-7.67782	-0.3335764	0.555295	11
	37	51	19.94681	1.818314	-0.2197875	1	1.831549	-6.892153	-0.3334798	0.5552866	11
	38	52	15.94388	1.817209	-0.1737921	1	1.825501	-5.46297	-0.3336844	0.5552944	11
	39	54	12.40079	1.830683	-0.1577899	1	1.83747	-4.926252	-0.3335092	0.5552953	11
	40	55	9.91015	1.820653	-0.1560834	1	1.827331	-4.899951	-0.3335047	0.5552897	11
	41	57	7.971939	1.86811	-0.1030398	1	1.870949	-3.15708	-0.333634	0.5552934	11
	42	59	6.351626	1.865868	-0.1152111	1	1.869421	-3.533338	-0.3335421	0.5552884	11
	43	61	4.970838	1.885248	-0.0957718	1	1.887679	-2.908161	-0.3335716	0.5552895	11
	44	63	3.942389	1.892815	-0.0824107	1	1.894608	-2.49301	-0.33369	0.5552918	11
	45	65	3.16723	1.899695	-0.0745146	1	1.901156	-2.246247	-0.3338223	0.5552952	11
	46	69	2.485419	1.915552	-0.0609939	1	1.916523	-1.823764	-0.3337564	0.5552943	11
	47	72	1.971194	1.907458	-0.0802218	1	1.909144	-2.408264	-0.3337403	0.5552948	11
	48	75	1.583615	1.935228	-0.0565511	1	1.936055	-1.673816	-0.3337742	0.5552963	11
	49	81	1.260081	1.935003	-0.0684677	1	1.936214	-2.026495	-0.3337008	0.555297	11
	50	86	1.001603	1.94203	-0.0345141	1	1.942337	-1.018163	-0.3335538	0.5552958	11
	51	93	0.7971939	1.952093	-0.0359802	1	1.952425	-1.055934	-0.3335497	0.5552955	11
	52	100	0.6334459	1.970606	-0.0224849	1	1.970734	-0.6537235	-0.3335454	0.5552947	11
	53	109	0.5029507	1.958715	-0.0100337	1	1.958741	-0.2934999	-0.333474	0.5552936	11
	54	118	0.3985969	1.973571	-0.0114249	1	1.973604	-0.3316796	-0.3334958	0.5552949	11
	55	129	0.316723	1.97332	-0.0210582	1	1.973432	-0.6114077	-0.3335531	0.5552934	11
	56	143	0.2514753	1.978777	0.002898	1	1.978779	0.0839131	-0.3336954	0.555296	11
	57	164	0.199638	1.959724	-0.0063283	1	1.959734	-0.185018	-0.3340941	0.5552955	11
	58	185	0.1585758	1.943107	0.0160297	1	1.943174	0.4726529	-0.3343779	0.5552938	11
	59	217	0.1260081	1.954113	0.0186919	1	1.954202	0.54804	-0.3341151	0.5552957	11
	60	258	0.1000747	1.944187	0.0235922	1	1.94433	0.6952345	-0.3343411	0.555295	11
