EXPLAIN
TAG	EISPOT
PDAC_COM3_02109


Contact Size, 0.000000_mm^2
DC offset,0.000000_Volts
Amplitude,0.030000_Volts

Contact X position (mm), -10.500000
Contact Y position (mm), 0.000000
 Substrate Temp (C),2064.618820







ZCURVE	TABLE
	Pt	Time	Freq	Zreal	Zimag	Zsig	Zmod	Zphz	Idc	Vdc	IERange
	#	s	Hz	ohm	ohm	V	ohm	°	A	V	#
	1.000000E+0	0.000000E+0	1.000020E+6	1.798840E+3	-4.575437E+2	1.000000E+0	1.856117E+3	-1.427084E+1	0.000000E+0	0.000000E+0	9.000000E+0	
	1.000000E+0	0.000000E+0	8.577539E+5	2.417588E+2	-1.373616E+3	1.000000E+0	1.394729E+3	-8.001807E+1	0.000000E+0	0.000000E+0	9.000000E+0	
	1.000000E+0	0.000000E+0	7.356445E+5	2.392145E+2	-1.613416E+3	1.000000E+0	1.631053E+3	-8.156644E+1	0.000000E+0	0.000000E+0	9.000000E+0	
	1.000000E+0	0.000000E+0	6.309961E+5	2.408618E+2	-1.882733E+3	1.000000E+0	1.898078E+3	-8.270963E+1	0.000000E+0	0.000000E+0	9.000000E+0	
	1.000000E+0	0.000000E+0	5.412305E+5	2.513490E+2	-2.205681E+3	1.000000E+0	2.219956E+3	-8.349889E+1	0.000000E+0	0.000000E+0	9.000000E+0	
	1.000000E+0	0.000000E+0	4.642383E+5	2.502564E+2	-2.572460E+3	1.000000E+0	2.584604E+3	-8.444358E+1	0.000000E+0	0.000000E+0	9.000000E+0	
	1.000000E+0	0.000000E+0	3.981445E+5	2.654278E+2	-2.996698E+3	1.000000E+0	3.008430E+3	-8.493832E+1	0.000000E+0	0.000000E+0	9.000000E+0	
	1.000000E+0	0.000000E+0	3.415430E+5	2.848137E+2	-3.522824E+3	1.000000E+0	3.534319E+3	-8.537780E+1	0.000000E+0	0.000000E+0	9.000000E+0	
	1.000000E+0	0.000000E+0	2.929102E+5	3.090076E+2	-4.075154E+3	1.000000E+0	4.086853E+3	-8.566372E+1	0.000000E+0	0.000000E+0	8.000000E+0	
	1.000000E+0	0.000000E+0	2.511914E+5	2.876299E+2	-4.747388E+3	1.000000E+0	4.756093E+3	-8.653286E+1	0.000000E+0	0.000000E+0	8.000000E+0	
	1.000000E+0	0.000000E+0	2.154492E+5	5.102678E+2	-5.411504E+3	1.000000E+0	5.435508E+3	-8.461333E+1	0.000000E+0	0.000000E+0	8.000000E+0	
	1.000000E+0	0.000000E+0	1.848633E+5	5.374457E+2	-6.258156E+3	1.000000E+0	6.281191E+3	-8.509152E+1	0.000000E+0	0.000000E+0	8.000000E+0	
	1.000000E+0	0.000000E+0	1.584961E+5	5.855248E+2	-7.201751E+3	1.000000E+0	7.225514E+3	-8.535190E+1	0.000000E+0	0.000000E+0	8.000000E+0	
	1.000000E+0	0.000000E+0	1.359961E+5	6.373447E+2	-8.281723E+3	1.000000E+0	8.306211E+3	-8.559930E+1	0.000000E+0	0.000000E+0	8.000000E+0	
	1.000000E+0	0.000000E+0	1.166602E+5	6.825791E+2	-9.450916E+3	1.000000E+0	9.475533E+3	-8.586906E+1	0.000000E+0	0.000000E+0	8.000000E+0	
	1.000000E+0	0.000000E+0	1.000195E+5	3.581078E+2	-1.214683E+4	1.000000E+0	1.215210E+4	-8.831132E+1	0.000000E+0	0.000000E+0	8.000000E+0	
	1.000000E+0	0.000000E+0	8.583984E+4	4.229443E+2	-1.386926E+4	1.000000E+0	1.387571E+4	-8.825330E+1	0.000000E+0	0.000000E+0	8.000000E+0	
	1.000000E+0	0.000000E+0	7.365234E+4	4.715479E+2	-1.615093E+4	1.000000E+0	1.615781E+4	-8.832765E+1	0.000000E+0	0.000000E+0	8.000000E+0	
	1.000000E+0	0.000000E+0	6.310547E+4	5.296292E+2	-1.884414E+4	1.000000E+0	1.885158E+4	-8.839008E+1	0.000000E+0	0.000000E+0	8.000000E+0	
	1.000000E+0	0.000000E+0	5.419922E+4	5.595527E+2	-2.192929E+4	1.000000E+0	2.193643E+4	-8.853835E+1	0.000000E+0	0.000000E+0	8.000000E+0	
	1.000000E+0	0.000000E+0	4.646484E+4	7.662338E+2	-2.562623E+4	1.000000E+0	2.563769E+4	-8.828735E+1	0.000000E+0	0.000000E+0	8.000000E+0	
	1.000000E+0	0.000000E+0	3.990234E+4	8.833079E+2	-2.974159E+4	1.000000E+0	2.975470E+4	-8.829885E+1	0.000000E+0	0.000000E+0	8.000000E+0	
	1.000000E+0	0.000000E+0	3.416016E+4	1.121352E+3	-3.462905E+4	1.000000E+0	3.464720E+4	-8.814531E+1	0.000000E+0	0.000000E+0	8.000000E+0	
	1.000000E+0	0.000000E+0	2.935547E+4	1.201800E+3	-4.030487E+4	1.000000E+0	4.032279E+4	-8.829208E+1	0.000000E+0	0.000000E+0	8.000000E+0	
	1.000000E+0	0.000000E+0	2.513672E+4	1.490790E+3	-4.699794E+4	1.000000E+0	4.702158E+4	-8.818317E+1	0.000000E+0	0.000000E+0	8.000000E+0	
	1.000000E+0	0.000000E+0	2.162109E+4	1.785310E+3	-5.438022E+4	1.000000E+0	5.440952E+4	-8.811964E+1	0.000000E+0	0.000000E+0	8.000000E+0	
	1.000000E+0	0.000000E+0	1.857422E+4	2.272962E+3	-6.335149E+4	1.000000E+0	6.339225E+4	-8.794519E+1	0.000000E+0	0.000000E+0	8.000000E+0	
	1.000000E+0	0.000000E+0	1.587891E+4	3.081184E+3	-7.416416E+4	1.000000E+0	7.422813E+4	-8.762099E+1	0.000000E+0	0.000000E+0	7.000000E+0	
	1.000000E+0	0.000000E+0	1.365234E+4	3.988116E+3	-8.635796E+4	1.000000E+0	8.645000E+4	-8.735589E+1	0.000000E+0	0.000000E+0	7.000000E+0	
	1.000000E+0	0.000000E+0	1.166016E+4	5.227062E+3	-1.006833E+5	1.000000E+0	1.008189E+5	-8.702811E+1	0.000000E+0	0.000000E+0	7.000000E+0	
	1.000000E+0	0.000000E+0	1.001953E+4	6.755146E+3	-1.167556E+5	1.000000E+0	1.169509E+5	-8.668872E+1	0.000000E+0	0.000000E+0	7.000000E+0	
	1.000000E+0	0.000000E+0	8.613281E+3	8.454104E+3	-1.363908E+5	1.000000E+0	1.366526E+5	-8.645309E+1	0.000000E+0	0.000000E+0	7.000000E+0	
	1.000000E+0	0.000000E+0	7.349537E+3	1.031767E+4	-1.595458E+5	1.000000E+0	1.598791E+5	-8.629989E+1	0.000000E+0	0.000000E+0	7.000000E+0	
	1.000000E+0	0.000000E+0	6.307871E+3	1.377859E+4	-1.846551E+5	1.000000E+0	1.851684E+5	-8.573261E+1	0.000000E+0	0.000000E+0	7.000000E+0	
	1.000000E+0	0.000000E+0	5.381944E+3	1.968450E+4	-2.153883E+5	1.000000E+0	2.162860E+5	-8.477820E+1	0.000000E+0	0.000000E+0	7.000000E+0	
	1.000000E+0	0.000000E+0	4.630335E+3	2.518335E+4	-2.493198E+5	1.000000E+0	2.505884E+5	-8.423222E+1	0.000000E+0	0.000000E+0	7.000000E+0	
	1.000000E+0	0.000000E+0	3.993056E+3	3.289855E+4	-2.875663E+5	1.000000E+0	2.894420E+5	-8.347354E+1	0.000000E+0	0.000000E+0	7.000000E+0	
	1.000000E+0	0.000000E+0	3.414352E+3	4.359367E+4	-3.339564E+5	1.000000E+0	3.367897E+5	-8.256284E+1	0.000000E+0	0.000000E+0	7.000000E+0	
	1.000000E+0	0.000000E+0	2.915396E+3	5.772197E+4	-3.878780E+5	1.000000E+0	3.921494E+5	-8.153566E+1	0.000000E+0	0.000000E+0	7.000000E+0	
	1.000000E+0	0.000000E+0	2.519531E+3	7.470792E+4	-4.442985E+5	1.000000E+0	4.505357E+5	-8.045512E+1	0.000000E+0	0.000000E+0	7.000000E+0	
	1.000000E+0	0.000000E+0	2.141204E+3	9.932605E+4	-5.163883E+5	1.000000E+0	5.258541E+5	-7.911227E+1	0.000000E+0	0.000000E+0	7.000000E+0	
	1.000000E+0	0.000000E+0	1.841518E+3	1.287521E+5	-5.910803E+5	1.000000E+0	6.049406E+5	-7.771149E+1	0.000000E+0	0.000000E+0	7.000000E+0	
	1.000000E+0	0.000000E+0	1.580669E+3	1.707720E+5	-6.762342E+5	1.000000E+0	6.974638E+5	-7.582720E+1	0.000000E+0	0.000000E+0	6.000000E+0	
	1.000000E+0	0.000000E+0	1.362645E+3	2.186050E+5	-7.668624E+5	1.000000E+0	7.974121E+5	-7.408904E+1	0.000000E+0	0.000000E+0	6.000000E+0	
	1.000000E+0	0.000000E+0	1.171875E+3	2.782288E+5	-8.675466E+5	1.000000E+0	9.110699E+5	-7.221856E+1	0.000000E+0	0.000000E+0	6.000000E+0	
	1.000000E+0	0.000000E+0	1.000702E+3	3.579906E+5	-9.814600E+5	1.000000E+0	1.044711E+6	-6.996040E+1	0.000000E+0	0.000000E+0	6.000000E+0	
	1.000000E+0	0.000000E+0	8.574695E+2	4.539114E+5	-1.098203E+6	1.000000E+0	1.188312E+6	-6.754361E+1	0.000000E+0	0.000000E+0	6.000000E+0	
	1.000000E+0	0.000000E+0	7.341868E+2	5.711951E+5	-1.218590E+6	1.000000E+0	1.345817E+6	-6.488589E+1	0.000000E+0	0.000000E+0	6.000000E+0	
	1.000000E+0	0.000000E+0	6.288110E+2	7.130288E+5	-1.336134E+6	1.000000E+0	1.514484E+6	-6.191335E+1	0.000000E+0	0.000000E+0	6.000000E+0	
	1.000000E+0	0.000000E+0	5.427632E+2	8.690167E+5	-1.446510E+6	1.000000E+0	1.687478E+6	-5.900391E+1	0.000000E+0	0.000000E+0	6.000000E+0	
	1.000000E+0	0.000000E+0	4.635989E+2	1.055544E+6	-1.555717E+6	1.000000E+0	1.880008E+6	-5.584335E+1	0.000000E+0	0.000000E+0	6.000000E+0	
	1.000000E+0	0.000000E+0	4.001524E+2	1.252288E+6	-1.644689E+6	1.000000E+0	2.067178E+6	-5.271389E+1	0.000000E+0	0.000000E+0	6.000000E+0	
	1.000000E+0	0.000000E+0	3.417969E+2	1.479105E+6	-1.710651E+6	1.000000E+0	2.261433E+6	-4.915184E+1	0.000000E+0	0.000000E+0	6.000000E+0	
	1.000000E+0	0.000000E+0	2.929687E+2	1.714558E+6	-1.759667E+6	1.000000E+0	2.456855E+6	-4.574389E+1	0.000000E+0	0.000000E+0	6.000000E+0	
	1.000000E+0	0.000000E+0	2.520161E+2	1.949970E+6	-1.778121E+6	1.000000E+0	2.638958E+6	-4.236077E+1	0.000000E+0	0.000000E+0	6.000000E+0	
	1.000000E+0	0.000000E+0	2.150229E+2	2.197220E+6	-1.771141E+6	1.000000E+0	2.822183E+6	-3.887169E+1	0.000000E+0	0.000000E+0	6.000000E+0	
	1.000000E+0	0.000000E+0	1.845472E+2	2.422347E+6	-1.751343E+6	1.000000E+0	2.989142E+6	-3.586672E+1	0.000000E+0	0.000000E+0	6.000000E+0	
	1.000000E+0	0.000000E+0	1.580056E+2	2.650632E+6	-1.682858E+6	1.000000E+0	3.139724E+6	-3.241102E+1	0.000000E+0	0.000000E+0	5.000000E+0	
	1.000000E+0	0.000000E+0	1.365291E+2	2.829834E+6	-1.617011E+6	1.000000E+0	3.259246E+6	-2.974431E+1	0.000000E+0	0.000000E+0	5.000000E+0	
	1.000000E+0	0.000000E+0	1.162190E+2	3.032317E+6	-1.556302E+6	1.000000E+0	3.408376E+6	-2.716865E+1	0.000000E+0	0.000000E+0	5.000000E+0	
	1.000000E+0	0.000000E+0	9.973404E+1	3.190564E+6	-1.457564E+6	1.000000E+0	3.507734E+6	-2.455261E+1	0.000000E+0	0.000000E+0	5.000000E+0	
	1.000000E+0	0.000000E+0	8.600917E+1	3.374738E+6	-1.461516E+6	1.000000E+0	3.677620E+6	-2.341625E+1	0.000000E+0	0.000000E+0	5.000000E+0	
	1.000000E+0	0.000000E+0	7.381890E+1	3.467908E+6	-1.477200E+6	1.000000E+0	3.769418E+6	-2.307220E+1	0.000000E+0	0.000000E+0	5.000000E+0	
	1.000000E+0	0.000000E+0	6.291946E+1	3.215024E+6	-8.407429E+5	1.000000E+0	3.323135E+6	-1.465492E+1	0.000000E+0	0.000000E+0	5.000000E+0	
	1.000000E+0	0.000000E+0	5.387931E+1	3.312733E+6	-1.305788E+6	1.000000E+0	3.560798E+6	-2.151299E+1	0.000000E+0	0.000000E+0	5.000000E+0	
	1.000000E+0	0.000000E+0	4.641089E+1	3.855146E+6	-1.007794E+6	1.000000E+0	3.984695E+6	-1.465015E+1	0.000000E+0	0.000000E+0	5.000000E+0	
	1.000000E+0	0.000000E+0	3.972458E+1	3.923759E+6	-9.918988E+5	1.000000E+0	4.047190E+6	-1.418676E+1	0.000000E+0	0.000000E+0	5.000000E+0	
	1.000000E+0	0.000000E+0	3.421533E+1	3.949470E+6	-9.632491E+5	1.000000E+0	4.065239E+6	-1.370646E+1	0.000000E+0	0.000000E+0	5.000000E+0	
	1.000000E+0	0.000000E+0	2.929688E+1	3.996331E+6	-9.468489E+5	1.000000E+0	4.106968E+6	-1.332928E+1	0.000000E+0	0.000000E+0	5.000000E+0	
	1.000000E+0	0.000000E+0	2.520161E+1	4.075486E+6	-8.807388E+5	1.000000E+0	4.169566E+6	-1.219446E+1	0.000000E+0	0.000000E+0	5.000000E+0	
	1.000000E+0	0.000000E+0	2.150229E+1	4.142766E+6	-8.459489E+5	1.000000E+0	4.228256E+6	-1.154108E+1	0.000000E+0	0.000000E+0	5.000000E+0	
	1.000000E+0	0.000000E+0	1.838235E+1	4.226479E+6	-8.282799E+5	1.000000E+0	4.306875E+6	-1.108796E+1	0.000000E+0	0.000000E+0	5.000000E+0	
	1.000000E+0	0.000000E+0	1.578283E+1	4.272909E+6	-8.095048E+5	1.000000E+0	4.348914E+6	-1.072758E+1	0.000000E+0	0.000000E+0	5.000000E+0	
	1.000000E+0	0.000000E+0	1.362645E+1	4.339657E+6	-7.790659E+5	1.000000E+0	4.409032E+6	-1.017747E+1	0.000000E+0	0.000000E+0	6.000000E+0	
	1.000000E+0	0.000000E+0	1.171875E+1	4.410996E+6	-8.054157E+5	1.000000E+0	4.483924E+6	-1.034780E+1	0.000000E+0	0.000000E+0	6.000000E+0	
	1.000000E+0	0.000000E+0	9.973404E+0	4.471187E+6	-8.025614E+5	1.000000E+0	4.542644E+6	-1.017602E+1	0.000000E+0	0.000000E+0	5.000000E+0	
	1.000000E+0	0.000000E+0	8.585165E+0	4.534348E+6	-8.201416E+5	1.000000E+0	4.607922E+6	-1.025242E+1	0.000000E+0	0.000000E+0	5.000000E+0	
	1.000000E+0	0.000000E+0	7.358713E+0	4.589717E+6	-8.214774E+5	1.000000E+0	4.662652E+6	-1.014748E+1	0.000000E+0	0.000000E+0	6.000000E+0	
	1.000000E+0	0.000000E+0	6.275100E+0	4.654616E+6	-8.468795E+5	1.000000E+0	4.731030E+6	-1.031183E+1	0.000000E+0	0.000000E+0	5.000000E+0	
	1.000000E+0	0.000000E+0	5.387931E+0	4.726296E+6	-8.715422E+5	1.000000E+0	4.805981E+6	-1.044813E+1	0.000000E+0	0.000000E+0	6.000000E+0	
	1.000000E+0	0.000000E+0	4.650298E+0	4.790434E+6	-8.970235E+5	1.000000E+0	4.873695E+6	-1.060599E+1	0.000000E+0	0.000000E+0	5.000000E+0	
	1.000000E+0	0.000000E+0	3.985969E+0	4.867810E+6	-9.636697E+5	1.000000E+0	4.962281E+6	-1.119793E+1	0.000000E+0	0.000000E+0	4.000000E+0	
	1.000000E+0	0.000000E+0	3.404140E+0	4.914706E+6	-1.005077E+6	1.000000E+0	5.016424E+6	-1.155786E+1	0.000000E+0	0.000000E+0	4.000000E+0	
	1.000000E+0	0.000000E+0	2.929687E+0	4.973158E+6	-1.047665E+6	1.000000E+0	5.082313E+6	-1.189620E+1	0.000000E+0	0.000000E+0	4.000000E+0	
	1.000000E+0	0.000000E+0	2.516103E+0	5.069525E+6	-1.098131E+6	1.000000E+0	5.187097E+6	-1.222225E+1	0.000000E+0	0.000000E+0	4.000000E+0	
	1.000000E+0	0.000000E+0	2.143347E+0	5.142271E+6	-1.162015E+6	1.000000E+0	5.271928E+6	-1.273344E+1	0.000000E+0	0.000000E+0	4.000000E+0	
	1.000000E+0	0.000000E+0	1.844020E+0	5.222560E+6	-1.229336E+6	1.000000E+0	5.365296E+6	-1.324570E+1	0.000000E+0	0.000000E+0	4.000000E+0	
	1.000000E+0	0.000000E+0	1.587906E+0	5.305088E+6	-1.301297E+6	1.000000E+0	5.462356E+6	-1.378209E+1	0.000000E+0	0.000000E+0	4.000000E+0	
	1.000000E+0	0.000000E+0	1.362645E+0	5.437591E+6	-1.393570E+6	1.000000E+0	5.613326E+6	-1.437463E+1	0.000000E+0	0.000000E+0	4.000000E+0	
	1.000000E+0	0.000000E+0	1.171875E+0	5.565862E+6	-1.488588E+6	1.000000E+0	5.761485E+6	-1.497329E+1	0.000000E+0	0.000000E+0	4.000000E+0	
	1.000000E+0	0.000000E+0	9.977650E-1	5.696758E+6	-1.594840E+6	1.000000E+0	5.915790E+6	-1.563989E+1	0.000000E+0	0.000000E+0	4.000000E+0	
	1.000000E+0	0.000000E+0	8.616728E-1	5.835304E+6	-1.705127E+6	1.000000E+0	6.079328E+6	-1.628883E+1	0.000000E+0	0.000000E+0	4.000000E+0	
	1.000000E+0	0.000000E+0	7.325363E-1	5.960850E+6	-1.833446E+6	1.000000E+0	6.236446E+6	-1.709692E+1	0.000000E+0	0.000000E+0	4.000000E+0	
	1.000000E+0	0.000000E+0	6.290258E-1	6.114122E+6	-1.962148E+6	1.000000E+0	6.421255E+6	-1.779251E+1	0.000000E+0	0.000000E+0	4.000000E+0	
	1.000000E+0	0.000000E+0	5.425347E-1	6.253672E+6	-2.098027E+6	1.000000E+0	6.596221E+6	-1.854594E+1	0.000000E+0	0.000000E+0	4.000000E+0	
	1.000000E+0	0.000000E+0	4.650298E-1	6.461706E+6	-2.268013E+6	1.000000E+0	6.848177E+6	-1.934071E+1	0.000000E+0	0.000000E+0	4.000000E+0	
	1.000000E+0	0.000000E+0	3.985969E-1	6.668592E+6	-2.444131E+6	1.000000E+0	7.102386E+6	-2.012858E+1	0.000000E+0	0.000000E+0	4.000000E+0	
	1.000000E+0	0.000000E+0	3.426535E-1	6.889912E+6	-2.632216E+6	1.000000E+0	7.375598E+6	-2.090881E+1	0.000000E+0	0.000000E+0	4.000000E+0	
	1.000000E+0	0.000000E+0	2.929687E-1	7.118026E+6	-2.821983E+6	1.000000E+0	7.657015E+6	-2.162614E+1	0.000000E+0	0.000000E+0	4.000000E+0	
	1.000000E+0	0.000000E+0	2.514753E-1	7.372012E+6	-3.030698E+6	1.000000E+0	7.970677E+6	-2.234799E+1	0.000000E+0	0.000000E+0	4.000000E+0	
	1.000000E+0	0.000000E+0	2.162131E-1	7.708592E+6	-3.268270E+6	1.000000E+0	8.372812E+6	-2.297585E+1	0.000000E+0	0.000000E+0	4.000000E+0	
	1.000000E+0	0.000000E+0	1.848383E-1	8.050588E+6	-3.501114E+6	1.000000E+0	8.778939E+6	-2.350370E+1	0.000000E+0	0.000000E+0	4.000000E+0	
	1.000000E+0	0.000000E+0	1.587906E-1	8.332612E+6	-3.687455E+6	1.000000E+0	9.112066E+6	-2.387097E+1	0.000000E+0	0.000000E+0	4.000000E+0	
	1.000000E+0	0.000000E+0	1.359484E-1	8.638094E+6	-3.859126E+6	1.000000E+0	9.460947E+6	-2.407302E+1	0.000000E+0	0.000000E+0	4.000000E+0	
	1.000000E+0	0.000000E+0	1.167206E-1	8.988081E+6	-4.018488E+6	1.000000E+0	9.845499E+6	-2.408897E+1	0.000000E+0	0.000000E+0	4.000000E+0	
	1.000000E+0	0.000000E+0	1.001603E-1	9.515918E+6	-4.264486E+6	1.000000E+0	1.042778E+7	-2.413918E+1	0.000000E+0	0.000000E+0	4.000000E+0	
