EXPLAIN
TAG	EISPOT
PDAC_COM3_02210
1e6 to 0.1 Hz; 15pts/dec; 30 mV; 1000 Ohm guess; 20s dwell; 1e9 max; 4min T dwell

Contact Size, 0.000000_mm^2
DC offset,0.000000_Volts
Amplitude,0.030000_Volts

Contact X position (mm), -7.000000
Contact Y position (mm), 34.500000
 Substrate Temp (C),2071.976333







ZCURVE	TABLE
	Pt	Time	Freq	Zreal	Zimag	Zsig	Zmod	Zphz	Idc	Vdc	IERange
	#	s	Hz	ohm	ohm	V	ohm	°	A	V	#
	1.000000E+0	0.000000E+0	1.000020E+6	7.944855E+2	-1.140605E+3	1.000000E+0	1.390031E+3	-5.514096E+1	0.000000E+0	0.000000E+0	9.000000E+0	
	1.000000E+0	0.000000E+0	8.577539E+5	9.002241E+2	-1.254046E+3	1.000000E+0	1.543708E+3	-5.432711E+1	0.000000E+0	0.000000E+0	9.000000E+0	
	1.000000E+0	0.000000E+0	7.356445E+5	1.018178E+3	-1.364609E+3	1.000000E+0	1.702600E+3	-5.327222E+1	0.000000E+0	0.000000E+0	9.000000E+0	
	1.000000E+0	0.000000E+0	6.309961E+5	1.150880E+3	-1.473966E+3	1.000000E+0	1.870053E+3	-5.201709E+1	0.000000E+0	0.000000E+0	9.000000E+0	
	1.000000E+0	0.000000E+0	5.412305E+5	1.292599E+3	-1.586559E+3	1.000000E+0	2.046456E+3	-5.082964E+1	0.000000E+0	0.000000E+0	9.000000E+0	
	1.000000E+0	0.000000E+0	4.642383E+5	1.435739E+3	-1.704028E+3	1.000000E+0	2.228241E+3	-4.988399E+1	0.000000E+0	0.000000E+0	9.000000E+0	
	1.000000E+0	0.000000E+0	3.981445E+5	1.602278E+3	-1.827066E+3	1.000000E+0	2.430116E+3	-4.875029E+1	0.000000E+0	0.000000E+0	9.000000E+0	
	1.000000E+0	0.000000E+0	3.415430E+5	1.781303E+3	-1.949065E+3	1.000000E+0	2.640435E+3	-4.757497E+1	0.000000E+0	0.000000E+0	9.000000E+0	
	1.000000E+0	0.000000E+0	2.929102E+5	1.961533E+3	-2.039915E+3	1.000000E+0	2.829994E+3	-4.612220E+1	0.000000E+0	0.000000E+0	8.000000E+0	
	1.000000E+0	0.000000E+0	2.511914E+5	2.167843E+3	-2.181984E+3	1.000000E+0	3.075808E+3	-4.518626E+1	0.000000E+0	0.000000E+0	8.000000E+0	
	1.000000E+0	0.000000E+0	2.154492E+5	2.403935E+3	-2.307522E+3	1.000000E+0	3.332201E+3	-4.382770E+1	0.000000E+0	0.000000E+0	8.000000E+0	
	1.000000E+0	0.000000E+0	1.848633E+5	2.656595E+3	-2.424753E+3	1.000000E+0	3.596794E+3	-4.238762E+1	0.000000E+0	0.000000E+0	8.000000E+0	
	1.000000E+0	0.000000E+0	1.584961E+5	2.936549E+3	-2.538748E+3	1.000000E+0	3.881824E+3	-4.084455E+1	0.000000E+0	0.000000E+0	8.000000E+0	
	1.000000E+0	0.000000E+0	1.359961E+5	3.205250E+3	-2.630843E+3	1.000000E+0	4.146681E+3	-3.937888E+1	0.000000E+0	0.000000E+0	8.000000E+0	
	1.000000E+0	0.000000E+0	1.166602E+5	3.506648E+3	-2.714277E+3	1.000000E+0	4.434397E+3	-3.774122E+1	0.000000E+0	0.000000E+0	8.000000E+0	
	1.000000E+0	0.000000E+0	1.000195E+5	4.338558E+3	-3.181582E+3	1.000000E+0	5.380106E+3	-3.625361E+1	0.000000E+0	0.000000E+0	8.000000E+0	
	1.000000E+0	0.000000E+0	8.583984E+4	4.069608E+3	-2.825817E+3	1.000000E+0	4.954488E+3	-3.477499E+1	0.000000E+0	0.000000E+0	8.000000E+0	
	1.000000E+0	0.000000E+0	7.365234E+4	4.352298E+3	-2.877166E+3	1.000000E+0	5.217334E+3	-3.346743E+1	0.000000E+0	0.000000E+0	8.000000E+0	
	1.000000E+0	0.000000E+0	6.310547E+4	4.632021E+3	-2.921679E+3	1.000000E+0	5.476480E+3	-3.224196E+1	0.000000E+0	0.000000E+0	8.000000E+0	
	1.000000E+0	0.000000E+0	5.419922E+4	4.897576E+3	-2.968834E+3	1.000000E+0	5.727148E+3	-3.122359E+1	0.000000E+0	0.000000E+0	8.000000E+0	
	1.000000E+0	0.000000E+0	4.646484E+4	5.153417E+3	-3.022695E+3	1.000000E+0	5.974479E+3	-3.039341E+1	0.000000E+0	0.000000E+0	8.000000E+0	
	1.000000E+0	0.000000E+0	3.990234E+4	5.388431E+3	-3.073960E+3	1.000000E+0	6.203581E+3	-2.970363E+1	0.000000E+0	0.000000E+0	8.000000E+0	
	1.000000E+0	0.000000E+0	3.416016E+4	5.628428E+3	-3.150567E+3	1.000000E+0	6.450215E+3	-2.923834E+1	0.000000E+0	0.000000E+0	8.000000E+0	
	1.000000E+0	0.000000E+0	2.935547E+4	5.840120E+3	-3.244006E+3	1.000000E+0	6.680612E+3	-2.905082E+1	0.000000E+0	0.000000E+0	8.000000E+0	
	1.000000E+0	0.000000E+0	2.513672E+4	6.070780E+3	-3.379515E+3	1.000000E+0	6.948057E+3	-2.910405E+1	0.000000E+0	0.000000E+0	8.000000E+0	
	1.000000E+0	0.000000E+0	2.162109E+4	6.266519E+3	-3.523609E+3	1.000000E+0	7.189234E+3	-2.934867E+1	0.000000E+0	0.000000E+0	8.000000E+0	
	1.000000E+0	0.000000E+0	1.857422E+4	6.460550E+3	-3.713868E+3	1.000000E+0	7.451948E+3	-2.989258E+1	0.000000E+0	0.000000E+0	8.000000E+0	
	1.000000E+0	0.000000E+0	1.587891E+4	6.583093E+3	-4.011742E+3	1.000000E+0	7.709163E+3	-3.135817E+1	0.000000E+0	0.000000E+0	7.000000E+0	
	1.000000E+0	0.000000E+0	1.365234E+4	6.761946E+3	-4.287833E+3	1.000000E+0	8.006836E+3	-3.237929E+1	0.000000E+0	0.000000E+0	7.000000E+0	
	1.000000E+0	0.000000E+0	1.166016E+4	6.980779E+3	-4.657274E+3	1.000000E+0	8.391751E+3	-3.370950E+1	0.000000E+0	0.000000E+0	7.000000E+0	
	1.000000E+0	0.000000E+0	1.001953E+4	7.171565E+3	-5.074143E+3	1.000000E+0	8.785116E+3	-3.528080E+1	0.000000E+0	0.000000E+0	7.000000E+0	
	1.000000E+0	0.000000E+0	8.613281E+3	7.378297E+3	-5.563709E+3	1.000000E+0	9.240895E+3	-3.701863E+1	0.000000E+0	0.000000E+0	7.000000E+0	
	1.000000E+0	0.000000E+0	7.349537E+3	7.600846E+3	-6.169953E+3	1.000000E+0	9.789851E+3	-3.906781E+1	0.000000E+0	0.000000E+0	7.000000E+0	
	1.000000E+0	0.000000E+0	6.307871E+3	7.824105E+3	-6.846714E+3	1.000000E+0	1.039683E+4	-4.118850E+1	0.000000E+0	0.000000E+0	7.000000E+0	
	1.000000E+0	0.000000E+0	5.381944E+3	8.073809E+3	-7.674483E+3	1.000000E+0	1.113930E+4	-4.354747E+1	0.000000E+0	0.000000E+0	7.000000E+0	
	1.000000E+0	0.000000E+0	4.630335E+3	8.341692E+3	-8.584624E+3	1.000000E+0	1.196995E+4	-4.582227E+1	0.000000E+0	0.000000E+0	7.000000E+0	
	1.000000E+0	0.000000E+0	3.993056E+3	8.644516E+3	-9.619602E+3	1.000000E+0	1.293307E+4	-4.805601E+1	0.000000E+0	0.000000E+0	7.000000E+0	
	1.000000E+0	0.000000E+0	3.414352E+3	8.989089E+3	-1.087332E+4	1.000000E+0	1.410790E+4	-5.041910E+1	0.000000E+0	0.000000E+0	7.000000E+0	
	1.000000E+0	0.000000E+0	2.915396E+3	9.387155E+3	-1.233867E+4	1.000000E+0	1.550360E+4	-5.273644E+1	0.000000E+0	0.000000E+0	7.000000E+0	
	1.000000E+0	0.000000E+0	2.519531E+3	9.818050E+3	-1.388687E+4	1.000000E+0	1.700704E+4	-5.473960E+1	0.000000E+0	0.000000E+0	7.000000E+0	
	1.000000E+0	0.000000E+0	2.141204E+3	1.036341E+4	-1.587063E+4	1.000000E+0	1.895461E+4	-5.685573E+1	0.000000E+0	0.000000E+0	7.000000E+0	
	1.000000E+0	0.000000E+0	1.841518E+3	1.094030E+4	-1.797392E+4	1.000000E+0	2.104167E+4	-5.867211E+1	0.000000E+0	0.000000E+0	7.000000E+0	
	1.000000E+0	0.000000E+0	1.580669E+3	1.162434E+4	-2.039650E+4	1.000000E+0	2.347643E+4	-6.032040E+1	0.000000E+0	0.000000E+0	7.000000E+0	
	1.000000E+0	0.000000E+0	1.362645E+3	1.238492E+4	-2.308626E+4	1.000000E+0	2.619851E+4	-6.178809E+1	0.000000E+0	0.000000E+0	7.000000E+0	
	1.000000E+0	0.000000E+0	1.171875E+3	1.327932E+4	-2.617102E+4	1.000000E+0	2.934728E+4	-6.309651E+1	0.000000E+0	0.000000E+0	7.000000E+0	
	1.000000E+0	0.000000E+0	1.000702E+3	1.440217E+4	-2.986330E+4	1.000000E+0	3.315478E+4	-6.425339E+1	0.000000E+0	0.000000E+0	7.000000E+0	
	1.000000E+0	0.000000E+0	8.574695E+2	1.568631E+4	-3.396505E+4	1.000000E+0	3.741236E+4	-6.521077E+1	0.000000E+0	0.000000E+0	7.000000E+0	
	1.000000E+0	0.000000E+0	7.341868E+2	1.721390E+4	-3.863524E+4	1.000000E+0	4.229657E+4	-6.598468E+1	0.000000E+0	0.000000E+0	7.000000E+0	
	1.000000E+0	0.000000E+0	6.288110E+2	1.900494E+4	-4.389595E+4	1.000000E+0	4.783348E+4	-6.658959E+1	0.000000E+0	0.000000E+0	7.000000E+0	
	1.000000E+0	0.000000E+0	5.427632E+2	2.100942E+4	-4.954375E+4	1.000000E+0	5.381430E+4	-6.702024E+1	0.000000E+0	0.000000E+0	7.000000E+0	
	1.000000E+0	0.000000E+0	4.635989E+2	2.326417E+4	-5.636890E+4	1.000000E+0	6.098093E+4	-6.757343E+1	0.000000E+0	0.000000E+0	6.000000E+0	
	1.000000E+0	0.000000E+0	4.001524E+2	2.603599E+4	-6.346577E+4	1.000000E+0	6.859866E+4	-6.769476E+1	0.000000E+0	0.000000E+0	6.000000E+0	
	1.000000E+0	0.000000E+0	3.417969E+2	2.950617E+4	-7.196248E+4	1.000000E+0	7.777669E+4	-6.770531E+1	0.000000E+0	0.000000E+0	6.000000E+0	
	1.000000E+0	0.000000E+0	2.929687E+2	3.354977E+4	-8.124259E+4	1.000000E+0	8.789735E+4	-6.756143E+1	0.000000E+0	0.000000E+0	6.000000E+0	
	1.000000E+0	0.000000E+0	2.520161E+2	3.807441E+4	-9.138802E+4	1.000000E+0	9.900217E+4	-6.738223E+1	0.000000E+0	0.000000E+0	6.000000E+0	
	1.000000E+0	0.000000E+0	2.150229E+2	4.363714E+4	-1.031315E+5	1.000000E+0	1.119835E+5	-6.706575E+1	0.000000E+0	0.000000E+0	6.000000E+0	
	1.000000E+0	0.000000E+0	1.845472E+2	4.985574E+4	-1.157188E+5	1.000000E+0	1.260017E+5	-6.669192E+1	0.000000E+0	0.000000E+0	6.000000E+0	
	1.000000E+0	0.000000E+0	1.580056E+2	5.726917E+4	-1.298229E+5	1.000000E+0	1.418934E+5	-6.619614E+1	0.000000E+0	0.000000E+0	6.000000E+0	
	1.000000E+0	0.000000E+0	1.365291E+2	6.481154E+4	-1.442238E+5	1.000000E+0	1.581172E+5	-6.580173E+1	0.000000E+0	0.000000E+0	6.000000E+0	
	1.000000E+0	0.000000E+0	1.162190E+2	7.508437E+4	-1.620043E+5	1.000000E+0	1.785582E+5	-6.513362E+1	0.000000E+0	0.000000E+0	6.000000E+0	
	1.000000E+0	0.000000E+0	9.973404E+1	8.571887E+4	-1.805147E+5	1.000000E+0	1.998331E+5	-6.459892E+1	0.000000E+0	0.000000E+0	6.000000E+0	
	1.000000E+0	0.000000E+0	8.600917E+1	9.703609E+4	-1.991952E+5	1.000000E+0	2.215733E+5	-6.402740E+1	0.000000E+0	0.000000E+0	6.000000E+0	
	1.000000E+0	0.000000E+0	7.381890E+1	1.144552E+5	-2.187645E+5	1.000000E+0	2.468965E+5	-6.238192E+1	0.000000E+0	0.000000E+0	6.000000E+0	
	1.000000E+0	0.000000E+0	6.291946E+1	1.231772E+5	-2.437447E+5	1.000000E+0	2.731009E+5	-6.319009E+1	0.000000E+0	0.000000E+0	6.000000E+0	
	1.000000E+0	0.000000E+0	5.387931E+1	1.436164E+5	-2.676406E+5	1.000000E+0	3.037387E+5	-6.178191E+1	0.000000E+0	0.000000E+0	6.000000E+0	
	1.000000E+0	0.000000E+0	4.641089E+1	1.658610E+5	-2.999306E+5	1.000000E+0	3.427364E+5	-6.105749E+1	0.000000E+0	0.000000E+0	6.000000E+0	
	1.000000E+0	0.000000E+0	3.972458E+1	1.841717E+5	-3.314749E+5	1.000000E+0	3.792028E+5	-6.094289E+1	0.000000E+0	0.000000E+0	6.000000E+0	
	1.000000E+0	0.000000E+0	3.421533E+1	2.086898E+5	-3.649867E+5	1.000000E+0	4.204363E+5	-6.024021E+1	0.000000E+0	0.000000E+0	6.000000E+0	
	1.000000E+0	0.000000E+0	2.929688E+1	2.335741E+5	-4.026984E+5	1.000000E+0	4.655351E+5	-5.988530E+1	0.000000E+0	0.000000E+0	6.000000E+0	
	1.000000E+0	0.000000E+0	2.520161E+1	2.626184E+5	-4.405475E+5	1.000000E+0	5.128845E+5	-5.920006E+1	0.000000E+0	0.000000E+0	6.000000E+0	
	1.000000E+0	0.000000E+0	2.150229E+1	2.999169E+5	-4.882312E+5	1.000000E+0	5.729921E+5	-5.843789E+1	0.000000E+0	0.000000E+0	5.000000E+0	
	1.000000E+0	0.000000E+0	1.838235E+1	3.391040E+5	-5.370581E+5	1.000000E+0	6.351558E+5	-5.773127E+1	0.000000E+0	0.000000E+0	5.000000E+0	
	1.000000E+0	0.000000E+0	1.578283E+1	3.804976E+5	-5.881771E+5	1.000000E+0	7.005218E+5	-5.710077E+1	0.000000E+0	0.000000E+0	5.000000E+0	
	1.000000E+0	0.000000E+0	1.362645E+1	4.278226E+5	-6.417841E+5	1.000000E+0	7.713099E+5	-5.631200E+1	0.000000E+0	0.000000E+0	5.000000E+0	
	1.000000E+0	0.000000E+0	1.171875E+1	4.778444E+5	-6.979629E+5	1.000000E+0	8.458649E+5	-5.560340E+1	0.000000E+0	0.000000E+0	5.000000E+0	
	1.000000E+0	0.000000E+0	9.973404E+0	5.406398E+5	-7.653579E+5	1.000000E+0	9.370508E+5	-5.476307E+1	0.000000E+0	0.000000E+0	5.000000E+0	
	1.000000E+0	0.000000E+0	8.585165E+0	6.037162E+5	-8.317427E+5	1.000000E+0	1.027750E+6	-5.402617E+1	0.000000E+0	0.000000E+0	5.000000E+0	
	1.000000E+0	0.000000E+0	7.358713E+0	6.786324E+5	-9.041975E+5	1.000000E+0	1.130538E+6	-5.311047E+1	0.000000E+0	0.000000E+0	5.000000E+0	
	1.000000E+0	0.000000E+0	6.275100E+0	7.643192E+5	-9.829656E+5	1.000000E+0	1.245153E+6	-5.213263E+1	0.000000E+0	0.000000E+0	5.000000E+0	
	1.000000E+0	0.000000E+0	5.387931E+0	8.538478E+5	-1.060711E+6	1.000000E+0	1.361677E+6	-5.116674E+1	0.000000E+0	0.000000E+0	5.000000E+0	
	1.000000E+0	0.000000E+0	4.650298E+0	9.501671E+5	-1.138454E+6	1.000000E+0	1.482867E+6	-5.015123E+1	0.000000E+0	0.000000E+0	5.000000E+0	
	1.000000E+0	0.000000E+0	3.985969E+0	1.059137E+6	-1.222410E+6	1.000000E+0	1.617423E+6	-4.909323E+1	0.000000E+0	0.000000E+0	5.000000E+0	
	1.000000E+0	0.000000E+0	3.404140E+0	1.182654E+6	-1.311408E+6	1.000000E+0	1.765917E+6	-4.795523E+1	0.000000E+0	0.000000E+0	5.000000E+0	
	1.000000E+0	0.000000E+0	2.929687E+0	1.309516E+6	-1.394688E+6	1.000000E+0	1.913109E+6	-4.680400E+1	0.000000E+0	0.000000E+0	5.000000E+0	
	1.000000E+0	0.000000E+0	2.516103E+0	1.455911E+6	-1.482741E+6	1.000000E+0	2.078028E+6	-4.552310E+1	0.000000E+0	0.000000E+0	5.000000E+0	
	1.000000E+0	0.000000E+0	2.143347E+0	1.618645E+6	-1.571531E+6	1.000000E+0	2.256041E+6	-4.415390E+1	0.000000E+0	0.000000E+0	5.000000E+0	
	1.000000E+0	0.000000E+0	1.844020E+0	1.782828E+6	-1.651971E+6	1.000000E+0	2.430532E+6	-4.281823E+1	0.000000E+0	0.000000E+0	5.000000E+0	
	1.000000E+0	0.000000E+0	1.587906E+0	1.958884E+6	-1.735139E+6	1.000000E+0	2.616856E+6	-4.153385E+1	0.000000E+0	0.000000E+0	5.000000E+0	
	1.000000E+0	0.000000E+0	1.362645E+0	2.149555E+6	-1.811102E+6	1.000000E+0	2.810814E+6	-4.011573E+1	0.000000E+0	0.000000E+0	5.000000E+0	
	1.000000E+0	0.000000E+0	1.171875E+0	2.350327E+6	-1.879686E+6	1.000000E+0	3.009528E+6	-3.865125E+1	0.000000E+0	0.000000E+0	5.000000E+0	
	1.000000E+0	0.000000E+0	9.977650E-1	2.571572E+6	-1.943193E+6	1.000000E+0	3.223194E+6	-3.707631E+1	0.000000E+0	0.000000E+0	5.000000E+0	
	1.000000E+0	0.000000E+0	8.616728E-1	2.790168E+6	-2.000576E+6	1.000000E+0	3.433270E+6	-3.564087E+1	0.000000E+0	0.000000E+0	5.000000E+0	
	1.000000E+0	0.000000E+0	7.325363E-1	3.035034E+6	-2.045061E+6	1.000000E+0	3.659741E+6	-3.397280E+1	0.000000E+0	0.000000E+0	5.000000E+0	
	1.000000E+0	0.000000E+0	6.290258E-1	3.273402E+6	-2.078623E+6	1.000000E+0	3.877606E+6	-3.241570E+1	0.000000E+0	0.000000E+0	5.000000E+0	
	1.000000E+0	0.000000E+0	5.425347E-1	3.498370E+6	-2.084601E+6	1.000000E+0	4.072365E+6	-3.078978E+1	0.000000E+0	0.000000E+0	5.000000E+0	
	1.000000E+0	0.000000E+0	4.650298E-1	3.732793E+6	-2.079904E+6	1.000000E+0	4.273142E+6	-2.912646E+1	0.000000E+0	0.000000E+0	5.000000E+0	
	1.000000E+0	0.000000E+0	3.985969E-1	3.985186E+6	-2.083086E+6	1.000000E+0	4.496772E+6	-2.759640E+1	0.000000E+0	0.000000E+0	5.000000E+0	
	1.000000E+0	0.000000E+0	3.426535E-1	4.212861E+6	-2.057098E+6	1.000000E+0	4.688267E+6	-2.602579E+1	0.000000E+0	0.000000E+0	5.000000E+0	
	1.000000E+0	0.000000E+0	2.929687E-1	4.438525E+6	-2.016286E+6	1.000000E+0	4.875030E+6	-2.443084E+1	0.000000E+0	0.000000E+0	5.000000E+0	
	1.000000E+0	0.000000E+0	2.514753E-1	4.642928E+6	-1.967487E+6	1.000000E+0	5.042598E+6	-2.296528E+1	0.000000E+0	0.000000E+0	4.000000E+0	
	1.000000E+0	0.000000E+0	2.162131E-1	4.848079E+6	-1.921463E+6	1.000000E+0	5.214968E+6	-2.162016E+1	0.000000E+0	0.000000E+0	4.000000E+0	
	1.000000E+0	0.000000E+0	1.848383E-1	5.090150E+6	-1.894927E+6	1.000000E+0	5.431424E+6	-2.041895E+1	0.000000E+0	0.000000E+0	4.000000E+0	
	1.000000E+0	0.000000E+0	1.587906E-1	5.291064E+6	-1.844446E+6	1.000000E+0	5.603333E+6	-1.921837E+1	0.000000E+0	0.000000E+0	4.000000E+0	
	1.000000E+0	0.000000E+0	1.359484E-1	5.453238E+6	-1.773163E+6	1.000000E+0	5.734276E+6	-1.801233E+1	0.000000E+0	0.000000E+0	4.000000E+0	
	1.000000E+0	0.000000E+0	1.167206E-1	5.633794E+6	-1.720894E+6	1.000000E+0	5.890764E+6	-1.698578E+1	0.000000E+0	0.000000E+0	4.000000E+0	
	1.000000E+0	0.000000E+0	1.001603E-1	5.784012E+6	-1.657657E+6	1.000000E+0	6.016862E+6	-1.599193E+1	0.000000E+0	0.000000E+0	4.000000E+0	
