,Freq,Zreal,Zimag,Zmod,Zphz
0,1000020.0,617.5302201045329,-2242.2950914128546,2325.775322277828,-74.60239284861886
1,857753.9,687.2070018246687,-2552.105230006006,2643.008620564992,-74.92938197324342
2,735644.5,765.2090855394687,-2906.464731061212,3005.508638732365,-75.24998559417709
3,630996.1,852.4554484592587,-3311.3176820649414,3419.284293995428,-75.5634240278181
4,541230.5,950.1882369846473,-3774.4070455412975,3892.1724308072194,-75.8696934135002
5,464238.3,1059.7369713160342,-4304.258522559508,4432.796394760337,-76.16849772700957
6,398144.5,1182.7438118429225,-4911.31654552609,5051.723778554311,-76.45984507101079
7,341543.0,1320.6267324382059,-5605.331197216409,5758.80133334342,-76.74277119138095
8,292910.2,1475.828972588736,-6401.668917451276,6569.5841637803915,-77.0179538221459
9,251191.4,1650.447822441777,-7314.510941837422,7498.4030521746545,-77.28470720047608
10,215449.2,1846.8274738864575,-8359.782767007011,8561.351507200789,-77.54241538402715
11,184863.3,2067.536732874618,-9555.040763901014,9776.170627684232,-77.79046911549338
12,158496.1,2317.7826894631635,-10932.832956793125,11175.82001719413,-78.03040277569536
13,135996.1,2598.9701261332348,-12505.370827936438,12772.585692049071,-78.25944573949269
14,116660.2,2917.4101396867773,-14312.455371127495,14606.76763263055,-78.47882762047246
15,100019.5,3279.3126388038354,-16394.152488355514,16718.91525172826,-78.68844731321154
16,85839.84,3686.980690008678,-18767.98778300929,19126.714093949402,-78.88574941952044
17,73652.34,4150.617900657345,-21497.055628424383,21894.086636551652,-79.07189352966074
18,63105.47,4683.285530235461,-24661.631376663725,25102.374897928636,-79.24746938006699
19,54199.22,5281.1042559746165,-28239.783902146686,28729.348356731247,-79.40750333287228
20,46464.84,5972.225485569074,-32398.838236169475,32944.68388532447,-79.55565161170945
21,39902.34,6754.845736955713,-37123.435411488616,37732.97493812323,-79.68748920108006
22,34160.16,7672.438290357502,-42666.312381813,43350.66921723116,-79.8057794236223
23,29355.47,8703.619553386094,-48881.616392576725,49650.43216812026,-79.9040019054479
24,25136.72,9923.36000460327,-56193.988328779895,57063.45063239701,-79.98532228377594
25,21621.09,11296.296628731685,-64352.44964287734,65336.39179326755,-80.04385124242788
26,18574.22,12904.467264573228,-73789.750217574,74909.62897087666,-80.08033861062844
27,15878.91,14847.201161668752,-84997.55176372774,86284.5477948551,-80.0916572691147
28,13652.34,17047.059541504525,-97417.33086915092,98897.61671891404,-80.07430996286611
29,11660.16,19761.229309728697,-112335.04834300591,114059.93718241807,-80.02298895251273
30,10019.53,22861.38491300223,-128833.52841773038,130846.17290812364,-79.93766172477675
31,8613.280999999999,26541.471472792455,-147702.16854710886,150067.9189615809,-79.81290500031365
32,7349.536999999999,31183.04286859449,-170469.42840537723,173298.03283188367,-79.6338039594143
33,6307.871,36593.55402750083,-195692.6131880578,199084.62284348943,-79.40829505981135
34,5381.944,43437.207965032714,-225806.87907353663,229946.81487841552,-79.1113389687533
35,4630.335,51365.664385344564,-258535.36044302772,263588.6266081185,-78.76283758517867
36,3993.0559999999996,60894.27585473421,-295272.8163785117,301486.5650803876,-78.34722825064797
37,3414.3520000000003,73312.69022940398,-339623.5147156879,347446.2293600401,-77.81877967061922
38,2915.3959999999997,88936.41852011981,-390824.40037731756,400815.9159383217,-77.18002555739147
39,2519.531,106864.43706925034,-444541.8213937235,457206.12296662974,-76.48301489564712
40,2141.2039999999997,131881.78613323442,-512473.38248415187,529170.8356177993,-75.5684347324504
41,1841.5179999999998,161044.849228135,-583669.4258964881,605479.5142605973,-74.57486542737311
42,1580.6689999999999,197989.06623657764,-664448.3451085221,693319.0273363956,-73.40725340426056
43,1362.645,242774.56583040097,-751633.3885183042,789868.4957318198,-72.0997517643801
44,1171.875,299356.84871393343,-849048.0586928976,900276.1403270192,-70.57839985879768
45,1000.702,373197.4343467011,-960091.5478509637,1030073.8348573949,-68.75838525198265
46,857.4695,462804.9934376151,-1076479.3540172372,1171749.2315236053,-66.73593955692468
47,734.1868,573172.1544547786,-1198965.3246268497,1328925.9453784097,-64.44960470359992
48,628.811,706400.0621478007,-1323381.7420137762,1500113.4233443262,-61.90741163798041
49,542.7632,856134.4923867284,-1439329.850281274,1674704.9551980777,-59.255197870897405
50,463.5989,1042336.9295931393,-1555413.6339524204,1872372.2513108144,-56.17258135933595
51,400.1524,1239189.942927294,-1650271.7167597697,2063731.6816362992,-53.097094018759876
52,341.7969,1471240.562103006,-1730945.4911760085,2271722.0527607957,-49.63667612954455
53,292.9687,1713623.38305479,-1783529.0808946937,2473354.2167164846,-46.14515113347894
54,252.0161,1957813.5917179028,-1806537.6115401613,2663946.734044167,-42.69872325901707
55,215.0229,2214457.8321076585,-1799826.9319800648,2853629.351416144,-39.10289613408258
56,184.5472,2452672.8855670914,-1765597.1307230822,3022075.0340806535,-35.748850711911366
57,158.0056,2679088.6521415105,-1707638.8313259296,3177034.2120105666,-32.513249832983966
58,136.5291,2873790.895137117,-1637308.121743256,3307484.2394937305,-29.671812300844344
59,116.219,3065786.3631165447,-1548761.2541270345,3434779.0971991946,-26.801803488894677
60,99.73404000000001,3226236.481769216,-1459997.586398702,3541213.74511461,-24.34860298008868
61,86.00917,3362722.7973044417,-1374401.9024836519,3632751.739530475,-22.23066812360152
62,73.8189,3486614.0798664927,-1289858.509982662,3717554.6690933765,-20.301746145385508
63,62.91946,3600678.4536800277,-1208177.9048583815,3797970.4022785095,-18.5487522950824
64,53.87931,3699310.4327920964,-1136827.79092036,3870048.462793885,-17.082613373408794
65,46.41089,3785419.0589072304,-1076088.5772869939,3935398.846077186,-15.868965717586923
66,39.724579999999996,3868201.754877574,-1020956.3686391509,4000667.0347709246,-14.785231135471077
67,34.21533,3942581.7340944735,-975529.2344698911,4061478.5506414776,-13.897793841594003
68,29.296879999999998,4015954.9533972065,-935508.0704956803,4123477.8449360086,-13.113074333127372
69,25.201610000000002,4084225.3786611776,-903109.360610921,4182882.195439301,-12.468685713760536
70,21.50229,4153797.5123832077,-875235.9387965843,4245005.503228714,-11.898593560540773
71,18.38235,4220576.394056563,-853583.2004802981,4306027.0991030345,-11.433465817751518
72,15.782829999999999,4284034.5352245085,-837829.8234641588,4365193.08989674,-11.065683195542906
73,13.62645,4344049.298198877,-827466.4665696861,4422156.154918036,-10.78466067060471
74,11.71875,4404761.818062362,-821728.6974972743,4480754.928151127,-10.567320035794697
75,9.973403999999999,4468987.880959449,-821182.1717074692,4543808.186894846,-10.412023089154415
76,8.585165,4528385.660608412,-826019.2909177942,4603105.968818469,-10.337623336393351
77,7.358713000000001,4589585.425652634,-836588.4933229628,4665208.964936454,-10.33044414005982
78,6.2751,4653446.436248549,-853742.8362886539,4731114.093482477,-10.396135856105513
79,5.387931,4715678.444281826,-876366.6034789607,4796419.666121545,-10.527804709778014
80,4.650298,4777368.978589567,-904245.0582832405,4862192.250725961,-10.717968584690464
81,3.9859690000000003,4844225.500967864,-940053.0164456682,4934594.246536989,-10.98211659908212
82,3.40414,4915745.844515769,-984010.8444719763,5013265.8566958625,-11.319589179992674
83,2.929687,4987360.166630842,-1032960.0288763682,5093208.011946133,-11.70140329639632
84,2.5161029999999998,5064244.814373156,-1089964.674824586,5180212.209192869,-12.146337644830904
85,2.1433470000000003,5150723.625746793,-1158358.3257105802,5279370.026771112,-12.674512513884741
86,1.84402,5237755.970685723,-1230573.3283624444,5380371.578704483,-13.221448201660591
87,1.587906,5330742.453746054,-1310355.4758402917,5489430.442335082,-13.81013157639787
88,1.362645,5433412.651557321,-1400497.2240858302,5611003.966918511,-14.453744751009367
89,1.171875,5542988.320759992,-1498049.0565028803,5741852.532046678,-15.123468871425233
90,0.997765,5670057.342017694,-1611853.7938471413,5894711.436067773,-15.869109297855692
91,0.8616728000000001,5796100.357574894,-1724615.4691886897,6047237.209804552,-16.570244577930307
92,0.7325363,5948213.923280912,-1859688.2934226827,6232149.663302886,-17.36167162177648
93,0.6290258000000001,6104148.960267711,-1996329.3802189115,6422302.198079954,-18.11005685874933
94,0.5425346999999999,6268985.3864743225,-2138245.1830105847,6623614.5901234755,-18.833643218584637
95,0.4650298,6456126.42085795,-2295802.7983551035,6852173.294002072,-19.575419911500447
96,0.39859690000000003,6660322.967950303,-2463091.8297897344,7101177.606522969,-20.295183785416853
97,0.3426535,6878621.390187889,-2636408.1612089053,7366551.447050329,-20.970612343944453
98,0.29296869999999997,7125018.649774864,-2825104.643891748,7664666.138102713,-21.62856739435252
99,0.25147529999999996,7386573.7417174,-3017424.841353074,7979118.016112032,-22.220077770471587
100,0.2162131,7667488.671579502,-3214993.3670327775,8314238.683058404,-22.748401838659497
101,0.18483829999999998,7983789.619479563,-3426613.846010976,8688071.082684794,-23.228835946202324
102,0.1587906,8315645.2600525785,-3636716.4660018743,9076103.940850616,-23.621406082800746
103,0.1359484,8682074.291462878,-3855064.1653197347,9499470.181079205,-23.942451341901204
104,0.11672060000000001,9069553.662642226,-4071013.601088255,9941325.634933833,-24.173686909925244
105,0.10016030000000001,9486721.473983683,-4287071.174477652,10410420.912719155,-24.31831967015491
