freq,Zreal,Zimag,sigma_re,sigma_im
50118.72336272724,1.4316143361396088,1.3208947081915876,0.03189448989469619,0.0308825088834494
39810.71705534977,1.3191607936690228,1.1021454968194595,0.0278257338296302,0.02578245085281864
31622.776601683792,1.2324448010178841,0.9035469104611376,0.02437226213563012,0.021155620026645575
25118.864315095827,1.1706280919708,0.7278651324714058,0.021599296760754016,0.01706760338763246
19952.623149688792,1.1299210384075777,0.5764627540328615,0.019506811564688285,0.013551566995758636
15848.93192461114,1.1055401896288999,0.4487878739227727,0.018030104008349247,0.01059662510984172
12589.254117941662,1.0930145124737591,0.3428045867841504,0.01706176115045332,0.008158392880091653
10000.0,1.0887615109526951,0.25568653315225787,0.016481006045734797,0.006176135672447068
7943.282347242823,1.090175876722854,0.18439698182332198,0.01617757080539335,0.004588291254352664
6309.5734448019375,1.0954913860078823,0.1260536119332494,0.01606392896470961,0.003345268849596356
5011.872336272725,1.1035814578153844,0.07811071485875867,0.01607721700125615,0.002422573834433408
3981.0717055349733,1.1137736424759996,0.03842331713969464,0.016175490486046613,0.0018339155696728427
3162.2776601683795,1.1257005086702838,0.005246125870497997,0.01633229781281505,0.0016095894916340978
2511.886431509582,1.1391867512729241,-0.02279957888512056,0.016531674713261377,0.0016965827512687925
1995.2623149688789,1.1541659658122931,-0.04677326465170789,0.016764255254800894,0.0019516595429614199
1584.8931924611138,1.1706208691898723,-0.06746781548976746,0.017024518845480025,0.002263049597984545
1258.9254117941675,1.1885427807144409,-0.08546273335506782,0.017308975077777136,0.002578307053359753
1000.0,1.2079074676306945,-0.10117417667558166,0.0176150600947455,0.002876600698056403
794.3282347242822,1.2286642515327555,-0.11489843628914072,0.01794053749440517,0.003150028026095576
630.957344480193,1.2507342607344123,-0.1268464722728534,0.018283221448857804,0.0033957568034174703
501.1872336272725,1.2740132498332184,-0.1371691278357847,0.018640872881455352,0.0036129478082904125
398.1071705534973,1.2983752166625364,-0.14597466191088632,0.019011165257308935,0.0038015289599338353
316.227766016838,1.32367472215063,-0.15334136130966733,0.019391665051495355,0.003961706365392741
251.18864315095797,1.349747581659852,-0.15932801967069873,0.019779811279832988,0.004093805097181539
199.5262314968879,1.376410897357819,-0.16398423471713086,0.020172902527062102,0.004198285427314248
158.48931924611142,1.403463848912909,-0.16736123870772032,0.020568106462461162,0.0042758614172601645
125.89254117941677,1.4306903169778915,-0.16952304795871675,0.020962500983801858,0.004327673754953689
100.0,1.4578639171959678,-0.17055738278181323,0.021353149385391224,0.004355481476664773
79.43282347242814,1.4847557445958837,-0.17058567708530736,0.02173720920689262,0.004361844042285527
63.09573444801929,1.51114486238837,-0.16977130445028996,0.022112072118411485,0.004350266485340747
50.11872336272725,1.5368311828677932,-0.1683250091517335,0.022475528683924696,0.004325281381070229
39.81071705534973,1.5616498854824084,-0.1665064759121328,0.022825946982995445,0.004292444491390193
31.622776601683796,1.5854857341131705,-0.16462116518035314,0.023162445397151506,0.004258230392734506
25.118864315095795,1.6082848340096652,-0.16301252745297937,0.023485031337067794,0.004229841190365478
19.95262314968879,1.6300615048215392,-0.16205147186376745,0.023794682576127768,0.004214982817956777
15.848931924611142,1.650899561763956,-0.1621262972088616,0.024093370909815177,0.00422169079304059
12.589254117941675,1.6709494535731735,-0.1636361092675275,0.024384054924954053,0.004258276013134143
10.0,1.6904241257098556,-0.16698936228445094,0.024670684296259404,0.004333419043150714
7.943282347242812,1.7095969027043012,-0.17260751257370088,0.024958261337856457,0.004456391694862009
6.30957344480193,1.728804409190487,-0.18093230237009614,0.025253000704290866,0.004637341834177446
5.011872336272725,1.7484568124518383,-0.1924342212168551,0.02556261720385387,0.00488755289304372
3.981071705534969,1.7690572429554505,-0.20761942752591633,0.02589676383954799,0.005219591487081933
3.1622776601683795,1.7912330324293957,-0.22703183641780258,0.02626764534080039,0.005647263068484925
2.5118864315095824,1.8157827333003196,-0.2512443356257045,0.026690827401127853,0.006185258331476224
1.9952623149688788,1.8437423887453295,-0.280827342721774,0.02718620172880055,0.006848258002067452
1.5848931924611138,1.8764693306577238,-0.31627498414147387,0.02777889789868223,0.007649077566591171
1.2589254117941662,1.9157286740608548,-0.357861596271301,0.028499611988850454,0.008595238039320028
1.0,1.9637433292102033,-0.40540003548102543,0.0293833650065504,0.009683298074607442
0.7943282347242805,2.023132897370655,-0.45789081589091246,0.03046530882262554,0.010890677774446139
0.6309573444801929,2.0966333355037783,-0.5131054631717497,0.03177239506297356,0.012165970992367556
0.5011872336272725,2.186495807561451,-0.5672482605858552,0.03331127213178526,0.013421100409032861
0.3981071705534969,2.2935670768437664,-0.6149550354706345,0.03505585159034067,0.014531348001966732
0.31622776601683794,2.41627961994017,-0.6499127771930501,0.036940956755784474,0.015349883912138453
