freq,Zreal,Zimag,sigma_re,sigma_im
1000000.0,0.0014635269943765084,-0.0012950078122633784,0.0002648569878591111,0.00026485498470440544
794328.2347242822,0.0016380368448386704,-0.001497116688455007,0.00026486005057284106,0.00026485813520847785
630957.344480193,0.0018338575376411678,-0.001714794693337307,0.00026486388853512384,0.00026486204995926154
501187.2336272725,0.002053594155022595,-0.001951799806226168,0.0002648687010091965,0.0002648669229571023
398107.17055349686,0.002300170857493345,-0.002211961841945396,0.0002648747395293626,0.000264873002009157
316227.7660168379,0.002576870218123398,-0.0024992692325631616,0.000264882321086945,0.0002648806009218109
251188.6431509582,0.0028873774864903467,-0.002817949823297589,0.00026489184485811707,0.0002648901154390625
199526.2314968879,0.0032358304060137897,-0.0031725481932692637,0.00026490381333872133,0.00026490204363365265
158489.3192461114,0.0036268752997468275,-0.0035680016077273414,0.0002649188589923249,0.00026491701171794756
125892.5411794166,0.004065730247298585,-0.004009716407660377,0.0002649377778150834,0.0002649358065328184
100000.0,0.004558256373318585,-0.004503646424425797,0.00026496157159328033,0.0002649594163124048
79432.82347242821,0.005111038604282425,-0.005056374713637742,0.0002649915010977728,0.00026498908171796565
63095.7344480193,0.005731477538032389,-0.005675199354480715,0.00026502915303907215,0.0002650263595802008
50118.72336272724,0.006427893964884285,-0.006368223410045259,0.00026507652430452736,0.0002650732022904927
39810.71705534969,0.007209647092816129,-0.007144448938184638,0.00026513612783855557,0.00026513205638145653
31622.776601683792,0.008087267371579531,-0.008013875517125223,0.0002652111255833412,0.0002652059846081935
25118.864315095827,0.009072605900250552,-0.008987604514914862,0.00026530549529306434,0.0002652988167986936
19952.623149688792,0.010179004804286377,-0.010077949797896824,0.00026542423987138957,0.00026541533573364094
15848.93192461114,0.01142149508590071,-0.011298552514247743,0.00026557365013796453,0.0002655615050223118
12589.254117941662,0.012817027796690991,-0.012664492920656068,0.0002657616344154638,0.00026574474609987263
10000.0,0.014384740442453081,-0.014192389264833304,0.00026599813085047605,0.0002659742711567492
7943.282347242814,0.01614625664398474,-0.015900474870139715,0.0002662956210103201,0.00026626147825756355
6309.57344480193,0.018126017481757774,-0.017808647449222885,0.00026666976629594237,0.00026662041377773963
5011.8723362727205,0.020351647245967296,-0.019938483736701648,0.0002671401919849805,0.0002670683042400309
3981.0717055349687,0.022854358562831602,-0.02231320577802029,0.00026773144643808675,0.00026762615315459266
3162.2776601683795,0.02566939804426177,-0.024957578018800258,0.0002684741640990759,0.0002683193882848246
2511.8864315095802,0.02883652818807164,-0.027897711528703326,0.0002694064596537134,0.0002691785311341205
1995.2623149688789,0.03240053781572132,-0.031160748677003237,0.0002705755749072086,0.0002702398412850745
1584.8931924611124,0.03641176302798821,-0.03477439786622684,0.00027203978396792705,0.0002715458616532542
1258.9254117941662,0.040926583206619675,-0.03876630527976359,0.000273870533506194,0.00027314576575429437
1000.0,0.04600787463576417,-0.04316330435287901,0.0002761547682977233,0.00027509540388407483
794.3282347242813,0.05172551699861967,-0.04799061940798246,0.00027899740229367956,0.00027745695780640643
630.957344480193,0.05815723321249592,-0.05327099269004626,0.000282523960983443,0.0002802980753067697
501.187233627272,0.06539013577078925,-0.059023372891390966,0.0002868834879773055,0.00028369015229954143
398.10717055349687,0.07352312793083242,-0.0652603545838224,0.00029225172700177,0.0002877050081237977
316.227766016838,0.08266968783569892,-0.07198329615438656,0.00029883418532131867,0.0002924086961897907
251.18864315095797,0.09295975738187282,-0.07917426369187304,0.00030686790645638456,0.00029785093560125343
199.5262314968879,0.10453883080473088,-0.08678469100247872,0.0003166197914781138,0.00030404900492053493
158.48931924611125,0.11756214661206667,-0.09472171968066728,0.00032837845032078705,0.0003109661610616768
125.89254117941664,0.13218222746327146,-0.10283436638275503,0.00034243631860804695,0.00031848678249142304
100.0,0.14852894344327683,-0.11090274232377896,0.00035905970452162323,0.0003263931492473715
79.43282347242804,0.16668278373611944,-0.11863423085458218,0.00037844690637288766,0.00033435120307030394
63.09573444801929,0.18664393063462537,-0.12567051507915333,0.00040067834777667276,0.0003419136377377063
50.11872336272725,0.20830173635789795,-0.13160844298582583,0.00042566685188734116,0.0003485473384628681
39.81071705534969,0.2314109522761411,-0.13603584010996211,0.00045311929828845116,0.0003536882003906938
31.622776601683796,0.2555822075928051,-0.13858051298892937,0.0004825218350838761,0.0003568199998862444
25.118864315095767,0.2802942893519395,-0.13896667574459245,0.0005131591199413893,0.0003575658337531691
19.95262314968879,0.30493343238301995,-0.1370679454331337,0.0005441730708239697,0.00035577184445998594
15.848931924611108,0.3288582808859302,-0.13294178523205485,0.0005746569854076729,0.0003515571238785485
12.589254117941664,0.3514788871037969,-0.126831061140616,0.0006037675117637969,0.00034530723141919104
10.0,0.37232915747287487,-0.11912740731700036,0.0006308260437349419,0.000337605690233477
7.943282347242805,0.3911116978243937,-0.11030566302129144,0.0006553814357688675,0.0003291225114638207
6.30957344480193,0.40770447150677,-0.10085013690564738,0.0006772204000236213,0.0003204965313315469
5.011872336272715,0.42213406834063055,-0.09119432212971049,0.0006963326534216854,0.0003122471353327465
3.981071705534969,0.4345311576160911,-0.08168637593644514,0.0007128521273139763,0.00030473286989609916
3.1622776601683795,0.4450850005553903,-0.07258037620852431,0.0007269968798334381,0.0002981530191641726
2.5118864315095766,0.4540078888082215,-0.06404510824420939,0.000739021977094138,0.0002925757133923514
1.9952623149688788,0.4615124991907489,-0.0561803539387755,0.0007491891058766633,0.00028797529561299073
1.584893192461111,0.46779974946778397,-0.04903350782907161,0.0007577497272428804,0.0002842675671827447
1.2589254117941662,0.473053076276424,-0.04261342141111115,0.0007649365528895736,0.00028133804161891964
1.0,0.4774359467443348,-0.03690123277631082,0.0007709593134797838,0.00027906241639475505
0.7943282347242805,0.48109099148094026,-0.03185897903063543,0.0007760027919393575,0.00027732015518557593
0.6309573444801929,0.4841402315205218,-0.02743667964198874,0.0007802264513073117,0.0002760025034528738
0.5011872336272715,0.4866862740553386,-0.023578168931006525,0.0007837654731760676,0.00027501627769419977
0.3981071705534969,0.48881435162171943,-0.020225661418588316,0.0007867330113076394,0.0002742846786665599
0.31622776601683794,0.4905949119976249,-0.017322936249806072,0.0007892232589563704,0.00027374623654609093
0.2511886431509577,0.49208629021012695,-0.014817153300954145,0.0007913147136272967,0.0002733528034816296
0.1995262314968879,0.4933370055596724,-0.012659591999667213,0.0007930730355184715,0.00027306726452594406
0.1584893192461111,0.49438748184159076,-0.010805788034378217,0.0007945532118754937,0.0002728613662632183
0.12589254117941662,0.4952712814654557,-0.009215471952685137,0.000795801111083724,0.0002727138315024609
0.1,0.49601606502118445,-0.007852498825155351,0.0007968546841054664,0.0002726087916544032
0.07943282347242805,0.4966444437910316,-0.006684785911184491,0.0007977450431241733,0.0002725345143889761
0.0630957344480193,0.49717479427401856,-0.0056842089330662515,0.0007984975280098505,0.00027248238993189894
0.05011872336272714,0.49762203273981515,-0.004826423075415584,0.0007991327591703132,0.0002724461379539476
0.039810717055349686,0.49799834046169306,-0.004090603657673064,0.0007996676440651463,0.00027242119871182647
0.031622776601683784,0.4983138275830446,-0.0034590811813090348,0.00080011629586797,0.0002724042733456482
0.02511886431509577,0.4985770530217591,-0.00291685115763998,0.0008004907368211389,0.0002723929808805812
0.019952623149688792,0.4987952906868908,-0.002451062783470153,0.0008008012368295565,0.0002723856051423124
0.01584893192461111,0.4989745825289024,-0.002050689942553395,0.0008010563554692939,0.00027238091075066604
0.01258925411794166,0.4991198075831607,-0.001706471685910603,0.0008012630180980827,0.00027237801165585183
0.01,0.499234981873576,-0.0014109622631009548,0.000801426930543395,0.00027237627878980993
