freq,Zreal,Zimag,sigma_re,sigma_im
1000000.0,0.9805652228960144,0.01022880933784364,0.02060942946441564,0.020376490853665392
794328.2347242822,0.981298619656087,0.006685982109572835,0.02060732394616918,0.020373990382293327
630957.344480193,0.9821452068369603,0.003809877743831086,0.02060670101925002,0.020372942766819214
501187.2336272725,0.9830781661251834,0.0014914603034069957,0.020606999828166148,0.020372789847160313
398107.17055349686,0.9840667642780196,-0.00036509697986615835,0.020607841872586435,0.020373161396255425
316227.7660168379,0.9850820276015085,-0.0018467284686336455,0.020608977449713742,0.02037381778575271
251188.6431509582,0.9861001706409952,-0.0030327183057791635,0.020610248838752922,0.020374610718318212
199526.2314968879,0.9871037050934413,-0.003994889884658878,0.02061156303507413,0.020375454804371567
158489.3192461114,0.9880810019179447,-0.004797994121405663,0.02061287143314023,0.020376306982205064
125892.5411794166,0.9890252177385925,-0.005500752853243329,0.020614155341986486,0.02037715219785786
100000.0,0.9899332651762208,-0.006157480978998259,0.020615416449625914,0.02037799411348944
79432.82347242821,0.9908051334875266,-0.006819967715031829,0.02061667135097809,0.020378849808794623
63095.7344480193,0.9916435022970933,-0.007539332125170694,0.020617949333073846,0.020379747709009664
50118.72336272724,0.9924533922257399,-0.008367815478777154,0.020619292905029715,0.02038072835612948
39810.71705534969,0.9932416586206538,-0.009360758246611405,0.020620761170804556,0.020381848187098775
31622.776601683792,0.9940163846502982,-0.010579124464509053,0.02062243692590547,0.020383187126701337
25118.864315095827,0.9947864501986098,-0.01209281901082277,0.020624439076663073,0.02038486145900503
19952.623149688792,0.995561584491081,-0.013984840870703676,0.02062694277819631,0.020387044309156603
15848.93192461114,0.9963530988044217,-0.01635621859008413,0.02063021107110645,0.020389997553938128
12589.254117941662,0.9971754049515837,-0.019331728485212932,0.020634644162399147,0.020394121374068073
10000.0,0.9980484508127724,-0.023066506484185213,0.020640855987298815,0.020400031129967182
7943.282347242814,0.9990013226059639,-0.02775375542888151,0.02064979259353292,0.020408676175233117
6309.57344480193,1.0000774754868444,-0.03363383815874307,0.02066291406342399,0.02042152249969613
5011.8723362727205,1.001342465363852,-0.04100509551396749,0.02068247231391153,0.02044083178906127
3981.0717055349687,1.0028957228831739,-0.05023655321077568,0.020711931594821497,0.020470083875731765
3162.2776601683795,1.0048887529680928,-0.06178209483469188,0.02075659472952818,0.020514605494576694
2511.8864315095802,1.0075530823173444,-0.07619453924769735,0.020824508402928606,0.02058247802276347
1995.2623149688789,1.0112422601980509,-0.09413605470801069,0.0209277052489065,0.02068578035311721
1584.8931924611124,1.016492894042511,-0.11637782247574727,0.021083755477387466,0.02084213588441451
1258.9254117941662,1.0241089331706532,-0.14377598991072663,0.021317366230286072,0.021076293878121252
1000.0,1.0352686219505518,-0.17720220023278832,0.021661275104873753,0.021420977591469173
794.3282347242813,1.0516398913003586,-0.21739669327306665,0.022154890469704817,0.021915433234987042
630.957344480193,1.0754608043524236,-0.2647071639238125,0.02283830853591952,0.0225992973841085
501.187233627272,1.109494475028701,-0.3186955115739014,0.023739445519001756,0.023499538485508408
398.10717055349687,1.1567207529791703,-0.3776666895883916,0.024854677159525766,0.02461093784011466
316.227766016838,1.2196406646502636,-0.4383150385589537,0.026129453978768473,0.025876710159049854
251.18864315095797,1.299236603082129,-0.4958340566655049,0.027452174546087137,0.02718269022574971
199.5262314968879,1.3939699907100418,-0.5448128452063872,0.02867469030557784,0.028378514811655084
158.48931924611125,1.4994905262820448,-0.5808580734796288,0.02965951240154519,0.02932570973500217
125.89254117941664,1.6095746505630624,-0.6022589446997327,0.03033240147534897,0.029950940807990552
100.0,1.7180854243599808,-0.6107106022008261,0.03070887899407041,0.030272475653812025
79.43282347242804,1.820994660312661,-0.6105778896436952,0.030878370946782713,0.03038339485822845
63.09573444801929,1.9174557007877704,-0.6070875899915451,0.030958150826179382,0.030404089720411528
50.11872336272725,2.009571864607363,-0.6043664309008532,0.031044203808075932,0.030431853773125447
39.81071705534969,2.1011831272196018,-0.6040693155806118,0.03117840736842671,0.03050749373308988
31.622776601683796,2.1962039746400412,-0.6048896250728995,0.03133672350576369,0.030603790542288165
25.118864315095767,2.296953020400937,-0.602988130920458,0.03143762263431071,0.030634901191593688
19.95262314968879,2.4029020344385104,-0.5933009895549044,0.03137153496186619,0.030487288660248475
15.848931924611108,2.5103652762716404,-0.5714628218983989,0.031047554557965613,0.030068085044472566
12.589254117941664,2.6134799069439323,-0.5356355695691374,0.03043927889847126,0.029352227055640803
10.0,2.7061752750886514,-0.48731808961346457,0.02960292323016698,0.028400863344749498
7.943282347242805,2.7841401912832655,-0.43069925687250604,0.0286546259760439,0.02733761625371412
6.30957344480193,2.845803012672384,-0.3710349537827728,0.027722201857038473,0.026298269019663083
5.011872336272715,2.8920825555293153,-0.313033160584223,0.026901966627003795,0.025385397659345176
3.981071705534969,2.9254128548384335,-0.25994666957166795,0.026240858472629237,0.024649144118586725
3.1622776601683795,2.9487162328883043,-0.21344802252704562,0.025742821195440826,0.024093536001607765
2.5118864315095766,2.9647110216793724,-0.17397006488766753,0.025386202180938778,0.023694803326633252
1.9952623149688788,2.9756017136964754,-0.14116843962031833,0.025140125696333834,0.023418962976858564
1.584893192461111,2.983031119228949,-0.11431020415163874,0.0249747437655429,0.0232330215513072
1.2589254117941662,2.988158566534647,-0.09253277448822016,0.0248656488728839,0.023109897788779983
1.0,2.991773835487553,-0.07498968392524011,0.02479465985959462,0.02302935959860454
0.7943282347242805,2.994403131523912,-0.06091929350723257,0.024748978818404575,0.022977133862415587
0.6309573444801929,2.996392592750815,-0.049668279092346376,0.024719910344262904,0.022943506203563502
0.5011872336272715,2.997968643588396,-0.040691584150087175,0.024701676698312032,0.0229220124137926
0.3981071705534969,2.999279383993499,-0.03354177919409045,0.024690492176758897,0.022908411122953807
0.31622776601683794,3.0004219895293653,-0.02785488560374629,0.02468389754349419,0.022899943194645382
0.2511886431509577,3.0014604152881006,-0.02333620221377464,0.02468030294105651,0.02289482243333227
0.1995262314968879,3.0024367072107703,-0.019747690178592077,0.02467868235387649,0.02289189488522872
0.1584893192461111,3.003378317182234,-0.016897353104852558,0.024678372908151138,0.022890414793811483
0.12589254117941662,3.004303006639004,-0.014630416485686592,0.024678944678121522,0.022889898947654655
0.1,3.0052221838135766,-0.012821874974167993,0.02468011684618483,0.022890032625362332
0.07943282347242805,3.006142984291949,-0.01137010078382798,0.024681703593390756,0.02289060885087308
0.0630957344480193,3.0070692158471006,-0.010191487079875973,0.024683578634660492,0.02289148882531291
0.05011872336272714,3.0080013761879654,-0.009216267298752034,0.024685651332591423,0.022892575794321867
0.039810717055349686,3.0089360829170504,-0.008385619457504276,0.024687850082444507,0.022893797587011742
0.031622776601683784,3.0098652905768484,-0.007650062983926326,0.024690110574820963,0.022895094982091455
0.02511886431509577,3.01077567733972,-0.006969100203688592,0.024692368052966117,0.022896414358495366
0.019952623149688792,3.0116486717163493,-0.006311985274988022,0.024694553800805676,0.022897704026559478
0.01584893192461111,3.0124617183850315,-0.005659255118416617,0.024696596543347295,0.02289891416945742
0.01258925411794166,3.013191299134208,-0.005004143476136104,0.024698429004219535,0.02290000023932024
0.01,3.0138175728951886,-0.004352470340484514,0.024699998326355135,0.02290092873981425
