freq,Zreal,Zimag,sigma_re,sigma_im
1000000.0,0.9966854255275174,0.003528554613165544,0.0027888721894529828,0.002712562390523956
794328.2347242822,0.9968298055731681,0.0025418043540107686,0.0027883772499052366,0.0027120322997032176
630957.344480193,0.9969941960905467,0.0017521152929274573,0.002788114411471705,0.002711737396004459
501187.2336272725,0.9971724730491376,0.001124891093545746,0.0027879939426492086,0.002711586514547723
398107.17055349686,0.9973580965558067,0.000630515368522395,0.002787957734216043,0.0027115209927299658
316227.7660168379,0.997545348963739,0.00024321540378159732,0.002787968996765965,0.0027115039182618763
251188.6431509582,0.9977299693719621,-5.9350331695123956e-05,0.0027880052222574087,0.0027115128186320013
199526.2314968879,0.9979092327814852,-0.0002962954825950693,0.0027880532341328776,0.002711534571564903
158489.3192461114,0.9980817214017111,-0.00048377026080625204,0.0027881057658670724,0.0027115619239875873
125892.5411794166,0.9982470149867818,-0.000635330069133077,0.0027881591921924158,0.002711591206266777
100000.0,0.9984054089866536,-0.0007623480862624679,0.0027882120819235218,0.0027116208916160554
79432.82347242821,0.9985576684239538,-0.0008744226351241088,0.0027882642956682966,0.0027116507147987258
63095.7344480193,0.9987047989503998,-0.0009797849243183931,0.0027883164399914377,0.002711681153119465
50118.72336272724,0.9988478454713554,-0.0010857360750386226,0.002788369576239013,0.002711713157811197
39810.71705534969,0.9989877491528992,-0.0011991198985967057,0.002788425133404838,0.0027117480790666204
31622.776601683792,0.9991252788823227,-0.0013268142214090009,0.002788484993616683,0.002711787755566049
25118.864315095827,0.9992610310061316,-0.0014762243743969676,0.0027885517313996876,0.002711834756540687
19952.623149688792,0.9993954793366795,-0.001655771947197861,0.0027886290096933897,0.0027118927843744604
15848.93192461114,0.9995290452020652,-0.0018753832918754299,0.0027887221727152366,0.002711967280598841
12589.254117941662,0.9996621481559791,-0.002147010215553284,0.0027888391367372387,0.0027120663404558145
10000.0,0.9997952183213081,-0.0024852526684064446,0.0027889917730132305,0.0027122021359280257
7943.282347242814,0.9999287002163337,-0.0029081588287896082,0.002789198102637669,0.002712393172062686
6309.57344480193,1.0000631026396933,-0.0034382375549350456,0.0027894857827258208,0.002712667864212299
5011.8723362727205,1.0001991151046028,-0.004103687991286079,0.002789897594751549,0.002713070168049571
3981.0717055349687,1.0003377683058021,-0.004939885953789569,0.002790500041849393,0.0027136684073806915
3162.2776601683795,1.0004806325789366,-0.005991231908840454,0.0027913968325727215,0.0027145691297926033
2511.8864315095802,1.000630107811589,-0.007313489695012877,0.0027927500710353695,0.0027159388798742874
1995.2623149688789,1.0007898950069556,-0.00897673183664665,0.0027948135300645597,0.002718038370642126
1584.8931924611124,1.0009657490439936,-0.011069017454804701,0.0027979847281653166,0.00272127593490829
1258.9254117941662,1.0011666524682235,-0.013700979391715457,0.0028028860523525746,0.002726290731254903
1000.0,1.0014066550952463,-0.017011544787624372,0.002810490240442768,0.002734081316069405
794.3282347242813,1.0017077779150412,-0.02117502838291558,0.00282231228087399,0.0027462019472099665
630.957344480193,1.0021045858122568,-0.026409837291825895,0.0028406975529499216,0.0027650565783673277
501.187233627272,1.0026513637488517,-0.03298900584679292,0.002869242052155489,0.002794325896780492
398.10717055349687,1.0034333716033337,-0.041252646374677814,0.0029133773533385468,0.002839558022960324
316.227766016838,1.0045844436755464,-0.05162200120720517,0.002981125357566089,0.002908923026654856
251.18864315095797,1.006314268742543,-0.06461391104728112,0.0030839536000971538,0.003014053589029537
199.5262314968879,1.0089500677694732,-0.08085279638490098,0.0032375249973837406,0.0031707564326199345
158.48931924611125,1.0129989170632487,-0.10107392268077497,0.0034619582609678587,0.0033992100167430936
125.89254117941664,1.0192377976080385,-0.12610554380428937,0.003781079260191316,0.0037231487810035014
100.0,1.0288361642385522,-0.15680697188995812,0.00422013408308295,0.004167543904748519
79.43282347242804,1.0435049376373238,-0.1939240422443083,0.004801494712674041,0.004754341663673797
63.09573444801929,1.0656361493023132,-0.23780680548882777,0.005537823652925874,0.005495713566000968
50.11872336272725,1.098336014454745,-0.2879342773528421,0.006422064340744419,0.006384134290765184
39.81071705534969,1.1451615230604284,-0.34225194705182654,0.007414443407984117,0.007379425925577634
31.622776601683796,1.209306613432753,-0.39651433667147584,0.008430041261004804,0.008396316090500712
25.118864315095767,1.2921203980294595,-0.44413747034634443,0.009336637522900657,0.009302245531268866
19.95262314968879,1.3913724690548104,-0.4772510255290341,0.009976345656338599,0.009938980590695666
15.848931924611108,1.500418314142941,-0.48916808566791126,0.010215292627763273,0.010172310308179474
12.589254117941664,1.6094566182234855,-0.47723290030546106,0.010000616900477025,0.009949090974499879
10.0,1.7086893561943892,-0.44411042230908004,0.00938620906788222,0.009323030626081953
7.943282347242805,1.7914797475065436,-0.3964923143459136,0.00850676057456914,0.008428766571853178
6.30957344480193,1.8556051877391901,-0.3422481312224548,0.007520599306841153,0.007424742145633505
5.011872336272715,1.9024196371912812,-0.2879577424223169,0.006559880042119545,0.006443481651513588
3.981071705534969,1.9351185638572288,-0.23786198491552737,0.005708846727479122,0.00556995975687911
3.1622776601683795,1.957258338067941,-0.1940117878390555,0.005005974499427906,0.004843787994443557
2.5118864315095766,1.9719436540229807,-0.15692593770299493,0.004456586293070905,0.004271715540310478
1.9952623149688788,1.981564883628017,-0.1262533123604421,0.004046262146798545,0.0038407443400325755
1.584893192461111,1.9878315073993877,-0.10124777355000335,0.003751332900154836,0.00352826719959409
1.2589254117941662,1.9919118984280848,-0.08105016422421989,0.0035460242867911833,0.0033089829077231426
1.0,1.9945823370863458,-0.0648325967443069,0.0034067422253104274,0.003159188455292688
0.7943282347242805,1.9963495372651885,-0.05186019364961576,0.0033141026179951205,0.0030590014460425015
0.6309573444801929,1.9975406062878183,-0.04150880063188496,0.0032533619841824167,0.002993029385173073
0.5011872336272715,1.9983652304826929,-0.03326163377427994,0.003213923006774718,0.0029500516843718187
0.3981071705534969,1.9989571910125548,-0.026697304335124353,0.0031884731500504563,0.00292224386626294
0.31622776601683794,1.9994015307933426,-0.021475461893476773,0.003172108637003972,0.0029043194415124467
0.2511886431509577,1.999752159629958,-0.017322896159975853,0.0031616040614597073,0.002892783402167844
0.1995262314968879,2.000043225115439,-0.014021179827370701,0.003154864659082527,0.0028853580920907627
0.1584893192461111,2.0002964317666336,-0.011396116368481417,0.0031505406973309754,0.0028805725932663324
0.12589254117941662,2.0005257117171906,-0.009308938150777912,0.0031477664683639012,0.0028774820138607244
0.1,2.0007401721089235,-0.007649082550717867,0.00314598796268055,0.0028754809815481693
0.07943282347242805,2.0009459319416227,-0.006328314082852132,0.0031448508438467813,0.00287418192473834
0.0630957344480193,2.001147222584761,-0.0052759479805102325,0.003144128290098963,0.0028733365007608215
0.05011872336272714,2.0013469514649973,-0.0044349789908652145,0.003143674750494494,0.0028727852121526766
0.039810717055349686,2.0015468376335006,-0.0037590089249886186,0.0031433963838489293,0.002872425230488698
0.031622776601683784,2.001747227103972,-0.0032099508252918002,0.0031432321830262818,0.0028721899006797173
0.02511886431509577,2.0019467574179504,-0.0027565174679923085,0.0031431419442971382,0.0028720357184592042
0.019952623149688792,2.002142115959365,-0.0023734560463791383,0.003143098667763749,0.0028719341059167836
0.01584893192461111,2.002328179314647,-0.0020413674470143328,0.003143083882947892,0.0028718662784217807
0.01258925411794166,2.002498765450464,-0.001746758011027679,0.0031430849041197235,0.0028718200546683677
0.01,2.0026479912959436,-0.001481803735771976,0.0031430932639345955,0.002871787785210468
