freq,Zreal,Zimag,sigma_re,sigma_im
1000000.0,0.9973936668219457,0.0009929811374619025,0.004369669335643202,0.0043620908196445665
794328.2347242822,0.9977904206648834,-0.0001492254077460277,0.0043696776559041,0.004362092998580306
630957.344480193,0.9982465743519191,-0.0011318337166489481,0.004369687903709442,0.004362096234576525
501187.2336272725,0.9987477555665999,-0.0019851687762969675,0.0043696995193123955,0.004362100191921835
398107.17055349686,0.9992788179618569,-0.002741854195356896,0.004369712019640942,0.0043621046240125425
316227.7660168379,0.9998273578569533,-0.0034372940444420373,0.004369725061789377,0.004362109378974679
251188.6431509582,1.0003856625895913,-0.004108730722789967,0.004369738475390768,0.004362114399706497
199526.2314968879,1.0009510763784362,-0.004794171026606689,0.004369752262123429,0.004362119717577409
158489.3192461114,1.0015253753162723,-0.005531967443335101,0.004369766576789612,0.004362125445380996
125892.5411794166,1.0021138302440977,-0.006361285302586151,0.00436978170792647,0.004362131776532944
100000.0,1.0027244570777418,-0.007323353045553968,0.004369798073341046,0.0043621389969441616
79432.82347242821,1.0033677502798986,-0.008463265902873019,0.004369816242254945,0.004362147515551899
63095.7344480193,1.0040570317739026,-0.009832073234062697,0.004369836992256163,0.004362157919415447
50118.72336272724,1.0048093886332776,-0.011488900038849031,0.004369861406288833,0.004362171059357945
39810.71705534969,1.005647057779392,-0.013502970334297381,0.004369891014552431,0.004362188173401762
31622.776601683792,1.006599131712931,-0.015955552141432888,0.004369927990663959,0.004362211059243478
25118.864315095827,1.0077035749485193,-0.018941902841529707,0.004369975419222074,0.004362242313528076
19952.623149688792,1.0090096294717752,-0.022573239446380455,0.004370037658696169,0.004362285662635541
15848.93192461114,1.0105806919809193,-0.02697868155432399,0.004370120828116779,0.004362346415909767
12589.254117941662,1.0124977067763896,-0.03230708417038192,0.004370233452838568,0.0043624320795821936
10000.0,1.0148630901877003,-0.03872870360448743,0.004370387319775834,0.004362553181670284
7943.282347242814,1.0178052352968994,-0.046436719439656736,0.004370598617182198,0.004362724376841243
6309.57344480193,1.0214838276672051,-0.0556487337135127,0.004370889461694909,0.004362965923057995
5011.8723362727205,1.026096616948253,-0.06660832437515282,0.004371289933227271,0.004363305638737351
3981.0717055349687,1.0318888406916118,-0.0795862713871543,0.004371840728498903,0.004363781439634257
3162.2776601683795,1.03916682732084,-0.0948800392143887,0.0043725964811097955,0.004364444487284679
2511.8864315095802,1.0483169875339349,-0.11280864571763695,0.004373629636386793,0.004365362809755207
1995.2623149688789,1.0598302232896475,-0.13369852566311702,0.00437503442718096,0.004366624899847495
1584.8931924611124,1.0743296062103191,-0.15785462088832422,0.00437692982453158,0.004368342114700801
1258.9254117941662,1.0925954063127659,-0.1855100470923076,0.004379459183894096,0.0043706475534439826
1000.0,1.1155754246880754,-0.21674891241722904,0.004382782781143173,0.004373687607154119
794.3282347242813,1.1443611340566933,-0.25140341074623407,0.004387058350635671,0.004377601407469721
630.957344480193,1.1801061867761429,-0.28894077486777286,0.004392405928538626,0.004382484792476707
501.187233627272,1.2238713356246336,-0.32837590324120186,0.004398859009120518,0.004388341375982211
398.10717055349687,1.2764048854177075,-0.3682614021634799,0.004406314618961087,0.00439503411838362
316.227766016838,1.3379067557564013,-0.4068024183339465,0.004414505781073558,0.004402261591581907
251.18864315095797,1.4078582558532058,-0.44210778667263917,0.004423021260324076,0.0044095838741309455
199.5262314968879,1.485002438313694,-0.47252990817883517,0.004431381594913787,0.004416505761859385
158.48931924611125,1.5675185507116272,-0.4969928545792799,0.004439151530278054,0.004422594609552517
125.89254117941664,1.6533629447041625,-0.515192644778642,0.004446044855293777,0.004427585601934802
100.0,1.7406796611476545,-0.5275874316138053,0.00445197634288819,0.004431427571357964
79.43282347242804,1.8281484488427227,-0.5351675223115326,0.004457039873225585,0.00443425003676562
63.09573444801929,1.9151550493026321,-0.5390760189009683,0.004461426489215102,0.004436269637406464
50.11872336272725,2.0017314090377294,-0.5402034413231386,0.00446531956309225,0.004437678166179556
39.81071705534969,2.0882910252564417,-0.538883907817238,0.004468806533770009,0.0044385548503630195
31.622776601683796,2.1752461707934554,-0.5347838411486525,0.004471834818785298,0.004438830677625949
25.118864315095767,2.2626259573342633,-0.5270154893799797,0.004474224518981145,0.0044383148352310185
19.95262314968879,2.3498140418000695,-0.5144418073471992,0.004475735056817316,0.004436776057432238
15.848931924611108,2.4354912169230927,-0.49608063858002527,0.004476164804339189,0.004434052898649676
12.589254117941664,2.5178061311628483,-0.4714818588492181,0.004475446180706527,0.004430150962491298
10.0,2.594722676114173,-0.4409562468619566,0.004473695423170348,0.004425284134212964
7.943282347242805,2.6644307055650343,-0.4055842939186173,0.004471194329905292,0.004419838903511895
6.30957344480193,2.7256860937455345,-0.3670132927699879,0.004468313777194537,0.004414277410565652
5.011872336272715,2.7779809124203663,-0.3271275730650805,0.004465416106029483,0.004409023701675816
3.981071705534969,2.8215187634375054,-0.28771187234493617,0.004462778335497381,0.004404380265587473
3.1622776601683795,2.857044249631855,-0.2502070078728703,0.0044605597756133455,0.00440049885997711
2.5118864315095766,2.885612661985808,-0.21559949626608085,0.004458811470915051,0.0043973995235404816
1.9952623149688788,2.908377314059317,-0.18442967773164123,0.004457508562287961,0.004395014130619892
1.584893192461111,2.9264371500514788,-0.15687288994613266,0.004456585833126732,0.004393231281844673
1.2589254117941662,2.940752587908178,-0.1328469823340751,0.004455965049238952,0.004391929715375499
1.0,2.9521165768980895,-0.11211353200036368,0.004455571403684425,0.004390997690925031
0.7943282347242805,2.9611607978097982,-0.09435683276635112,0.004455341173129454,0.004390341335833436
0.6309573444801929,2.968378915060329,-0.07923749069929276,0.00445522385405924,0.004389886208127818
0.5011872336272715,2.974154525613643,-0.06642438136874693,0.004455181430620988,0.004389575491854026
0.3981071705534969,2.9787870678416684,-0.05561088503755245,0.004455186447354367,0.00438936696028564
0.31622776601683794,2.9825128336865734,-0.04652097325584152,0.004455219796387987,0.0043892298301166435
0.2511886431509577,2.985520510679017,-0.038909598660896945,0.004455268655843991,0.004389141996578829
0.1995262314968879,2.987961994099661,-0.032560585716900646,0.004455324754997794,0.004389087793282925
0.1584893192461111,2.98995984534877,-0.027283920679681214,0.004455383008133723,0.004389056254864008
0.12589254117941662,2.9916127450514587,-0.022913171266796907,0.0044554404920531376,0.004389039800770493
0.1,2.99299978932296,-0.01930306025857294,0.004455495707946022,0.004389033253528082
0.07943282347242805,2.994183943462095,-0.01632706763585301,0.004455548057451733,0.004389033118200899
0.0630957344480193,2.9952147102600963,-0.013875080941132916,0.0044555974705843045,0.004389037062276387
0.05011872336272714,2.99613006478569,-0.011851244219804236,0.004455644138128493,0.004389043543609841
0.039810717055349686,2.9969577721243037,-0.010172176744504666,0.004455688314036026,0.004389051542860574
0.031622776601683784,2.997716248086536,-0.008765718946820582,0.004455730165456914,0.004389060368746851
0.02511886431509577,2.9984151988410295,-0.007570364369468666,0.0044557696635706585,0.004389069517468363
0.019952623149688792,2.9990564386661087,-0.0065354663759957,0.004455806525494791,0.004389078578420653
0.01584893192461111,2.9996354383955572,-0.005622033772652428,0.004455840229136525,0.004389087184606597
0.01258925411794166,3.0001440578665495,-0.0048034579999902014,0.0044558701197276,0.004389095006347683
0.01,3.0005743531387377,-0.004065127464414571,0.004455895598837751,0.004389101779816029
