freq,Zreal,Zimag,sigma_re,sigma_im
1000000.0,0.9982854288049499,0.0014581088281679622,0.0028767765921976825,0.0028024024317378935
794328.2347242822,0.9985930269003153,0.00038680812859105945,0.0028772435419784246,0.0028028339173035138
630957.344480193,0.9989444913242347,-0.0005341850716712093,0.002877813295812613,0.002803364507002216
501187.2336272725,0.9993286803491509,-0.0013383408380551872,0.002878456335030176,0.0028039655488775635
398107.17055349686,0.9997345843161032,-0.0020598910600872085,0.002879148171557491,0.002804613570812729
316227.7660168379,1.0001538695023353,-0.002734228153588894,0.0028798724936744966,0.0028052931041134483
251188.6431509582,1.0005820316038927,-0.003397447439912993,0.0028806223579370066,0.002805997719053543
199526.2314968879,1.0010184426283746,-0.0040860937457722025,0.002881399915019793,0.002806729733308811
158489.3192461114,1.001465979267722,-0.004837541215806557,0.002882215880124467,0.0028074997352593575
125892.5411794166,1.0019307762816312,-0.005690898203137624,0.0028830897171687056,0.002808326831720303
100000.0,1.0024222967003977,-0.006688145254212073,0.0028840509403747247,0.002809239994064902
79432.82347242821,1.0029536541976318,-0.007875314171268546,0.0028851415590642523,0.0028102805283726374
63095.7344480193,1.003542070867333,-0.009303698275507134,0.0028864196751532015,0.0028115056992947876
50118.72336272724,1.0042094454215094,-0.011031181530610643,0.002887964497546928,0.0028129937984293003
39810.71705534969,1.004983101903363,-0.013123736513652885,0.0028898833383577864,0.002814851244470901
31622.776601683792,1.0058967728235149,-0.015657049242708183,0.002892321300370788,0.002817222447234367
25118.864315095827,1.0069917562877728,-0.0187182273370194,0.002895474381431474,0.002820303193208636
19952.623149688792,1.0083181210322671,-0.022407698735799418,0.0028996069056541536,0.002824358493626913
15848.93192461114,1.0099359511267947,-0.026841604516674628,0.002905074824048879,0.0028297464492880735
12589.254117941662,1.0119169001483574,-0.03215506456509124,0.0029123574903705367,0.0028369507395345564
10000.0,1.0143466393020437,-0.03850659729423057,0.0029221017990646893,0.0028466256440023885
7943.282347242814,1.0173290937804247,-0.04608375092204584,0.002935183903430095,0.0028596588459081306
6309.57344480193,1.0209937204319306,-0.05510960190382135,0.002952794717252255,0.0028772581700799715
5011.8723362727205,1.025507398438185,-0.06584898064717834,0.0029765544876477566,0.0029010672837473665
3981.0717055349687,1.031092373420387,-0.07861200099104479,0.0030086554940587126,0.0029333088299110786
3162.2776601683795,1.0380506649751824,-0.09375107308603187,0.0030520160910612786,0.0029769371975109254
2511.8864315095802,1.046793445808302,-0.11164670406750146,0.003110401538719876,0.0030357548799528292
1995.2623149688789,1.0578715017394613,-0.1326773000723383,0.003188430139673921,0.003114409248706125
1584.8931924611124,1.071999948861893,-0.15716889124164418,0.00329134936125874,0.0032181535960933766
1258.9254117941662,1.0900665972985413,-0.18532302853348587,0.0034244639976879977,0.0033522564223916677
1000.0,1.1131096631134998,-0.21712682433365318,0.0035921679880056134,0.0035210166170562226
794.3282347242813,1.1422502114746154,-0.25225905849935215,0.0037966947033890993,0.0037265080111214257
630.957344480193,1.1785719652449302,-0.2900178825478169,0.004036908837044425,0.003967382669285679
501.187233627272,1.2229575360778338,-0.32930247297046855,0.004307591146708776,0.004238182884387348
398.10717055349687,1.2759114264085172,-0.3686757367603792,0.004599596065881173,0.004529533235239575
316.227766016838,1.337416598029171,-0.40651526112634023,0.004900989497888353,0.004829309767172028
251.18864315095797,1.4068731176844573,-0.4412304234610083,0.0051989274000383365,0.005124540614642713
199.5262314968879,1.4831500384427023,-0.4714961676524776,0.0054817725526710905,0.0054035338060220905
158.48931924611125,1.5647491647647738,-0.4964406878133243,0.005740864859216893,0.00565764786010201
125.89254117941664,1.650043241659023,-0.5157327963363986,0.005971479527181885,0.005882239752819647
100.0,1.7375259332485453,-0.529543458194322,0.006172777331687934,0.00607659503736168
79.43282347242804,1.8260068741987072,-0.5383940488112883,0.0063468665815688465,0.006242962112183307
63.09573444801929,1.9147028990167767,-0.5429369011167793,0.006497340330028423,0.006385059215386999
50.11872336272725,2.0032082878259088,-0.5437307233209195,0.006627752088683432,0.00650652472250392
39.81071705534969,2.0913609008703076,-0.5410711684583114,0.006740445373115901,0.006609733864531004
31.622776601683796,2.179047601443166,-0.5349185390437049,0.006836002607872375,0.006695252702309931
25.118864315095767,2.266005621904133,-0.5249369796901242,0.006913387023811663,0.006762003163558505
19.95262314968879,2.3516745980102276,-0.5106300961091054,0.006970667463234681,0.0068080235990566835
15.848931924611108,2.4351383030223652,-0.49153404307521564,0.007006074324487153,0.006831564074021762
12.589254117941664,2.515170482580067,-0.46741662963663416,0.007019058394600472,0.006832178592257268
10.0,2.5903728833020803,-0.43843215082141057,0.007011029774221702,0.0068114832179346834
7.943282347242805,2.659372130794153,-0.4051944206483402,0.00698554602234585,0.00677334266241446
6.30957344480193,2.72102935794452,-0.36875070952060307,0.006947881013847443,0.006723412557950172
5.011872336272715,2.774614065807099,-0.33046270011836826,0.006904100315816116,0.006668163634770769
3.981071705534969,2.8199021794044077,-0.29182305391907254,0.006859938232537772,0.006613691681229532
3.1622776601683795,2.857177455219306,-0.25425290339873224,0.006819845367427447,0.006564700604487344
2.5118864315095766,2.887142395837216,-0.21893011550941877,0.006786496105465151,0.006523970545596811
1.9952623149688788,2.910770735107517,-0.18668572089549512,0.0067608322056650644,0.006492401385055347
1.584893192461111,2.929146272212894,-0.1579803052274332,0.006742492908667819,0.0064694781485938845
1.2589254117941662,2.943326964977473,-0.13294623141416537,0.006730377160635908,0.006453885127519454
1.0,2.9542549845338995,-0.11146721898475237,0.006723128498918509,0.0064440386490394125
0.7943282347242805,2.9627142999496385,-0.09326667980622759,0.006719450023772299,0.006438434225812576
0.6309573444801929,2.9693250840328327,-0.077985046443737,0.006718255646790724,0.006435813020908838
0.5011872336272715,2.974560293495092,-0.06523719996235894,0.006718708485718808,0.006435203111275885
0.3981071705534969,2.9787716992895654,-0.054649469168524215,0.006720199499997993,0.006435894281044444
0.31622776601683794,2.9822169841699155,-0.04588006544715633,0.006722303803300835,0.006437387974934755
0.2511886431509577,2.985083656572005,-0.03862791725138231,0.0067247351483098565,0.006439345258923274
0.1995262314968879,2.9875082985049337,-0.032634218467595205,0.006727307103355011,0.006441542341357942
0.1584893192461111,2.9895911302926277,-0.02767987904162815,0.006729902863731882,0.0064438359212570465
0.12589254117941662,2.99140652811784,-0.02358103806677718,0.006732452864922332,0.006446137517954862
0.1,2.993010348972499,-0.020183987153942932,0.006734918612682907,0.006448395015609861
0.07943282347242805,2.994444889807631,-0.017360245673436078,0.006737281163141014,0.006450579602906277
0.0630957344480193,2.9957421314285972,-0.015002133033376526,0.006739532858326299,0.006452676476339561
0.05011872336272714,2.996925707502862,-0.013019014772235132,0.006741671142846939,0.0064546779637010745
0.039810717055349686,2.998011940559935,-0.011334393349505542,0.006743693697803227,0.006456578196658984
0.031622776601683784,2.9990103427098145,-0.009883996104968722,0.0067455947291677225,0.0064583690918532995
0.02511886431509577,2.9999240607292865,-0.008614866545677367,0.006747362741372454,0.006460037902952474
0.019952623149688792,3.000750726057671,-0.0074852538686041034,0.006748980256998132,0.0064615667395308
0.01584893192461111,3.0014840718333873,-0.006464906578919886,0.0067504258068088,0.006462934315691991
0.01258925411794166,3.0021165212800414,-0.005535164172764614,0.0067516782498119165,0.0064641199470125065
0.01,3.002642567897471,-0.004688016300889476,0.006752722825183735,0.006465109210396672
