freq,Zreal,Zimag,sigma_re,sigma_im
1000000.0,0.9995734472693438,0.0010288548539320631,0.002619076246899133,0.002554098352043872
794328.2347242822,0.999667375712399,0.0006487488568147615,0.002619092616118976,0.002554103463922526
630957.344480193,0.9997687461797159,0.0003446243854615985,0.002619111190391556,0.002554110047437186
501187.2336272725,0.9998714446485654,0.00010214315317158193,0.002619130506422254,0.0025541173243509266
398107.17055349686,0.9999698239408131,-9.336958372021175e-05,0.0026191493691404047,0.0025541246864293843
316227.7660168379,1.0000600410494602,-0.0002569714010878969,0.0026191670588144554,0.002554131748877401
251188.6431509582,1.0001408979625501,-0.000403553137662489,0.002619183436570138,0.00255413838133858
199526.2314968879,1.0002141057266498,-0.000547028702359856,0.0026191989372908665,0.0025541447060980316
158489.3192461114,1.0002840087522942,-0.0006995322305619212,0.002619214467165129,0.0025541510633477127
125892.5411794166,1.000356867774934,-0.0008708312195630131,0.002619231233985339,0.002554157948291991
100000.0,1.0004398449788718,-0.001068116024305597,0.002619250543658569,0.0025541659285642053
79432.82347242821,1.0005398825304885,-0.0012962739421221955,0.002619273604661065,0.002554175557318994
63095.7344480193,1.0006627066532843,-0.0015586731708308894,0.0026193013871085775,0.0025541873046347795
50118.72336272724,1.0008121867431736,-0.0018583714028495301,0.0026193345708149306,0.0025542015285943175
39810.71705534969,1.00099021903797,-0.0021995588049122795,0.002619373590936052,0.002554218496649368
31622.776601683792,1.001197189338604,-0.0025889718435254533,0.0026194187672355785,0.0025542384544059243
25118.864315095827,1.0014329092943683,-0.003037016703641008,0.0026194704915267365,0.002554261728208806
19952.623149688792,1.0016977891313343,-0.003558456024541393,0.002619529449170926,0.0025542888460044297
15848.93192461114,1.0019939943537055,-0.004172676068684267,0.002619596861537981,0.002554320671137165
12589.254117941662,1.0023264075693423,-0.004903653425932203,0.0026196747413177123,0.0025543585556887646
10000.0,1.0027032832042284,-0.005779774574250177,0.00261976614462957,0.0025544045215097903
7943.282347242814,1.0031365253508995,-0.0068336967110717226,0.0026198754039512976,0.0025544614736585257
6309.57344480193,1.0036415895893651,-0.00810248834291439,0.0026200083527813897,0.0025545334575544734
5011.8723362727205,1.004237127317717,-0.009628306690362421,0.0026201725960603786,0.002554625992411139
3981.0717055349687,1.0049446253872816,-0.01145982127699289,0.002620377921236797,0.002554746544536763
3162.2776601683795,1.0057884067270275,-0.01365447410520381,0.0026206369839450365,0.002554905243201489
2511.8864315095802,1.0067964104184932,-0.016281483311915063,0.002620966446161724,0.0025551159875481367
1995.2623149688789,1.0080021132383787,-0.01942528636268017,0.0026213887809591135,0.0025553981328232966
1584.8931924611124,1.0094477787657397,-0.02318897302569286,0.0026219349723671024,0.0025557789662767187
1258.9254117941662,1.0111890132611145,-0.02769725636425036,0.002622648346109637,0.002556297196834212
1000.0,1.0133004934490157,-0.03309863953999604,0.0026235897848964707,0.002557007704286524
794.3282347242813,1.0158827556939043,-0.03956654867634113,0.0026248445957553312,0.00255798782025895
630.957344480193,1.0190700677027973,-0.04729922718627106,0.00262653127867731,0.002559345418819672
501.187233627272,1.0230395887179973,-0.056518063652647665,0.002628812368054284,0.0025612290225839086
398.10717055349687,1.0280221754952958,-0.06746369908832238,0.0026319073049566226,0.0025638398698446187
316.227766016838,1.0343151647267632,-0.08038873134161538,0.0026361067633390678,0.0025674452581434396
251.18864315095797,1.042297148202253,-0.0955452182874747,0.002641786712635774,0.0025723912276439677
199.5262314968879,1.052444183528989,-0.11316454536670993,0.0026494184297978663,0.0025791104585680415
158.48931924611125,1.0653459387151483,-0.13342638515793773,0.0026595673133647,0.0025881177792886198
125.89254117941664,1.081718234309923,-0.15641240626271616,0.0026728685223065454,0.0025999808451938468
100.0,1.1024042845246973,-0.18204014273778227,0.0026899622643918836,0.002615248675348852
79.43282347242804,1.1283506500994522,-0.20997553262174568,0.002711370209563414,0.0026343202888802846
63.09573444801929,1.1605381154686985,-0.23953196779875843,0.002737304975888494,0.002657247777679588
50.11872336272725,1.1998480867904158,-0.2695800195330649,0.0027674347495653,0.0026835004185823126
39.81071705534969,1.246858707057973,-0.29851095264826705,0.002800672585243654,0.0027117657690665146
31.622776601683796,1.3015955129990284,-0.32430751044023104,0.002835102407173746,0.0027399060545644943
25.118864315095767,1.3633028257038426,-0.3447616218266999,0.0028681520743237808,0.002765182272701598
19.95262314968879,1.4303327928489034,-0.35783064687984756,0.0028970476401375326,0.0027847727428352855
15.848931924611108,1.5002390305287006,-0.3620528865965563,0.0029194465714327852,0.002796464310808505
12.589254117941664,1.570096378092644,-0.35688823679681686,0.002934024665727415,0.002799264145815492
10.0,1.636972354753929,-0.342854715369905,0.0029407739586051916,0.0027936687749181726
7.943282347242805,1.6984048994239433,-0.32140476310392274,0.0029408895263979295,0.0027814682736514683
6.30957344480193,1.7527379022138914,-0.2945881712660339,0.0029363146303175215,0.0027651802454662657
5.011872336272715,1.7992303613504843,-0.2646253211321191,0.0029291579424861208,0.002747366869131186
3.981071705534969,1.8379484958693086,-0.2335291416071823,0.0029212139787540676,0.0027300993002041477
3.1622776601683795,1.8695235695188466,-0.20286810035767514,0.002913718424238465,0.002714711115413203
2.5118864315095766,1.894880022259354,-0.17368935646977696,0.0029073347500259603,0.00270182317397059
1.9952623149688788,1.9150116938447106,-0.1465628410905781,0.0029022813891837213,0.002691524639221213
1.584893192461111,1.9308371355550586,-0.12168572246661256,0.0028984979668784275,0.0026835886239811113
1.2589254117941662,1.9431271358478124,-0.09899709139726193,0.0028957861836496285,0.002677648845663171
1.0,1.9524805035425588,-0.07827586845106761,0.0028939036265096933,0.0026733151232132164
0.7943282347242805,1.9593241282790872,-0.05921540062983076,0.0028926146787030477,0.0026702354475182403
0.6309573444801929,1.963921435131093,-0.04148013604825026,0.002891711267673063,0.002668121332690314
0.5011872336272715,1.9663829245895466,-0.024753929215457687,0.0028910152815535693,0.002666750862083852
0.3981071705534969,1.966680696425163,-0.008788463023998546,0.002890370742824539,0.002665958126702206
0.31622776601683794,1.964674910160185,0.006544457317548965,0.002889630698317712,0.0026656128536892212
0.2511886431509577,1.9601630796745815,0.021201034881829405,0.0028886428048897203,0.0026655922391908226
0.1995262314968879,1.9529603353839087,0.03492896837120826,0.0028872392263252023,0.0026657497005714687
0.1584893192461111,1.9430069114081219,0.04727037042940791,0.002885239546095678,0.002665891927458264
0.12589254117941662,1.9304786436787191,0.057627101526147986,0.0028824760913998423,0.0026657814821817397
0.1,1.9158573260818559,0.06539198643658108,0.002878843756695557,0.0026651781000854493
0.07943282347242805,1.8999179411988818,0.07011503333995861,0.0028743594525387833,0.002663911563130881
0.0630957344480193,1.8836190585647277,0.07164526739147992,0.0028691993069679105,0.0026619518181149222
0.05011872336272714,1.867928271641316,0.07019017606488918,0.002863682771015137,0.002659432574029323
0.039810717055349686,1.8536467468931976,0.06627012047273105,0.0028581997449116116,0.002656608932162787
0.031622776601683784,1.841294372946654,0.060592470917728,0.0028531122594371776,0.0026537714443195153
0.02511886431509577,1.8310836231655032,0.05390039408376738,0.0028486765025191106,0.0026511628681336187
0.019952623149688792,1.8229693598054937,0.046849765271663235,0.0028450134587286926,0.002648932830411485
0.01584893192461111,1.8167368979466212,0.03994212867026496,0.002842125417234835,0.002647135806959606
0.01258925411794166,1.8120901203032416,0.033511884057722395,0.0028399359790511744,0.0026457557680646263
0.01,1.8087171508657445,0.027748198022797817,0.0028383310042646766,0.00264473718253763
