freq,Zreal,Zimag,sigma_re,sigma_im
1000000.0,0.9985499204486893,0.0013885182836231651,0.012857538885600239,0.0014483363562964192
794328.2347242822,0.9987335945991547,0.0007759222908375453,0.012859807322872431,0.0014477052123554913
630957.344480193,0.9989432962899633,0.0002833870695901051,0.012862444377527276,0.0014474720522832225
501187.2336272725,0.9991709942220047,-0.00010531678362713502,0.012865331003775756,0.0014474639443677188
398107.17055349686,0.9994077433959517,-0.00040576781009939525,0.01286834277240833,0.0014475679033171367
316227.7660168379,0.999645400713858,-0.000633435742536695,0.012871370022323808,0.001447715137374963
251188.6431509582,0.9998777187256735,-0.0008033828166555394,0.012874330335721251,0.0014478682353528144
199526.2314968879,1.0001007241963835,-0.0009296703606668788,0.012877172110707175,0.0014480104595978591
158489.3192461114,1.0003125535062058,-0.0010248468917141288,0.012879871514340276,0.001448137386086781
125892.5411794166,1.000512987551169,-0.001099684840046553,0.01288242597427369,0.0014482510566091787
100000.0,1.000702890076572,-0.0011631900237194094,0.012884846783140369,0.0014483564283811993
79432.82347242821,1.0008836856726142,-0.0012228374774467612,0.012887152441646562,0.0014484595910426703
63095.7344480193,1.0010569525341608,-0.0012849630819239464,0.01288936355299036,0.0014485671318570951
50118.72336272724,1.0012241596611249,-0.0013552404418711408,0.012891499536210358,0.0014486861955699838
39810.71705534969,1.00138654616756,-0.0014391819398348507,0.012893577098692542,0.0014488250473976682
31622.776601683792,1.0015451142854557,-0.0015426176519565801,0.012895610150402146,0.0014489941247002108
25118.864315095827,1.001700686651837,-0.0016721315153649574,0.012897610600460895,0.0014492076420529955
19952.623149688792,1.0018539744397,-0.0018354709888882645,0.012899589403529161,0.0014494859081767343
15848.93192461114,1.002005622939546,-0.00204197702159976,0.012901557454714913,0.001449858702083372
12589.254117941662,1.0021562297633335,-0.002303089364717109,0.012903526317302447,0.0014503703491072688
10000.0,1.0023063479834373,-0.002632976177736639,0.012905509053374078,0.001451087554887776
7943.282347242814,1.0024564937480538,-0.0030493337142441738,0.012907521587794658,0.0014521116700425304
6309.57344480193,1.002607187531169,-0.003574400949312,0.012909585213786861,0.0014535979663979658
5011.8723362727205,1.002759065286809,-0.0042362242216753936,0.012911731044543148,0.0014557858181744978
3981.0717055349687,1.0029130836102689,-0.005070197060833479,0.012914007300197972,0.0014590455619402983
3162.2776601683795,1.0030708167213434,-0.006120917172401379,0.01291649039036628,0.0014639504751549405
2511.8864315095802,1.0032348351923115,-0.007444455325403739,0.01291930123349801,0.0014713859095342602
1995.2623149688789,1.0034091946622556,-0.009111195479606898,0.012922629593822878,0.0014827118521775382
1584.8931924611124,1.0036001441201896,-0.011209446008572654,0.012926771598706857,0.0014999986187028418
1258.9254117941662,1.0038172590820789,-0.01385002408106062,0.012932188961728765,0.001526354393935419
1000.0,1.0040752952453118,-0.017172000706137416,0.012939602881161312,0.0015663515747339693
794.3282347242813,1.004397165168426,-0.021349795383588218,0.01295014187705624,0.001626529313516439
630.957344480193,1.0048186249670017,-0.026601828324012977,0.012965572388628993,0.0017159027516242223
501.187233627272,1.0053955886045673,-0.03320092713191987,0.012988655216063173,0.001846366383798709
398.10717055349687,1.0062155216948243,-0.041486552337235985,0.013023690351968388,0.002032884051621573
316.227766016838,1.0074151531457693,-0.0518785147351043,0.013077335131967328,0.002293443650451684
251.18864315095797,1.0092078265140974,-0.06489098450476932,0.013159796653980486,0.00264887983632228
199.5262314968879,1.011925195900547,-0.08114382699017567,0.013286483535692757,0.0031227074929973194
158.48931924611125,1.0160794297868432,-0.101364897492746,0.013480096169223037,0.003740945041196328
125.89254117941664,1.0224527284361726,-0.12637071392868174,0.013772830826031352,0.004531533549985576
100.0,1.03221835339429,-0.1570024862120982,0.014207728666463065,0.0055224561532856735
79.43282347242804,1.0470860484563724,-0.19397932935219678,0.014837164139731053,0.006737107069081337
63.09573444801929,1.0694347326930023,-0.23761496401639173,0.015715394936475623,0.00818498366356528
50.11872336272725,1.1023345846936565,-0.28734638749074115,0.01688214081817095,0.009845923779328889
39.81071705534969,1.1492717118900435,-0.34108629846109684,0.01833717835564511,0.011648305772439851
31.622776601683796,1.213332899221703,-0.39459591762272994,0.020013218790338072,0.013447902229857513
25.118864315095767,1.2957517441055961,-0.44137383432547056,0.02176393433226291,0.015024179908922628
19.95262314968879,1.3942384743459204,-0.47371756046362956,0.02338758014037006,0.01611625064077734
15.848931924611108,1.5022117419688783,-0.485138815922165,0.024691332361704923,0.01650456532083731
12.589254117941664,1.6100566115946187,-0.4731078396947331,0.025566993842569868,0.016103691651024633
10.0,1.708196421172722,-0.4402724944908088,0.026026894911624146,0.015003515136653656
7.943282347242805,1.790142901330813,-0.39319034789606944,0.026175246727996662,0.01342637545460756
6.30957344480193,1.8537077709306438,-0.3395688449227207,0.026143485546513766,0.011633764537488921
5.011872336272715,1.9001980655063395,-0.2858690148133668,0.02603802326471592,0.00984528391585131
3.981071705534969,1.9327356554162884,-0.23627414914999528,0.025922423765817798,0.008203714450798011
3.1622776601683795,1.9548120296750713,-0.1928224723946709,0.02582463622335106,0.006779409190160995
2.5118864315095766,1.9694867775927494,-0.15604249482594187,0.025751590409859797,0.00559163325937709
1.9952623149688788,1.979122872565698,-0.12560002586188254,0.02570088029016068,0.004630214660798832
1.584893192461111,1.9854145450906597,-0.10076570548925584,0.02566737025171128,0.003871028395285965
1.2589254117941662,1.9895222007143811,-0.08069444204564019,0.02564607870851783,0.003285068592458389
1.0,1.9922181636827545,-0.06456937483211812,0.02563307698344087,0.002843013487960714
0.7943282347242805,1.9940072908429785,-0.05166410101104348,0.025625546173554975,0.002517270436333288
0.6309573444801929,1.995215944140138,-0.04136102349422152,0.025621564718275196,0.0022828972553906764
0.5011872336272715,1.996053737857575,-0.03314850428199205,0.025619862195124524,0.0021181270983988247
0.3981071705534969,1.9966548737275678,-0.026609185406928217,0.025619615105537365,0.002004709440623865
0.31622776601683794,1.9971051793677965,-0.021405758735768523,0.025620296750926558,0.0019280208753829793
0.2511886431509577,1.997459538058858,-0.01726713356495139,0.02562157316286021,0.0018768807316026743
0.1995262314968879,1.997753050343983,-0.013976187348175066,0.025623233595987616,0.0018431067898722515
0.1584893192461111,1.9980081839957387,-0.011359389611461122,0.02562514548450533,0.0018209309664570842
0.12589254117941662,1.998239357745447,-0.00927819224782558,0.025627225816524834,0.0018064054079146984
0.1,1.9984558516580595,-0.007621964950151441,0.025629422812831624,0.0017968863350597208
0.07943282347242805,1.9986636097390762,-0.006302262434130028,0.025631703729182935,0.0017906298380597938
0.0630957344480193,1.9988663228130825,-0.005248229978465032,0.025634046348554707,0.0017864968121129496
0.05011872336272714,1.999066060451585,-0.004402953473735697,0.025636432832905363,0.001783747389175692
0.039810717055349686,1.9992636105234585,-0.003720570456685787,0.025638844945477475,0.0017819020680439233
0.031622776601683784,1.9994585982896211,-0.003164012993155338,0.02564125970553605,0.0017806498736531806
0.02511886431509577,1.9996494382795071,-0.0027033380493406353,0.02564364502434948,0.0017797886048805229
0.019952623149688792,1.9998332380910653,-0.0023146519280373796,0.025645956136834524,0.0017791864989127619
0.01584893192461111,2.0000058742047835,-0.001979582351984105,0.025648135163109598,0.0017787578719026657
0.01258925411794166,2.0001624886626783,-0.0016850791437745614,0.025650116621502853,0.0017784475475428618
0.01,2.0002984968764825,-0.0014231204161835082,0.025651839772382716,0.0017782204896330852
