freq,Zreal,Zimag,sigma_im
0.01,2.985891065658264,0.018010997135775142,0.0010306158277659377
0.01258925411794166,2.9858316857339475,0.012240744429844685,0.0007239931745631756
0.01584893192461111,2.984972901662867,0.007511574569241564,0.0005296687178824797
0.019952623149688792,2.9835560754435324,0.003881984873292943,0.00041636432169211285
0.02511886431509577,2.9818548823403397,0.0013438247354553567,0.0003574449699917173
0.031622776601683784,2.9801535657203804,-0.0001830518034142692,0.00033170718591885723
0.039810717055349686,2.9787257350755976,-0.0008529670398242928,0.0003235202634079906
0.05011872336272714,2.9778139392312717,-0.000893097091501982,0.00032241717674436066
0.0630957344480193,2.9776104726888737,-0.0005984822791207378,0.00032228570334703194
0.07943282347242805,2.9782400374116103,-0.00032339902330091874,0.00032033603367057073
0.1,2.9797449630486135,-0.0004693218427229695,0.00031601818110650604
0.12589254117941662,2.982073686409288,-0.0014698987454893064,0.00031003495244599083
0.1584893192461111,2.9850731153834538,-0.0037735402603780166,0.00030355189992970627
0.1995262314968879,2.9884853663314983,-0.00782436954946819,0.00029765425771394183
0.2511886431509577,2.9919491818210964,-0.01404238890687104,0.000293051983105419
0.31622776601683794,2.9950061230668075,-0.022803778562629162,0.00028999542099204106
0.3981071705534969,2.9971114046231966,-0.03442225342940697,0.00028834045946884296
0.5011872336272715,2.997649013695942,-0.04913236156882039,0.0002876944948111901
0.6309573444801929,2.9959505477941715,-0.06707551734267447,0.00028758102680010583
0.7943282347242805,2.9913170254573256,-0.0882894293906169,0.00028757694013208795
1.0,2.9830427859637787,-0.11270141728647953,0.0002873971534070388
1.2589254117941662,2.9704405025765848,-0.14012592213705677,0.00028692123811456527
1.584893192461111,2.9528662937460792,-0.17026631801712533,0.0002861719738032481
1.9952623149688788,2.9297439278636546,-0.2027209343812597,0.0002852645608493465
2.5118864315095766,2.9005871763117566,-0.23699301675315043,0.0002843471779098439
3.1622776601683795,2.8650194704130483,-0.27250419259641445,0.0002835500785113021
3.981071705534969,2.822790151959734,-0.3086108794865212,0.000282953696774807
5.011872336272715,2.7737867644583725,-0.3446229771005269,0.00028257869964547905
6.30957344480193,2.718043002772193,-0.3798241258995172,0.0002823946069571079
7.943282347242805,2.655742112635248,-0.4134927908058783,0.0002823397480621187
10.0,2.587215699891855,-0.44492343701760273,0.0002823442845940813
12.589254117941664,2.5129380653642155,-0.473447099468451,0.0002823493801958621
15.848931924611108,2.4335163201077945,-0.49845070427863014,0.000282318416240282
19.95262314968879,2.349676654722698,-0.519394571458081,0.00028223935994863697
25.118864315095767,2.262247234510805,-0.5358276092776091,0.00028212004982863803
31.622776601683796,2.172138270288867,-0.5473997965154593,0.00028197968862310463
39.81071705534969,2.0803198742699838,-0.5538716363828184,0.00028184006186939004
50.11872336272725,1.9877983537039043,-0.5551203531258873,0.0002817191492449772
63.09573444801929,1.8955916238665562,-0.5511426890494739,0.000281628333639726
79.43282347242804,1.8047044378502703,-0.5420542457754376,0.0002815728922574562
100.0,1.7161041338662761,-0.5280854003181634,0.0002815543518334268
125.89254117941664,1.6306975908699277,-0.5095739148727398,0.00028157289226467264
158.48931924611125,1.5493100588135198,-0.48695444917078756,0.0002816283336361941
199.5262314968879,1.4726664887000944,-0.46074527589600667,0.00028171914924491476
251.18864315095797,1.4013759277082247,-0.43153259054908766,0.0002818400618714509
316.227766016838,1.3359194642488093,-0.3999528946960016,0.0002819796886242773
398.10717055349687,1.2766421061243796,-0.36667401112472753,0.00028212004982935274
501.187233627272,1.2237488526480373,-0.33237535598435475,0.00028223935995212723
630.957344480193,1.1773050810739196,-0.2977281408138843,0.0002823184162429396
794.3282347242813,1.1372412133434786,-0.26337620110758486,0.00028234938019283673
1000.0,1.1033614671522216,-0.2299181432740438,0.0002823442845935123
1258.9254117941662,1.0753563334167136,-0.19789146515502987,0.00028233974805209894
1584.8931924611124,1.0528182691256294,-0.1677592361309035,0.00028239460695913404
1995.2623149688789,1.0352599594060894,-0.1398998218917491,0.00028257869965024607
2511.8864315095802,1.0221343941444871,-0.11460001028074185,0.00028295369678802557
3162.2776601683795,1.0128559302167601,-0.09205174423941287,0.00028355007851989245
3981.0717055349687,1.0068214759774812,-0.07235250341366806,0.0002843471779118076
5011.8723362727205,1.003430943357653,-0.0555092071728267,0.0002852645608528298
6309.57344480193,1.0021061651432777,-0.04144534861528193,0.0002861719738024085
7943.282347242814,1.00230756822363,-0.030010921407184643,0.0002869212381131567
10000.0,1.003548022461822,-0.020994578543487297,0.0002873971534127495
12589.254117941662,1.0054034415448727,-0.014137371463276871,0.00028757694013859664
15848.93192461114,1.0075198870222541,-0.009147364921789691,0.0002875810268070031
19952.623149688792,1.0096171088809693,-0.0057144102977302325,0.00028769449482035636
25118.864315095827,1.0114886342114862,-0.003524387496809611,0.0002883404594720418
31622.776601683792,1.0129986790255747,-0.002272290400410437,0.00028999542099475417
39810.71705534969,1.0140762975271347,-0.0016736277303570635,0.0002930519831098946
50118.72336272724,1.0147072903538197,-0.0014737328192597765,0.00029765425772267096
63095.7344480193,1.0149244629770202,-0.0014547134496274428,0.0003035518999355974
79432.82347242821,1.0147968544833184,-0.0014399172651426984,0.0003100349524555457
100000.0,1.014418544702479,-0.001295929892060954,0.0003160181811096008
125892.5411794166,1.0138975957176024,-0.0009322531543423107,0.0003203360336734573
158489.3192461114,1.0133455960278237,-0.0002989223349756376,0.0003222857033539084
199526.2314968879,1.0128681586088928,0.0006175912420006702,0.00032241717674616477
251188.6431509582,1.0125565894039885,0.0017997871416027822,0.00032352026341062046
316227.7660168379,1.0124808131000211,0.0032054139537520676,0.0003317071859152837
398107.17055349686,1.0126835654155377,0.004774189033372678,0.00035744496995004926
501187.2336272725,1.0131759272575787,0.006434460001032594,0.0004163643249152499
630957.344480193,1.0139346320291778,0.008110412210453943,0.0005296687249120927
794328.2347242822,1.0149023485810167,0.009724949887331857,0.0007239931854975817
1000000.0,1.015993125010881,0.011209069828740481,0.0010306158429069165
